;$FILEVERSION=1.1
;$STARTTIME=46005.8949667361
;
;   Start time: 12/14/2025 21:28:45.126.0
;   Generated by PCAN-View v5.0.3.852
;
;   Message Number
;   |         Time Offset (ms)
;   |         |        Type
;   |         |        |        ID (hex)
;   |         |        |        |     Data Length
;   |         |        |        |     |   Data Bytes (hex) ...
;   |         |        |        |     |   |
;---+--   ----+----  --+--  ----+---  +  -+ -- -- -- -- -- -- --
     1)         0.0  Rx     00016FDA  7  01 00 00 0F 03 DA 6F 
     2)         0.1  Rx     00116FDA  5  01 00 00 DA 6F 
     3)         5.0  Rx     00018975  7  01 00 00 0F 03 75 89 
     4)         5.1  Rx     00118975  5  01 00 00 75 89 
     5)        10.0  Rx     00014D3A  7  01 00 00 0F 03 3A 4D 
     6)        10.0  Rx     00114D3A  5  01 00 00 3A 4D 
     7)        14.9  Rx     000150D0  7  01 00 00 0F 03 D0 50 
     8)        15.1  Rx     001150D0  5  01 00 00 D0 50 
     9)        19.9  Rx     00011844  7  01 00 00 0F 03 44 18 
    10)        20.1  Rx     00111844  5  01 00 00 44 18 
    11)        24.9  Rx     0001613F  7  01 00 00 0F 03 3F 61 
    12)        25.1  Rx     0011613F  5  01 00 00 3F 61 
    13)        30.0  Rx     000118EF  7  01 00 00 0F 03 EF 18 
    14)        30.1  Rx     001118EF  5  01 00 00 EF 18 
    15)        35.0  Rx     00010739  7  01 00 00 0F 03 39 07 
    16)        35.0  Rx     00110739  5  01 00 00 39 07 
    17)        39.9  Rx     0001A922  7  01 00 00 0F 03 22 A9 
    18)        40.1  Rx     0011A922  5  01 00 00 22 A9 
    19)        44.9  Rx     000126CC  7  01 00 00 0F 03 CC 26 
    20)        45.1  Rx     001126CC  5  01 00 00 CC 26 
    21)        49.9  Rx     0001E43C  7  01 00 00 0F 03 3C E4 
    22)        50.1  Rx     0011E43C  5  01 00 00 3C E4 
    23)        54.9  Rx     0001A87B  7  01 00 00 0F 03 7B A8 
    24)        55.1  Rx     0011A87B  5  01 00 00 7B A8 
    25)        60.0  Rx     00012D82  7  01 00 00 0F 03 82 2D 
    26)        60.0  Rx     00112D82  5  01 00 00 82 2D 
    27)        65.0  Rx     0001423F  7  01 00 00 0F 03 3F 42 
    28)        65.1  Rx     0011423F  5  01 00 00 3F 42 
    29)        69.9  Rx     00019E19  7  01 00 00 0F 03 19 9E 
    30)        70.1  Rx     00119E19  5  01 00 00 19 9E 
    31)        74.9  Rx     00017F78  7  01 00 00 0F 03 78 7F 
    32)        75.1  Rx     00117F78  5  01 00 00 78 7F 
    33)        79.9  Rx     0001A60A  7  01 00 00 0F 03 0A A6 
    34)        80.1  Rx     0011A60A  5  01 00 00 0A A6 
    35)        85.0  Rx     00018854  7  01 00 00 0F 03 54 88 
    36)        85.0  Rx     00118854  5  01 00 00 54 88 
    37)        90.0  Rx     0001E05C  7  01 00 00 0F 03 5C E0 
    38)        90.0  Rx     0011E05C  5  01 00 00 5C E0 
    39)        94.9  Rx     000180F8  7  01 00 00 0F 03 F8 80 
    40)        95.1  Rx     001180F8  5  01 00 00 F8 80 
    41)        99.9  Rx     0001413C  7  01 00 00 0F 03 3C 41 
    42)       100.1  Rx     0011413C  5  01 00 00 3C 41 
    43)       104.9  Rx     0001AA6D  7  01 00 00 0F 03 6D AA 
    44)       105.1  Rx     0011AA6D  5  01 00 00 6D AA 
    45)       109.9  Rx     0001C9E0  7  01 00 00 0F 03 E0 C9 
    46)       110.0  Rx     0011C9E0  5  01 00 00 E0 C9 
    47)       115.0  Rx     0001771F  7  01 00 00 0F 03 1F 77 
    48)       115.0  Rx     0011771F  5  01 00 00 1F 77 
    49)       119.9  Rx     0001BC77  7  01 00 00 0F 03 77 BC 
    50)       120.0  Rx     0011BC77  5  01 00 00 77 BC 
    51)       124.9  Rx     0001BE6D  7  01 00 00 0F 03 6D BE 
    52)       125.1  Rx     0011BE6D  5  01 00 00 6D BE 
    53)       129.9  Rx     0001C369  7  01 00 00 0F 03 69 C3 
    54)       130.1  Rx     0011C369  5  01 00 00 69 C3 
    55)       134.9  Rx     0001F6A1  7  01 00 00 0F 03 A1 F6 
    56)       135.1  Rx     0011F6A1  5  01 00 00 A1 F6 
    57)       139.9  Rx     0001A5BC  7  01 00 00 0F 03 BC A5 
    58)       140.0  Rx     0011A5BC  5  01 00 00 BC A5 
    59)       144.9  Rx     0001EA47  7  01 00 00 0F 03 47 EA 
    60)       145.0  Rx     0011EA47  5  01 00 00 47 EA 
    61)       149.9  Rx     0001574A  7  01 00 00 0F 03 4A 57 
    62)       150.1  Rx     0011574A  5  01 00 00 4A 57 
    63)       154.9  Rx     000191B7  7  01 00 00 0F 03 B7 91 
    64)       155.1  Rx     001191B7  5  01 00 00 B7 91 
    65)       159.9  Rx     0001BA35  7  01 00 00 0F 03 35 BA 
    66)       160.1  Rx     0011BA35  5  01 00 00 35 BA 
    67)       164.9  Rx     0001E355  7  01 00 00 0F 03 55 E3 
    68)       165.0  Rx     0011E355  5  01 00 00 55 E3 
    69)       170.0  Rx     0001FFC2  7  01 00 00 0F 03 C2 FF 
    70)       170.0  Rx     0011FFC2  5  01 00 00 C2 FF 
    71)       174.9  Rx     0001D0D0  7  01 00 00 0F 03 D0 D0 
    72)       175.0  Rx     0011D0D0  5  01 00 00 D0 D0 
    73)       179.9  Rx     00012175  7  01 00 00 0F 03 75 21 
    74)       180.1  Rx     00112175  5  01 00 00 75 21 
    75)       184.9  Rx     00018569  7  01 00 00 0F 03 69 85 
    76)       185.1  Rx     00118569  5  01 00 00 69 85 
    77)       189.9  Rx     0001F42A  7  01 00 00 0F 03 2A F4 
    78)       190.0  Rx     0011F42A  5  01 00 00 2A F4 
    79)       195.0  Rx     00013D06  7  01 00 00 0F 03 06 3D 
    80)       195.0  Rx     00113D06  5  01 00 00 06 3D 
    81)       199.9  Rx     0001D57F  7  01 00 00 0F 03 7F D5 
    82)       200.0  Rx     0011D57F  5  01 00 00 7F D5 
    83)       204.9  Rx     00015DA3  7  01 00 00 0F 03 A3 5D 
    84)       205.0  Rx     00115DA3  5  01 00 00 A3 5D 
    85)       209.9  Rx     0001FCCF  7  01 00 00 0F 03 CF FC 
    86)       210.1  Rx     0011FCCF  5  01 00 00 CF FC 
    87)       214.9  Rx     00018456  7  01 00 00 0F 03 56 84 
    88)       215.0  Rx     00118456  5  01 00 00 56 84 
    89)       219.9  Rx     0001E388  7  01 00 00 0F 03 88 E3 
    90)       220.0  Rx     0011E388  5  01 00 00 88 E3 
    91)       224.9  Rx     00013507  7  01 00 00 0F 03 07 35 
    92)       225.0  Rx     00113507  5  01 00 00 07 35 
    93)       229.9  Rx     0001459F  7  01 00 00 0F 03 9F 45 
    94)       230.0  Rx     0011459F  5  01 00 00 9F 45 
    95)       234.9  Rx     0001878E  7  01 00 00 0F 03 8E 87 
    96)       235.1  Rx     0011878E  5  01 00 00 8E 87 
    97)       239.9  Rx     0001B97C  7  01 00 00 0F 03 7C B9 
    98)       240.0  Rx     0011B97C  5  01 00 00 7C B9 
    99)       244.9  Rx     0001B6CD  7  01 00 00 0F 03 CD B6 
   100)       245.0  Rx     0011B6CD  5  01 00 00 CD B6 
   101)       249.9  Rx     00011B86  7  01 00 00 0F 03 86 1B 
   102)       250.0  Rx     00111B86  5  01 00 00 86 1B 
   103)       254.9  Rx     00014605  7  01 00 00 0F 03 05 46 
   104)       255.0  Rx     00114605  5  01 00 00 05 46 
   105)       259.9  Rx     00018841  7  01 00 00 0F 03 41 88 
   106)       260.0  Rx     00118841  5  01 00 00 41 88 
   107)       264.9  Rx     0001DE76  7  01 00 00 0F 03 76 DE 
   108)       265.1  Rx     0011DE76  5  01 00 00 76 DE 
   109)       269.9  Rx     0001D495  7  01 00 00 0F 03 95 D4 
   110)       270.0  Rx     0011D495  5  01 00 00 95 D4 
   111)       274.9  Rx     0001270D  7  01 00 00 0F 03 0D 27 
   112)       275.0  Rx     0011270D  5  01 00 00 0D 27 
   113)       279.9  Rx     000182BC  7  01 00 00 0F 03 BC 82 
   114)       280.0  Rx     001182BC  5  01 00 00 BC 82 
   115)       284.9  Rx     0001A9A3  7  01 00 00 0F 03 A3 A9 
   116)       285.0  Rx     0011A9A3  5  01 00 00 A3 A9 
   117)       289.9  Rx     000196E7  7  01 00 00 0F 03 E7 96 
   118)       290.0  Rx     001196E7  5  01 00 00 E7 96 
   119)       294.9  Rx     0001DD27  7  01 00 00 0F 03 27 DD 
   120)       295.0  Rx     0011DD27  5  01 00 00 27 DD 
   121)       299.9  Rx     00012D97  7  01 00 00 0F 03 97 2D 
   122)       300.0  Rx     00112D97  5  01 00 00 97 2D 
   123)       304.9  Rx     000191A4  7  01 00 00 0F 03 A4 91 
   124)       305.0  Rx     001191A4  5  01 00 00 A4 91 
   125)       309.9  Rx     00012243  7  01 00 00 0F 03 43 22 
   126)       310.0  Rx     00112243  5  01 00 00 43 22 
   127)       314.9  Rx     000196FB  7  01 00 00 0F 03 FB 96 
   128)       315.0  Rx     001196FB  5  01 00 00 FB 96 
   129)       319.9  Rx     0001BBBF  7  01 00 00 0F 03 BF BB 
   130)       320.0  Rx     0011BBBF  5  01 00 00 BF BB 
   131)       324.9  Rx     000124D2  7  01 00 00 0F 03 D2 24 
   132)       325.0  Rx     001124D2  5  01 00 00 D2 24 
   133)       329.9  Rx     0001A880  7  01 00 00 0F 03 80 A8 
   134)       330.0  Rx     0011A880  5  01 00 00 80 A8 
   135)       334.9  Rx     0001E205  7  01 00 00 0F 03 05 E2 
   136)       335.0  Rx     0011E205  5  01 00 00 05 E2 
   137)       339.9  Rx     000153AF  7  01 00 00 0F 03 AF 53 
   138)       340.0  Rx     001153AF  5  01 00 00 AF 53 
   139)       344.9  Rx     0001979C  7  01 00 00 0F 03 9C 97 
   140)       345.0  Rx     0011979C  5  01 00 00 9C 97 
   141)       349.9  Rx     00019CAB  7  01 00 00 0F 03 AB 9C 
   142)       350.0  Rx     00119CAB  5  01 00 00 AB 9C 
   143)       354.9  Rx     0001F30F  7  01 00 00 0F 03 0F F3 
   144)       355.0  Rx     0011F30F  5  01 00 00 0F F3 
   145)       359.9  Rx     00015D6E  7  01 00 00 0F 03 6E 5D 
   146)       360.0  Rx     00115D6E  5  01 00 00 6E 5D 
   147)       364.9  Rx     00014962  7  01 00 00 0F 03 62 49 
   148)       365.0  Rx     00114962  5  01 00 00 62 49 
   149)       369.9  Rx     000178EA  7  01 00 00 0F 03 EA 78 
   150)       370.0  Rx     001178EA  5  01 00 00 EA 78 
   151)       374.9  Rx     00018061  7  01 00 00 0F 03 61 80 
   152)       375.0  Rx     00118061  5  01 00 00 61 80 
   153)       379.9  Rx     0001E559  7  01 00 00 0F 03 59 E5 
   154)       380.0  Rx     0011E559  5  01 00 00 59 E5 
   155)       384.9  Rx     00016103  7  01 00 00 0F 03 03 61 
   156)       385.0  Rx     00116103  5  01 00 00 03 61 
   157)       389.9  Rx     0001A31E  7  01 00 00 0F 03 1E A3 
   158)       390.0  Rx     0011A31E  5  01 00 00 1E A3 
   159)       394.9  Rx     000109B9  7  01 00 00 0F 03 B9 09 
   160)       395.0  Rx     001109B9  5  01 00 00 B9 09 
   161)       399.9  Rx     0001D3A0  7  01 00 00 0F 03 A0 D3 
   162)       400.0  Rx     0011D3A0  5  01 00 00 A0 D3 
   163)       404.9  Rx     00015937  7  01 00 00 0F 03 37 59 
   164)       405.0  Rx     00115937  5  01 00 00 37 59 
   165)       409.9  Rx     00011C4A  7  01 00 00 0F 03 4A 1C 
   166)       410.0  Rx     00111C4A  5  01 00 00 4A 1C 
   167)       414.9  Rx     0001ADFC  7  01 00 00 0F 03 FC AD 
   168)       415.0  Rx     0011ADFC  5  01 00 00 FC AD 
   169)       419.9  Rx     00014C91  7  01 00 00 0F 03 91 4C 
   170)       420.0  Rx     00114C91  5  01 00 00 91 4C 
   171)       424.9  Rx     0001949E  7  01 00 00 0F 03 9E 94 
   172)       425.0  Rx     0011949E  5  01 00 00 9E 94 
   173)       429.9  Rx     00017EB5  7  01 00 00 0F 03 B5 7E 
   174)       430.0  Rx     00117EB5  5  01 00 00 B5 7E 
   175)       434.9  Rx     000162A9  7  01 00 00 0F 03 A9 62 
   176)       435.0  Rx     001162A9  5  01 00 00 A9 62 
   177)       439.9  Rx     0001F997  7  01 00 00 0F 03 97 F9 
   178)       440.0  Rx     0011F997  5  01 00 00 97 F9 
   179)       444.9  Rx     0001D994  7  01 00 00 0F 03 94 D9 
   180)       445.0  Rx     0011D994  5  01 00 00 94 D9 
   181)       449.9  Rx     00019ED1  7  01 00 00 0F 03 D1 9E 
   182)       450.0  Rx     00119ED1  5  01 00 00 D1 9E 
   183)       454.9  Rx     0001F511  7  01 00 00 0F 03 11 F5 
   184)       455.0  Rx     0011F511  5  01 00 00 11 F5 
   185)       459.9  Rx     00015AFF  7  01 00 00 0F 03 FF 5A 
   186)       460.0  Rx     00115AFF  5  01 00 00 FF 5A 
   187)       464.9  Rx     000105C9  7  01 00 00 0F 03 C9 05 
   188)       465.0  Rx     001105C9  5  01 00 00 C9 05 
   189)       469.9  Rx     000176D9  7  01 00 00 0F 03 D9 76 
   190)       470.0  Rx     001176D9  5  01 00 00 D9 76 
   191)       474.9  Rx     00012547  7  01 00 00 0F 03 47 25 
   192)       475.0  Rx     00112547  5  01 00 00 47 25 
   193)       479.9  Rx     00011680  7  01 00 00 0F 03 80 16 
   194)       480.0  Rx     00111680  5  01 00 00 80 16 
   195)       484.9  Rx     00017593  7  01 00 00 0F 03 93 75 
   196)       485.0  Rx     00117593  5  01 00 00 93 75 
   197)       489.9  Rx     0001ED3C  7  01 00 00 0F 03 3C ED 
   198)       490.0  Rx     0011ED3C  5  01 00 00 3C ED 
   199)       494.9  Rx     0001AAD7  7  01 00 00 0F 03 D7 AA 
   200)       495.0  Rx     0011AAD7  5  01 00 00 D7 AA 
   201)       499.9  Rx     00014E78  7  01 00 00 0F 03 78 4E 
   202)       500.0  Rx     00114E78  5  01 00 00 78 4E 
   203)       504.9  Rx     0001BB01  7  01 00 00 0F 03 01 BB 
   204)       505.0  Rx     0011BB01  5  01 00 00 01 BB 
   205)       509.9  Rx     0001B1BC  7  01 00 00 0F 03 BC B1 
   206)       510.0  Rx     0011B1BC  5  01 00 00 BC B1 
   207)       514.9  Rx     00013B39  7  01 00 00 0F 03 39 3B 
   208)       515.0  Rx     00113B39  5  01 00 00 39 3B 
   209)       519.9  Rx     0001E5F6  7  01 00 00 0F 03 F6 E5 
   210)       520.0  Rx     0011E5F6  5  01 00 00 F6 E5 
   211)       524.9  Rx     000104AF  7  01 00 00 0F 03 AF 04 
   212)       525.0  Rx     001104AF  5  01 00 00 AF 04 
   213)       529.9  Rx     0001F554  7  01 00 00 0F 03 54 F5 
   214)       530.0  Rx     0011F554  5  01 00 00 54 F5 
   215)       534.9  Rx     0001BA03  7  01 00 00 0F 03 03 BA 
   216)       535.0  Rx     0011BA03  5  01 00 00 03 BA 
   217)       539.9  Rx     0001DD7C  7  01 00 00 0F 03 7C DD 
   218)       540.0  Rx     0011DD7C  5  01 00 00 7C DD 
   219)       544.9  Rx     0001E05B  7  01 00 00 0F 03 5B E0 
   220)       545.0  Rx     0011E05B  5  01 00 00 5B E0 
   221)       549.9  Rx     000150DD  7  01 00 00 0F 03 DD 50 
   222)       550.0  Rx     001150DD  5  01 00 00 DD 50 
   223)       554.9  Rx     00012EE1  7  01 00 00 0F 03 E1 2E 
   224)       555.0  Rx     00112EE1  5  01 00 00 E1 2E 
   225)       559.9  Rx     00019480  7  01 00 00 0F 03 80 94 
   226)       560.0  Rx     00119480  5  01 00 00 80 94 
   227)       564.9  Rx     0001993B  7  01 00 00 0F 03 3B 99 
   228)       565.0  Rx     0011993B  5  01 00 00 3B 99 
   229)       569.9  Rx     00018A6F  7  01 00 00 0F 03 6F 8A 
   230)       570.0  Rx     00118A6F  5  01 00 00 6F 8A 
   231)       574.9  Rx     0001D944  7  01 00 00 0F 03 44 D9 
   232)       575.0  Rx     0011D944  5  01 00 00 44 D9 
   233)       579.9  Rx     00012BB6  7  01 00 00 0F 03 B6 2B 
   234)       580.0  Rx     00112BB6  5  01 00 00 B6 2B 
   235)       584.9  Rx     0001E60B  7  01 00 00 0F 03 0B E6 
   236)       585.0  Rx     0011E60B  5  01 00 00 0B E6 
   237)       589.9  Rx     00016588  7  01 00 00 0F 03 88 65 
   238)       590.0  Rx     00116588  5  01 00 00 88 65 
   239)       594.9  Rx     000145DC  7  01 00 00 0F 03 DC 45 
   240)       595.0  Rx     001145DC  5  01 00 00 DC 45 
   241)       599.9  Rx     0001BC0E  7  01 00 00 0F 03 0E BC 
   242)       600.0  Rx     0011BC0E  5  01 00 00 0E BC 
   243)       604.9  Rx     00016EE8  7  01 00 00 0F 03 E8 6E 
   244)       605.0  Rx     00116EE8  5  01 00 00 E8 6E 
   245)       609.9  Rx     000175EE  7  01 00 00 0F 03 EE 75 
   246)       610.0  Rx     001175EE  5  01 00 00 EE 75 
   247)       614.9  Rx     000159C6  7  01 00 00 0F 03 C6 59 
   248)       615.0  Rx     001159C6  5  01 00 00 C6 59 
   249)       619.9  Rx     0001C67E  7  01 00 00 0F 03 7E C6 
   250)       620.0  Rx     0011C67E  5  01 00 00 7E C6 
   251)       624.9  Rx     00015EDE  7  01 00 00 0F 03 DE 5E 
   252)       625.0  Rx     00115EDE  5  01 00 00 DE 5E 
   253)       629.9  Rx     0001ED54  7  01 00 00 0F 03 54 ED 
   254)       630.0  Rx     0011ED54  5  01 00 00 54 ED 
   255)       634.9  Rx     00016B84  7  01 00 00 0F 03 84 6B 
   256)       635.0  Rx     00116B84  5  01 00 00 84 6B 
   257)       639.8  Rx     00016480  7  01 00 00 0F 03 80 64 
   258)       639.9  Rx     00116480  5  01 00 00 80 64 
   259)       644.9  Rx     0001ED42  7  01 00 00 0F 03 42 ED 
   260)       644.9  Rx     0011ED42  5  01 00 00 42 ED 
   261)       649.8  Rx     00016FBD  7  01 00 00 0F 03 BD 6F 
   262)       649.9  Rx     00116FBD  5  01 00 00 BD 6F 
   263)       654.8  Rx     000141AF  7  01 00 00 0F 03 AF 41 
   264)       655.0  Rx     001141AF  5  01 00 00 AF 41 
   265)       659.8  Rx     0001B55A  7  01 00 00 0F 03 5A B5 
   266)       660.0  Rx     0011B55A  5  01 00 00 5A B5 
   267)       664.8  Rx     000106C0  7  01 00 00 0F 03 C0 06 
   268)       664.9  Rx     001106C0  5  01 00 00 C0 06 
   269)       669.8  Rx     0001D2A3  7  01 00 00 0F 03 A3 D2 
   270)       669.9  Rx     0011D2A3  5  01 00 00 A3 D2 
   271)       674.8  Rx     00013F6E  7  01 00 00 0F 03 6E 3F 
   272)       674.9  Rx     00113F6E  5  01 00 00 6E 3F 
   273)       679.8  Rx     00010C20  7  01 00 00 0F 03 20 0C 
   274)       679.9  Rx     00110C20  5  01 00 00 20 0C 
   275)       684.8  Rx     0001BA33  7  01 00 00 0F 03 33 BA 
   276)       685.0  Rx     0011BA33  5  01 00 00 33 BA 
   277)       689.8  Rx     000112D6  7  01 00 00 0F 03 D6 12 
   278)       689.9  Rx     001112D6  5  01 00 00 D6 12 
   279)       694.8  Rx     000152A5  7  01 00 00 0F 03 A5 52 
   280)       694.9  Rx     001152A5  5  01 00 00 A5 52 
   281)       699.8  Rx     00016A79  7  01 00 00 0F 03 79 6A 
   282)       699.9  Rx     00116A79  5  01 00 00 79 6A 
   283)       704.8  Rx     0001D937  7  01 00 00 0F 03 37 D9 
   284)       704.9  Rx     0011D937  5  01 00 00 37 D9 
   285)       709.8  Rx     0001F925  7  01 00 00 0F 03 25 F9 
   286)       710.0  Rx     0011F925  5  01 00 00 25 F9 
   287)       714.8  Rx     000117ED  7  01 00 00 0F 03 ED 17 
   288)       715.0  Rx     001117ED  5  01 00 00 ED 17 
   289)       719.8  Rx     00019C23  7  01 00 00 0F 03 23 9C 
   290)       719.9  Rx     00119C23  5  01 00 00 23 9C 
   291)       724.8  Rx     0001947F  7  01 00 00 0F 03 7F 94 
   292)       724.9  Rx     0011947F  5  01 00 00 7F 94 
   293)       729.8  Rx     000101BE  7  01 00 00 0F 03 BE 01 
   294)       729.9  Rx     001101BE  5  01 00 00 BE 01 
   295)       734.8  Rx     0001E846  7  01 00 00 0F 03 46 E8 
   296)       734.9  Rx     0011E846  5  01 00 00 46 E8 
   297)       739.8  Rx     0001C736  7  01 00 00 0F 03 36 C7 
   298)       740.0  Rx     0011C736  5  01 00 00 36 C7 
   299)       744.8  Rx     0001FBE6  7  01 00 00 0F 03 E6 FB 
   300)       744.9  Rx     0011FBE6  5  01 00 00 E6 FB 
   301)       749.8  Rx     00012E55  7  01 00 00 0F 03 55 2E 
   302)       749.9  Rx     00112E55  5  01 00 00 55 2E 
   303)       754.8  Rx     0001F08D  7  01 00 00 0F 03 8D F0 
   304)       754.9  Rx     0011F08D  5  01 00 00 8D F0 
   305)       759.8  Rx     0001712B  7  01 00 00 0F 03 2B 71 
   306)       759.9  Rx     0011712B  5  01 00 00 2B 71 
   307)       764.8  Rx     00018646  7  01 00 00 0F 03 46 86 
   308)       765.0  Rx     00118646  5  01 00 00 46 86 
   309)       769.8  Rx     0001C307  7  01 00 00 0F 03 07 C3 
   310)       769.9  Rx     0011C307  5  01 00 00 07 C3 
   311)       774.8  Rx     00012AAE  7  01 00 00 0F 03 AE 2A 
   312)       774.9  Rx     00112AAE  5  01 00 00 AE 2A 
   313)       779.8  Rx     0001189B  7  01 00 00 0F 03 9B 18 
   314)       779.9  Rx     0011189B  5  01 00 00 9B 18 
   315)       784.8  Rx     0001B90B  7  01 00 00 0F 03 0B B9 
   316)       784.9  Rx     0011B90B  5  01 00 00 0B B9 
   317)       789.8  Rx     000129FB  7  01 00 00 0F 03 FB 29 
   318)       789.9  Rx     001129FB  5  01 00 00 FB 29 
   319)       794.8  Rx     00017C99  7  01 00 00 0F 03 99 7C 
   320)       794.9  Rx     00117C99  5  01 00 00 99 7C 
   321)       799.8  Rx     000153C8  7  01 00 00 0F 03 C8 53 
   322)       799.9  Rx     001153C8  5  01 00 00 C8 53 
   323)       804.8  Rx     0001B386  7  01 00 00 0F 03 86 B3 
   324)       804.9  Rx     0011B386  5  01 00 00 86 B3 
   325)       809.8  Rx     0001C5CC  7  01 00 00 0F 03 CC C5 
   326)       809.9  Rx     0011C5CC  5  01 00 00 CC C5 
   327)       814.8  Rx     0001D0F5  7  01 00 00 0F 03 F5 D0 
   328)       814.9  Rx     0011D0F5  5  01 00 00 F5 D0 
   329)       819.8  Rx     00012BDC  7  01 00 00 0F 03 DC 2B 
   330)       819.9  Rx     00112BDC  5  01 00 00 DC 2B 
   331)       824.8  Rx     0001A601  7  01 00 00 0F 03 01 A6 
   332)       824.9  Rx     0011A601  5  01 00 00 01 A6 
   333)       829.8  Rx     0001A6A9  7  01 00 00 0F 03 A9 A6 
   334)       829.9  Rx     0011A6A9  5  01 00 00 A9 A6 
   335)       834.8  Rx     00011995  7  01 00 00 0F 03 95 19 
   336)       834.9  Rx     00111995  5  01 00 00 95 19 
   337)       839.8  Rx     000178F2  7  01 00 00 0F 03 F2 78 
   338)       839.9  Rx     001178F2  5  01 00 00 F2 78 
   339)       844.8  Rx     00017896  7  01 00 00 0F 03 96 78 
   340)       844.9  Rx     00117896  5  01 00 00 96 78 
   341)       849.8  Rx     00017238  7  01 00 00 0F 03 38 72 
   342)       849.9  Rx     00117238  5  01 00 00 38 72 
   343)       854.8  Rx     000163AE  7  01 00 00 0F 03 AE 63 
   344)       854.9  Rx     001163AE  5  01 00 00 AE 63 
   345)       859.8  Rx     00012AD8  7  01 00 00 0F 03 D8 2A 
   346)       859.9  Rx     00112AD8  5  01 00 00 D8 2A 
   347)       864.8  Rx     000165BF  7  01 00 00 0F 03 BF 65 
   348)       864.9  Rx     001165BF  5  01 00 00 BF 65 
   349)       869.8  Rx     0001363E  7  01 00 00 0F 03 3E 36 
   350)       869.9  Rx     0011363E  5  01 00 00 3E 36 
   351)       874.8  Rx     0001DDC5  7  01 00 00 0F 03 C5 DD 
   352)       874.9  Rx     0011DDC5  5  01 00 00 C5 DD 
   353)       879.8  Rx     00019291  7  01 00 00 0F 03 91 92 
   354)       879.9  Rx     00119291  5  01 00 00 91 92 
   355)       884.8  Rx     000168AC  7  01 00 00 0F 03 AC 68 
   356)       884.9  Rx     001168AC  5  01 00 00 AC 68 
   357)       889.8  Rx     000121FF  7  01 00 00 0F 03 FF 21 
   358)       889.9  Rx     001121FF  5  01 00 00 FF 21 
   359)       894.8  Rx     00010369  7  01 00 00 0F 03 69 03 
   360)       894.9  Rx     00110369  5  01 00 00 69 03 
   361)       899.8  Rx     0001B89B  7  01 00 00 0F 03 9B B8 
   362)       899.9  Rx     0011B89B  5  01 00 00 9B B8 
   363)       904.8  Rx     0001EB57  7  01 00 00 0F 03 57 EB 
   364)       904.9  Rx     0011EB57  5  01 00 00 57 EB 
   365)       909.8  Rx     00016E66  7  01 00 00 0F 03 66 6E 
   366)       909.9  Rx     00116E66  5  01 00 00 66 6E 
   367)       914.8  Rx     000186A5  7  01 00 00 0F 03 A5 86 
   368)       914.9  Rx     001186A5  5  01 00 00 A5 86 
   369)       919.8  Rx     0001B7F5  7  01 00 00 0F 03 F5 B7 
   370)       919.9  Rx     0011B7F5  5  01 00 00 F5 B7 
   371)       924.8  Rx     00013C58  7  01 00 00 0F 03 58 3C 
   372)       924.9  Rx     00113C58  5  01 00 00 58 3C 
   373)       929.8  Rx     00011CE3  7  01 00 00 0F 03 E3 1C 
   374)       929.9  Rx     00111CE3  5  01 00 00 E3 1C 
   375)       934.8  Rx     00018732  7  01 00 00 0F 03 32 87 
   376)       934.9  Rx     00118732  5  01 00 00 32 87 
   377)       939.8  Rx     0001EDDF  7  01 00 00 0F 03 DF ED 
   378)       939.9  Rx     0011EDDF  5  01 00 00 DF ED 
   379)       944.8  Rx     00014078  7  01 00 00 0F 03 78 40 
   380)       944.9  Rx     00114078  5  01 00 00 78 40 
   381)       949.8  Rx     0001CD17  7  01 00 00 0F 03 17 CD 
   382)       949.9  Rx     0011CD17  5  01 00 00 17 CD 
   383)       954.8  Rx     0001836E  7  01 00 00 0F 03 6E 83 
   384)       954.9  Rx     0011836E  5  01 00 00 6E 83 
   385)       959.8  Rx     0001725E  7  01 00 00 0F 03 5E 72 
   386)       959.9  Rx     0011725E  5  01 00 00 5E 72 
   387)       964.8  Rx     0001E006  7  01 00 00 0F 03 06 E0 
   388)       964.9  Rx     0011E006  5  01 00 00 06 E0 
   389)       969.8  Rx     00019531  7  01 00 00 0F 03 31 95 
   390)       969.9  Rx     00119531  5  01 00 00 31 95 
   391)       974.8  Rx     00017710  7  01 00 00 0F 03 10 77 
   392)       974.9  Rx     00117710  5  01 00 00 10 77 
   393)       979.8  Rx     00014986  7  01 00 00 0F 03 86 49 
   394)       979.9  Rx     00114986  5  01 00 00 86 49 
   395)       984.8  Rx     0001B3EC  7  01 00 00 0F 03 EC B3 
   396)       984.9  Rx     0011B3EC  5  01 00 00 EC B3 
   397)       989.8  Rx     0001C115  7  01 00 00 0F 03 15 C1 
   398)       989.9  Rx     0011C115  5  01 00 00 15 C1 
   399)       994.8  Rx     0001F397  7  01 00 00 0F 03 97 F3 
   400)       994.9  Rx     0011F397  5  01 00 00 97 F3 
   401)       999.8  Rx     0001C176  7  01 00 00 0F 03 76 C1 
   402)       999.9  Rx     0011C176  5  01 00 00 76 C1 
   403)      1004.8  Rx     00017280  7  01 00 00 0F 03 80 72 
   404)      1004.9  Rx     00117280  5  01 00 00 80 72 
   405)      1009.8  Rx     0001B441  7  01 00 00 0F 03 41 B4 
   406)      1009.9  Rx     0011B441  5  01 00 00 41 B4 
   407)      1014.8  Rx     00011286  7  01 00 00 0F 03 86 12 
   408)      1014.9  Rx     00111286  5  01 00 00 86 12 
   409)      1019.8  Rx     0001BD21  7  01 00 00 0F 03 21 BD 
   410)      1019.9  Rx     0011BD21  5  01 00 00 21 BD 
   411)      1024.8  Rx     0001AC1B  7  01 00 00 0F 03 1B AC 
   412)      1024.9  Rx     0011AC1B  5  01 00 00 1B AC 
   413)      1029.8  Rx     0001AA6F  7  01 00 00 0F 03 6F AA 
   414)      1029.9  Rx     0011AA6F  5  01 00 00 6F AA 
   415)      1034.8  Rx     0001A552  7  01 00 00 0F 03 52 A5 
   416)      1034.9  Rx     0011A552  5  01 00 00 52 A5 
   417)      1039.8  Rx     00010BD2  7  01 00 00 0F 03 D2 0B 
   418)      1039.9  Rx     00110BD2  5  01 00 00 D2 0B 
   419)      1044.8  Rx     00013B6A  7  01 00 00 0F 03 6A 3B 
   420)      1044.9  Rx     00113B6A  5  01 00 00 6A 3B 
   421)      1049.8  Rx     00018EFA  7  01 00 00 0F 03 FA 8E 
   422)      1049.9  Rx     00118EFA  5  01 00 00 FA 8E 
   423)      1054.8  Rx     00013B16  7  01 00 00 0F 03 16 3B 
   424)      1054.9  Rx     00113B16  5  01 00 00 16 3B 
   425)      1059.8  Rx     0001A96D  7  01 00 00 0F 03 6D A9 
   426)      1059.9  Rx     0011A96D  5  01 00 00 6D A9 
   427)      1064.8  Rx     0001D986  7  01 00 00 0F 03 86 D9 
   428)      1064.9  Rx     0011D986  5  01 00 00 86 D9 
   429)      1069.8  Rx     0001D300  7  01 00 00 0F 03 00 D3 
   430)      1069.9  Rx     0011D300  5  01 00 00 00 D3 
   431)      1074.8  Rx     0001200B  7  01 00 00 0F 03 0B 20 
   432)      1074.9  Rx     0011200B  5  01 00 00 0B 20 
   433)      1079.8  Rx     00012B75  7  01 00 00 0F 03 75 2B 
   434)      1079.9  Rx     00112B75  5  01 00 00 75 2B 
   435)      1084.8  Rx     0001B9C4  7  01 00 00 0F 03 C4 B9 
   436)      1084.9  Rx     0011B9C4  5  01 00 00 C4 B9 
   437)      1089.8  Rx     00012A4B  7  01 00 00 0F 03 4B 2A 
   438)      1089.9  Rx     00112A4B  5  01 00 00 4B 2A 
   439)      1094.8  Rx     00018EB9  7  01 00 00 0F 03 B9 8E 
   440)      1094.9  Rx     00118EB9  5  01 00 00 B9 8E 
   441)      1099.8  Rx     0001EAD0  7  01 00 00 0F 03 D0 EA 
   442)      1099.9  Rx     0011EAD0  5  01 00 00 D0 EA 
   443)      1104.8  Rx     00010D4D  7  01 00 00 0F 03 4D 0D 
   444)      1104.9  Rx     00110D4D  5  01 00 00 4D 0D 
   445)      1109.8  Rx     00017AF0  7  01 00 00 0F 03 F0 7A 
   446)      1109.9  Rx     00117AF0  5  01 00 00 F0 7A 
   447)      1114.8  Rx     000196EC  7  01 00 00 0F 03 EC 96 
   448)      1114.9  Rx     001196EC  5  01 00 00 EC 96 
   449)      1119.8  Rx     00016E4C  7  01 00 00 0F 03 4C 6E 
   450)      1119.9  Rx     00116E4C  5  01 00 00 4C 6E 
   451)      1124.8  Rx     00019A6C  7  01 00 00 0F 03 6C 9A 
   452)      1124.9  Rx     00119A6C  5  01 00 00 6C 9A 
   453)      1129.8  Rx     000183B3  7  01 00 00 0F 03 B3 83 
   454)      1129.9  Rx     001183B3  5  01 00 00 B3 83 
   455)      1134.8  Rx     00015268  7  01 00 00 0F 03 68 52 
   456)      1134.9  Rx     00115268  5  01 00 00 68 52 
   457)      1139.8  Rx     0001B5E0  7  01 00 00 0F 03 E0 B5 
   458)      1139.9  Rx     0011B5E0  5  01 00 00 E0 B5 
   459)      1144.8  Rx     00014FA9  7  01 00 00 0F 03 A9 4F 
   460)      1144.9  Rx     00114FA9  5  01 00 00 A9 4F 
   461)      1149.8  Rx     0001CD30  7  01 00 00 0F 03 30 CD 
   462)      1149.9  Rx     0011CD30  5  01 00 00 30 CD 
   463)      1154.8  Rx     0001DF5C  7  01 00 00 0F 03 5C DF 
   464)      1154.9  Rx     0011DF5C  5  01 00 00 5C DF 
   465)      1159.8  Rx     00018AB3  7  01 00 00 0F 03 B3 8A 
   466)      1159.9  Rx     00118AB3  5  01 00 00 B3 8A 
   467)      1164.8  Rx     0001BA99  7  01 00 00 0F 03 99 BA 
   468)      1164.9  Rx     0011BA99  5  01 00 00 99 BA 
   469)      1169.8  Rx     000175BA  7  01 00 00 0F 03 BA 75 
   470)      1169.9  Rx     001175BA  5  01 00 00 BA 75 
   471)      1174.8  Rx     00017C96  7  01 00 00 0F 03 96 7C 
   472)      1174.9  Rx     00117C96  5  01 00 00 96 7C 
   473)      1179.8  Rx     0001C7DD  7  01 00 00 0F 03 DD C7 
   474)      1179.9  Rx     0011C7DD  5  01 00 00 DD C7 
   475)      1184.8  Rx     0001CA72  7  01 00 00 0F 03 72 CA 
   476)      1184.9  Rx     0011CA72  5  01 00 00 72 CA 
   477)      1189.8  Rx     0001F001  7  01 00 00 0F 03 01 F0 
   478)      1189.9  Rx     0011F001  5  01 00 00 01 F0 
   479)      1194.8  Rx     0001937B  7  01 00 00 0F 03 7B 93 
   480)      1194.9  Rx     0011937B  5  01 00 00 7B 93 
   481)      1199.8  Rx     0001ABEE  7  01 00 00 0F 03 EE AB 
   482)      1199.9  Rx     0011ABEE  5  01 00 00 EE AB 
   483)      1204.7  Rx     00012661  7  01 00 00 0F 03 61 26 
   484)      1204.9  Rx     00112661  5  01 00 00 61 26 
   485)      1209.8  Rx     0001E076  7  01 00 00 0F 03 76 E0 
   486)      1209.9  Rx     0011E076  5  01 00 00 76 E0 
   487)      1214.8  Rx     0001BBB4  7  01 00 00 0F 03 B4 BB 
   488)      1214.9  Rx     0011BBB4  5  01 00 00 B4 BB 
   489)      1219.8  Rx     00013B32  7  01 00 00 0F 03 32 3B 
   490)      1219.9  Rx     00113B32  5  01 00 00 32 3B 
   491)      1224.8  Rx     0001EB9B  7  01 00 00 0F 03 9B EB 
   492)      1224.9  Rx     0011EB9B  5  01 00 00 9B EB 
   493)      1229.7  Rx     0001ED6E  7  01 00 00 0F 03 6E ED 
   494)      1229.9  Rx     0011ED6E  5  01 00 00 6E ED 
   495)      1234.8  Rx     0001E8A7  7  01 00 00 0F 03 A7 E8 
   496)      1234.9  Rx     0011E8A7  5  01 00 00 A7 E8 
   497)      1239.8  Rx     00016EB1  7  01 00 00 0F 03 B1 6E 
   498)      1239.9  Rx     00116EB1  5  01 00 00 B1 6E 
   499)      1244.8  Rx     00011B34  7  01 00 00 0F 03 34 1B 
   500)      1244.9  Rx     00111B34  5  01 00 00 34 1B 
   501)      1249.8  Rx     00018A07  7  01 00 00 0F 03 07 8A 
   502)      1249.9  Rx     00118A07  5  01 00 00 07 8A 
   503)      1254.7  Rx     000160AC  7  01 00 00 0F 03 AC 60 
   504)      1254.9  Rx     001160AC  5  01 00 00 AC 60 
   505)      1259.8  Rx     0001A7F8  7  01 00 00 0F 03 F8 A7 
   506)      1259.9  Rx     0011A7F8  5  01 00 00 F8 A7 
   507)      1264.8  Rx     000143B1  7  01 00 00 0F 03 B1 43 
   508)      1264.9  Rx     001143B1  5  01 00 00 B1 43 
   509)      1269.8  Rx     0001C7CD  7  01 00 00 0F 03 CD C7 
   510)      1269.9  Rx     0011C7CD  5  01 00 00 CD C7 
   511)      1274.8  Rx     0001D9FA  7  01 00 00 0F 03 FA D9 
   512)      1274.9  Rx     0011D9FA  5  01 00 00 FA D9 
   513)      1279.8  Rx     0001DD99  7  01 00 00 0F 03 99 DD 
   514)      1279.9  Rx     0011DD99  5  01 00 00 99 DD 
   515)      1284.7  Rx     0001FE5E  7  01 00 00 0F 03 5E FE 
   516)      1284.9  Rx     0011FE5E  5  01 00 00 5E FE 
   517)      1289.8  Rx     0001271B  7  01 00 00 0F 03 1B 27 
   518)      1289.9  Rx     0011271B  5  01 00 00 1B 27 
   519)      1294.8  Rx     00017D66  7  01 00 00 0F 03 66 7D 
   520)      1294.9  Rx     00117D66  5  01 00 00 66 7D 
   521)      1299.8  Rx     00010C73  7  01 00 00 0F 03 73 0C 
   522)      1299.9  Rx     00110C73  5  01 00 00 73 0C 
   523)      1304.8  Rx     00019460  7  01 00 00 0F 03 60 94 
   524)      1304.9  Rx     00119460  5  01 00 00 60 94 
   525)      1309.7  Rx     00016A42  7  01 00 00 0F 03 42 6A 
   526)      1309.9  Rx     00116A42  5  01 00 00 42 6A 
   527)      1314.7  Rx     000106CA  7  01 00 00 0F 03 CA 06 
   528)      1314.9  Rx     001106CA  5  01 00 00 CA 06 
   529)      1319.8  Rx     000171B1  7  01 00 00 0F 03 B1 71 
   530)      1319.9  Rx     001171B1  5  01 00 00 B1 71 
   531)      1324.8  Rx     00017789  7  01 00 00 0F 03 89 77 
   532)      1324.8  Rx     00117789  5  01 00 00 89 77 
   533)      1329.8  Rx     00015B6B  7  01 00 00 0F 03 6B 5B 
   534)      1329.9  Rx     00115B6B  5  01 00 00 6B 5B 
   535)      1334.7  Rx     0001C746  7  01 00 00 0F 03 46 C7 
   536)      1334.9  Rx     0011C746  5  01 00 00 46 C7 
   537)      1339.7  Rx     0001DD92  7  01 00 00 0F 03 92 DD 
   538)      1339.9  Rx     0011DD92  5  01 00 00 92 DD 
   539)      1344.8  Rx     0001DAEE  7  01 00 00 0F 03 EE DA 
   540)      1344.9  Rx     0011DAEE  5  01 00 00 EE DA 
   541)      1349.8  Rx     0001AD3C  7  01 00 00 0F 03 3C AD 
   542)      1349.8  Rx     0011AD3C  5  01 00 00 3C AD 
   543)      1354.8  Rx     0001B928  7  01 00 00 0F 03 28 B9 
   544)      1354.9  Rx     0011B928  5  01 00 00 28 B9 
   545)      1359.7  Rx     000116EE  7  01 00 00 0F 03 EE 16 
   546)      1359.9  Rx     001116EE  5  01 00 00 EE 16 
   547)      1364.7  Rx     00014F39  7  01 00 00 0F 03 39 4F 
   548)      1364.9  Rx     00114F39  5  01 00 00 39 4F 
   549)      1369.7  Rx     0001C23C  7  01 00 00 0F 03 3C C2 
   550)      1369.9  Rx     0011C23C  5  01 00 00 3C C2 
   551)      1374.8  Rx     00019DAB  7  01 00 00 0F 03 AB 9D 
   552)      1374.9  Rx     00119DAB  5  01 00 00 AB 9D 
   553)      1379.8  Rx     00010373  7  01 00 00 0F 03 73 03 
   554)      1379.8  Rx     00110373  5  01 00 00 73 03 
   555)      1384.7  Rx     000136BE  7  01 00 00 0F 03 BE 36 
   556)      1384.9  Rx     001136BE  5  01 00 00 BE 36 
   557)      1389.7  Rx     00016EF6  7  01 00 00 0F 03 F6 6E 
   558)      1389.9  Rx     00116EF6  5  01 00 00 F6 6E 
   559)      1394.7  Rx     0001F862  7  01 00 00 0F 03 62 F8 
   560)      1394.9  Rx     0011F862  5  01 00 00 62 F8 
   561)      1399.8  Rx     000120B3  7  01 00 00 0F 03 B3 20 
   562)      1399.9  Rx     001120B3  5  01 00 00 B3 20 
   563)      1404.8  Rx     0001794E  7  01 00 00 0F 03 4E 79 
   564)      1404.8  Rx     0011794E  5  01 00 00 4E 79 
   565)      1409.8  Rx     0001DEDF  7  01 00 00 0F 03 DF DE 
   566)      1409.9  Rx     0011DEDF  5  01 00 00 DF DE 
   567)      1414.7  Rx     00012472  7  01 00 00 0F 03 72 24 
   568)      1414.9  Rx     00112472  5  01 00 00 72 24 
   569)      1419.7  Rx     0001C5DE  7  01 00 00 0F 03 DE C5 
   570)      1419.9  Rx     0011C5DE  5  01 00 00 DE C5 
   571)      1424.7  Rx     0001FBCE  7  01 00 00 0F 03 CE FB 
   572)      1424.9  Rx     0011FBCE  5  01 00 00 CE FB 
   573)      1429.8  Rx     00015FF7  7  01 00 00 0F 03 F7 5F 
   574)      1429.8  Rx     00115FF7  5  01 00 00 F7 5F 
   575)      1434.8  Rx     00017381  7  01 00 00 0F 03 81 73 
   576)      1434.8  Rx     00117381  5  01 00 00 81 73 
   577)      1439.7  Rx     0001664D  7  01 00 00 0F 03 4D 66 
   578)      1439.9  Rx     0011664D  5  01 00 00 4D 66 
   579)      1444.7  Rx     00012F86  7  01 00 00 0F 03 86 2F 
   580)      1444.9  Rx     00112F86  5  01 00 00 86 2F 
   581)      1449.7  Rx     00012531  7  01 00 00 0F 03 31 25 
   582)      1449.9  Rx     00112531  5  01 00 00 31 25 
   583)      1454.7  Rx     00012271  7  01 00 00 0F 03 71 22 
   584)      1454.8  Rx     00112271  5  01 00 00 71 22 
   585)      1459.8  Rx     0001ECC5  7  01 00 00 0F 03 C5 EC 
   586)      1459.8  Rx     0011ECC5  5  01 00 00 C5 EC 
   587)      1464.7  Rx     0001AD39  7  01 00 00 0F 03 39 AD 
   588)      1464.8  Rx     0011AD39  5  01 00 00 39 AD 
   589)      1469.7  Rx     00012F93  7  01 00 00 0F 03 93 2F 
   590)      1469.9  Rx     00112F93  5  01 00 00 93 2F 
   591)      1474.7  Rx     000187CB  7  01 00 00 0F 03 CB 87 
   592)      1474.9  Rx     001187CB  5  01 00 00 CB 87 
   593)      1479.7  Rx     00011B78  7  01 00 00 0F 03 78 1B 
   594)      1479.8  Rx     00111B78  5  01 00 00 78 1B 
   595)      1484.8  Rx     0001C7F8  7  01 00 00 0F 03 F8 C7 
   596)      1484.8  Rx     0011C7F8  5  01 00 00 F8 C7 
   597)      1489.7  Rx     0001021C  7  01 00 00 0F 03 1C 02 
   598)      1489.8  Rx     0011021C  5  01 00 00 1C 02 
   599)      1494.7  Rx     00010BFC  7  01 00 00 0F 03 FC 0B 
   600)      1494.9  Rx     00110BFC  5  01 00 00 FC 0B 
   601)      1499.7  Rx     0001ACCA  7  01 00 00 0F 03 CA AC 
   602)      1499.9  Rx     0011ACCA  5  01 00 00 CA AC 
   603)      1504.7  Rx     000107B6  7  01 00 00 0F 03 B6 07 
   604)      1504.9  Rx     001107B6  5  01 00 00 B6 07 
   605)      1509.7  Rx     00018068  7  01 00 00 0F 03 68 80 
   606)      1509.8  Rx     00118068  5  01 00 00 68 80 
   607)      1514.7  Rx     00014742  7  01 00 00 0F 03 42 47 
   608)      1514.8  Rx     00114742  5  01 00 00 42 47 
   609)      1519.7  Rx     0001E4D9  7  01 00 00 0F 03 D9 E4 
   610)      1519.8  Rx     0011E4D9  5  01 00 00 D9 E4 
   611)      1524.7  Rx     0001CF9A  7  01 00 00 0F 03 9A CF 
   612)      1524.9  Rx     0011CF9A  5  01 00 00 9A CF 
   613)      1529.7  Rx     0001C814  7  01 00 00 0F 03 14 C8 
   614)      1529.9  Rx     0011C814  5  01 00 00 14 C8 
   615)      1534.7  Rx     00010964  7  01 00 00 0F 03 64 09 
   616)      1534.8  Rx     00110964  5  01 00 00 64 09 
   617)      1539.7  Rx     0001A7B9  7  01 00 00 0F 03 B9 A7 
   618)      1539.8  Rx     0011A7B9  5  01 00 00 B9 A7 
   619)      1544.7  Rx     0001E017  7  01 00 00 0F 03 17 E0 
   620)      1544.8  Rx     0011E017  5  01 00 00 17 E0 
   621)      1549.7  Rx     0001E4E1  7  01 00 00 0F 03 E1 E4 
   622)      1549.8  Rx     0011E4E1  5  01 00 00 E1 E4 
   623)      1554.7  Rx     00017323  7  01 00 00 0F 03 23 73 
   624)      1554.9  Rx     00117323  5  01 00 00 23 73 
   625)      1559.7  Rx     0001E481  7  01 00 00 0F 03 81 E4 
   626)      1559.8  Rx     0011E481  5  01 00 00 81 E4 
   627)      1564.7  Rx     0001FCBC  7  01 00 00 0F 03 BC FC 
   628)      1564.8  Rx     0011FCBC  5  01 00 00 BC FC 
   629)      1569.7  Rx     0001C39A  7  01 00 00 0F 03 9A C3 
   630)      1569.8  Rx     0011C39A  5  01 00 00 9A C3 
   631)      1574.7  Rx     0001F573  7  01 00 00 0F 03 73 F5 
   632)      1574.8  Rx     0011F573  5  01 00 00 73 F5 
   633)      1579.7  Rx     0001E90A  7  01 00 00 0F 03 0A E9 
   634)      1579.9  Rx     0011E90A  5  01 00 00 0A E9 
   635)      1584.7  Rx     000159CA  7  01 00 00 0F 03 CA 59 
   636)      1584.8  Rx     001159CA  5  01 00 00 CA 59 
   637)      1589.7  Rx     0001D7B6  7  01 00 00 0F 03 B6 D7 
   638)      1589.8  Rx     0011D7B6  5  01 00 00 B6 D7 
   639)      1594.7  Rx     00017A69  7  01 00 00 0F 03 69 7A 
   640)      1594.8  Rx     00117A69  5  01 00 00 69 7A 
   641)      1599.7  Rx     0001A671  7  01 00 00 0F 03 71 A6 
   642)      1599.8  Rx     0011A671  5  01 00 00 71 A6 
   643)      1604.7  Rx     0001498A  7  01 00 00 0F 03 8A 49 
   644)      1604.8  Rx     0011498A  5  01 00 00 8A 49 
   645)      1609.7  Rx     00011FBD  7  01 00 00 0F 03 BD 1F 
   646)      1609.8  Rx     00111FBD  5  01 00 00 BD 1F 
   647)      1614.7  Rx     00015BF1  7  01 00 00 0F 03 F1 5B 
   648)      1614.8  Rx     00115BF1  5  01 00 00 F1 5B 
   649)      1619.7  Rx     0001FE60  7  01 00 00 0F 03 60 FE 
   650)      1619.8  Rx     0011FE60  5  01 00 00 60 FE 
   651)      1624.7  Rx     0001B55C  7  01 00 00 0F 03 5C B5 
   652)      1624.8  Rx     0011B55C  5  01 00 00 5C B5 
   653)      1629.7  Rx     0001C46A  7  01 00 00 0F 03 6A C4 
   654)      1629.8  Rx     0011C46A  5  01 00 00 6A C4 
   655)      1634.7  Rx     00017C47  7  01 00 00 0F 03 47 7C 
   656)      1634.9  Rx     00117C47  5  01 00 00 47 7C 
   657)      1639.7  Rx     00011D10  7  01 00 00 0F 03 10 1D 
   658)      1639.8  Rx     00111D10  5  01 00 00 10 1D 
   659)      1644.7  Rx     0001C68E  7  01 00 00 0F 03 8E C6 
   660)      1644.8  Rx     0011C68E  5  01 00 00 8E C6 
   661)      1649.7  Rx     00010A94  7  01 00 00 0F 03 94 0A 
   662)      1649.8  Rx     00110A94  5  01 00 00 94 0A 
   663)      1654.7  Rx     00016C23  7  01 00 00 0F 03 23 6C 
   664)      1654.8  Rx     00116C23  5  01 00 00 23 6C 
   665)      1659.7  Rx     0001D00D  7  01 00 00 0F 03 0D D0 
   666)      1659.8  Rx     0011D00D  5  01 00 00 0D D0 
   667)      1664.7  Rx     000166F1  7  01 00 00 0F 03 F1 66 
   668)      1664.8  Rx     001166F1  5  01 00 00 F1 66 
   669)      1669.7  Rx     00010FCC  7  01 00 00 0F 03 CC 0F 
   670)      1669.8  Rx     00110FCC  5  01 00 00 CC 0F 
   671)      1674.7  Rx     000152B1  7  01 00 00 0F 03 B1 52 
   672)      1674.8  Rx     001152B1  5  01 00 00 B1 52 
   673)      1679.7  Rx     0001BDB7  7  01 00 00 0F 03 B7 BD 
   674)      1679.8  Rx     0011BDB7  5  01 00 00 B7 BD 
   675)      1684.7  Rx     0001C52C  7  01 00 00 0F 03 2C C5 
   676)      1684.8  Rx     0011C52C  5  01 00 00 2C C5 
   677)      1689.7  Rx     000199C5  7  01 00 00 0F 03 C5 99 
   678)      1689.8  Rx     001199C5  5  01 00 00 C5 99 
   679)      1694.7  Rx     00011746  7  01 00 00 0F 03 46 17 
   680)      1694.9  Rx     00111746  5  01 00 00 46 17 
   681)      1699.7  Rx     0001C58B  7  01 00 00 0F 03 8B C5 
   682)      1699.9  Rx     0011C58B  5  01 00 00 8B C5 
   683)      1704.7  Rx     00010CCD  7  01 00 00 0F 03 CD 0C 
   684)      1704.8  Rx     00110CCD  5  01 00 00 CD 0C 
   685)      1709.8  Rx     0001FC77  7  01 00 00 0F 03 77 FC 
   686)      1709.8  Rx     0011FC77  5  01 00 00 77 FC 
   687)      1714.7  Rx     000170D3  7  01 00 00 0F 03 D3 70 
   688)      1714.8  Rx     001170D3  5  01 00 00 D3 70 
   689)      1719.7  Rx     00015925  7  01 00 00 0F 03 25 59 
   690)      1719.8  Rx     00115925  5  01 00 00 25 59 
   691)      1724.7  Rx     0001C624  7  01 00 00 0F 03 24 C6 
   692)      1724.9  Rx     0011C624  5  01 00 00 24 C6 
   693)      1729.7  Rx     0001D701  7  01 00 00 0F 03 01 D7 
   694)      1729.8  Rx     0011D701  5  01 00 00 01 D7 
   695)      1734.7  Rx     0001F318  7  01 00 00 0F 03 18 F3 
   696)      1734.8  Rx     0011F318  5  01 00 00 18 F3 
   697)      1739.7  Rx     0001B204  7  01 00 00 0F 03 04 B2 
   698)      1739.8  Rx     0011B204  5  01 00 00 04 B2 
   699)      1744.7  Rx     000181CF  7  01 00 00 0F 03 CF 81 
   700)      1744.9  Rx     001181CF  5  01 00 00 CF 81 
   701)      1749.7  Rx     0001DB52  7  01 00 00 0F 03 52 DB 
   702)      1749.9  Rx     0011DB52  5  01 00 00 52 DB 
   703)      1754.7  Rx     00011198  7  01 00 00 0F 03 98 11 
   704)      1754.9  Rx     00111198  5  01 00 00 98 11 
   705)      1759.7  Rx     00013C0B  7  01 00 00 0F 03 0B 3C 
   706)      1759.8  Rx     00113C0B  5  01 00 00 0B 3C 
   707)      1764.7  Rx     00016C13  7  01 00 00 0F 03 13 6C 
   708)      1764.8  Rx     00116C13  5  01 00 00 13 6C 
   709)      1769.7  Rx     0001B086  7  01 00 00 0F 03 86 B0 
   710)      1769.8  Rx     0011B086  5  01 00 00 86 B0 
   711)      1774.7  Rx     0001444F  7  01 00 00 0F 03 4F 44 
   712)      1774.8  Rx     0011444F  5  01 00 00 4F 44 
   713)      1779.7  Rx     0001D8CB  7  01 00 00 0F 03 CB D8 
   714)      1779.9  Rx     0011D8CB  5  01 00 00 CB D8 
   715)      1784.7  Rx     0001CFF0  7  01 00 00 0F 03 F0 CF 
   716)      1784.8  Rx     0011CFF0  5  01 00 00 F0 CF 
   717)      1789.7  Rx     0001C810  7  01 00 00 0F 03 10 C8 
   718)      1789.8  Rx     0011C810  5  01 00 00 10 C8 
   719)      1794.7  Rx     00010E25  7  01 00 00 0F 03 25 0E 
   720)      1794.8  Rx     00110E25  5  01 00 00 25 0E 
   721)      1799.7  Rx     00012782  7  01 00 00 0F 03 82 27 
   722)      1799.9  Rx     00112782  5  01 00 00 82 27 
   723)      1804.7  Rx     000199F3  7  01 00 00 0F 03 F3 99 
   724)      1804.9  Rx     001199F3  5  01 00 00 F3 99 
   725)      1809.7  Rx     0001159C  7  01 00 00 0F 03 9C 15 
   726)      1809.8  Rx     0011159C  5  01 00 00 9C 15 
   727)      1814.7  Rx     00010920  7  01 00 00 0F 03 20 09 
   728)      1814.8  Rx     00110920  5  01 00 00 20 09 
   729)      1819.7  Rx     0001E5E1  7  01 00 00 0F 03 E1 E5 
   730)      1819.8  Rx     0011E5E1  5  01 00 00 E1 E5 
   731)      1824.7  Rx     00011AC9  7  01 00 00 0F 03 C9 1A 
   732)      1824.8  Rx     00111AC9  5  01 00 00 C9 1A 
   733)      1829.7  Rx     0001EDB1  7  01 00 00 0F 03 B1 ED 
   734)      1829.8  Rx     0011EDB1  5  01 00 00 B1 ED 
   735)      1834.7  Rx     0001FC5C  7  01 00 00 0F 03 5C FC 
   736)      1834.8  Rx     0011FC5C  5  01 00 00 5C FC 
   737)      1839.7  Rx     00013D90  7  01 00 00 0F 03 90 3D 
   738)      1839.8  Rx     00113D90  5  01 00 00 90 3D 
   739)      1844.7  Rx     00015D96  7  01 00 00 0F 03 96 5D 
   740)      1844.8  Rx     00115D96  5  01 00 00 96 5D 
   741)      1849.7  Rx     0001D718  7  01 00 00 0F 03 18 D7 
   742)      1849.8  Rx     0011D718  5  01 00 00 18 D7 
   743)      1854.7  Rx     0001EBBA  7  01 00 00 0F 03 BA EB 
   744)      1854.8  Rx     0011EBBA  5  01 00 00 BA EB 
   745)      1859.7  Rx     00010271  7  01 00 00 0F 03 71 02 
   746)      1859.8  Rx     00110271  5  01 00 00 71 02 
   747)      1864.7  Rx     0001D60A  7  01 00 00 0F 03 0A D6 
   748)      1864.8  Rx     0011D60A  5  01 00 00 0A D6 
   749)      1869.7  Rx     000156FF  7  01 00 00 0F 03 FF 56 
   750)      1869.8  Rx     001156FF  5  01 00 00 FF 56 
   751)      1874.7  Rx     0001195A  7  01 00 00 0F 03 5A 19 
   752)      1874.8  Rx     0011195A  5  01 00 00 5A 19 
   753)      1879.7  Rx     00011DA7  7  01 00 00 0F 03 A7 1D 
   754)      1879.8  Rx     00111DA7  5  01 00 00 A7 1D 
   755)      1884.7  Rx     0001EE2F  7  01 00 00 0F 03 2F EE 
   756)      1884.8  Rx     0011EE2F  5  01 00 00 2F EE 
   757)      1889.7  Rx     0001BFDC  7  01 00 00 0F 03 DC BF 
   758)      1889.8  Rx     0011BFDC  5  01 00 00 DC BF 
   759)      1894.7  Rx     000138C8  7  01 00 00 0F 03 C8 38 
   760)      1894.8  Rx     001138C8  5  01 00 00 C8 38 
   761)      1899.7  Rx     0001C154  7  01 00 00 0F 03 54 C1 
   762)      1899.8  Rx     0011C154  5  01 00 00 54 C1 
   763)      1904.7  Rx     00019003  7  01 00 00 0F 03 03 90 
   764)      1904.8  Rx     00119003  5  01 00 00 03 90 
   765)      1909.7  Rx     0001FF12  7  01 00 00 0F 03 12 FF 
   766)      1909.8  Rx     0011FF12  5  01 00 00 12 FF 
   767)      1914.7  Rx     00015BF8  7  01 00 00 0F 03 F8 5B 
   768)      1914.8  Rx     00115BF8  5  01 00 00 F8 5B 
   769)      1919.7  Rx     0001CD25  7  01 00 00 0F 03 25 CD 
   770)      1919.8  Rx     0011CD25  5  01 00 00 25 CD 
   771)      1924.7  Rx     0001BECA  7  01 00 00 0F 03 CA BE 
   772)      1924.8  Rx     0011BECA  5  01 00 00 CA BE 
   773)      1929.7  Rx     00017D54  7  01 00 00 0F 03 54 7D 
   774)      1929.8  Rx     00117D54  5  01 00 00 54 7D 
   775)      1934.7  Rx     000105F3  7  01 00 00 0F 03 F3 05 
   776)      1934.8  Rx     001105F3  5  01 00 00 F3 05 
   777)      1939.7  Rx     00011F8E  7  01 00 00 0F 03 8E 1F 
   778)      1939.8  Rx     00111F8E  5  01 00 00 8E 1F 
   779)      1944.7  Rx     0001101F  7  01 00 00 0F 03 1F 10 
   780)      1944.8  Rx     0011101F  5  01 00 00 1F 10 
   781)      1949.7  Rx     0001D9CC  7  01 00 00 0F 03 CC D9 
   782)      1949.8  Rx     0011D9CC  5  01 00 00 CC D9 
   783)      1954.7  Rx     00015B4E  7  01 00 00 0F 03 4E 5B 
   784)      1954.8  Rx     00115B4E  5  01 00 00 4E 5B 
   785)      1959.7  Rx     0001CFD5  7  01 00 00 0F 03 D5 CF 
   786)      1959.8  Rx     0011CFD5  5  01 00 00 D5 CF 
   787)      1964.7  Rx     000160CE  7  01 00 00 0F 03 CE 60 
   788)      1964.8  Rx     001160CE  5  01 00 00 CE 60 
   789)      1969.7  Rx     0001C3FB  7  01 00 00 0F 03 FB C3 
   790)      1969.8  Rx     0011C3FB  5  01 00 00 FB C3 
   791)      1974.7  Rx     0001045D  7  01 00 00 0F 03 5D 04 
   792)      1974.8  Rx     0011045D  5  01 00 00 5D 04 
   793)      1979.7  Rx     000190CF  7  01 00 00 0F 03 CF 90 
   794)      1979.8  Rx     001190CF  5  01 00 00 CF 90 
   795)      1984.7  Rx     00014964  7  01 00 00 0F 03 64 49 
   796)      1984.8  Rx     00114964  5  01 00 00 64 49 
   797)      1989.7  Rx     0001C05E  7  01 00 00 0F 03 5E C0 
   798)      1989.8  Rx     0011C05E  5  01 00 00 5E C0 
   799)      1994.7  Rx     0001692B  7  01 00 00 0F 03 2B 69 
   800)      1994.8  Rx     0011692B  5  01 00 00 2B 69 
   801)      1999.7  Rx     0001046C  7  01 00 00 0F 03 6C 04 
   802)      1999.8  Rx     0011046C  5  01 00 00 6C 04 
   803)      2004.7  Rx     0001AE82  7  01 00 00 0F 03 82 AE 
   804)      2004.8  Rx     0011AE82  5  01 00 00 82 AE 
   805)      2009.7  Rx     00011BD5  7  01 00 00 0F 03 D5 1B 
   806)      2009.8  Rx     00111BD5  5  01 00 00 D5 1B 
   807)      2014.7  Rx     0001A327  7  01 00 00 0F 03 27 A3 
   808)      2014.8  Rx     0011A327  5  01 00 00 27 A3 
   809)      2019.7  Rx     0001FFF3  7  01 00 00 0F 03 F3 FF 
   810)      2019.8  Rx     0011FFF3  5  01 00 00 F3 FF 
   811)      2024.7  Rx     00015CF5  7  01 00 00 0F 03 F5 5C 
   812)      2024.8  Rx     00115CF5  5  01 00 00 F5 5C 
   813)      2029.7  Rx     000189C2  7  01 00 00 0F 03 C2 89 
   814)      2029.8  Rx     001189C2  5  01 00 00 C2 89 
   815)      2034.7  Rx     00018C9E  7  01 00 00 0F 03 9E 8C 
   816)      2034.8  Rx     00118C9E  5  01 00 00 9E 8C 
   817)      2039.7  Rx     0001CD0D  7  01 00 00 0F 03 0D CD 
   818)      2039.8  Rx     0011CD0D  5  01 00 00 0D CD 
   819)      2044.7  Rx     00019985  7  01 00 00 0F 03 85 99 
   820)      2044.8  Rx     00119985  5  01 00 00 85 99 
   821)      2049.7  Rx     000114F2  7  01 00 00 0F 03 F2 14 
   822)      2049.8  Rx     001114F2  5  01 00 00 F2 14 
   823)      2054.7  Rx     0001F1EC  7  01 00 00 0F 03 EC F1 
   824)      2054.8  Rx     0011F1EC  5  01 00 00 EC F1 
   825)      2059.7  Rx     0001B383  7  01 00 00 0F 03 83 B3 
   826)      2059.8  Rx     0011B383  5  01 00 00 83 B3 
   827)      2064.7  Rx     0001A490  7  01 00 00 0F 03 90 A4 
   828)      2064.8  Rx     0011A490  5  01 00 00 90 A4 
   829)      2069.7  Rx     0001EB3F  7  01 00 00 0F 03 3F EB 
   830)      2069.8  Rx     0011EB3F  5  01 00 00 3F EB 
   831)      2074.7  Rx     00017071  7  01 00 00 0F 03 71 70 
   832)      2074.8  Rx     00117071  5  01 00 00 71 70 
   833)      2079.7  Rx     0001F7C6  7  01 00 00 0F 03 C6 F7 
   834)      2079.8  Rx     0011F7C6  5  01 00 00 C6 F7 
   835)      2084.7  Rx     00015555  7  01 00 00 0F 03 55 55 
   836)      2084.8  Rx     00115555  5  01 00 00 55 55 
   837)      2089.7  Rx     000123F1  7  01 00 00 0F 03 F1 23 
   838)      2089.8  Rx     001123F1  5  01 00 00 F1 23 
   839)      2094.7  Rx     0001BF44  7  01 00 00 0F 03 44 BF 
   840)      2094.8  Rx     0011BF44  5  01 00 00 44 BF 
   841)      2099.7  Rx     00017232  7  01 00 00 0F 03 32 72 
   842)      2099.8  Rx     00117232  5  01 00 00 32 72 
   843)      2104.7  Rx     0001A510  7  01 00 00 0F 03 10 A5 
   844)      2104.8  Rx     0011A510  5  01 00 00 10 A5 
   845)      2109.7  Rx     000194E8  7  01 00 00 0F 03 E8 94 
   846)      2109.8  Rx     001194E8  5  01 00 00 E8 94 
   847)      2114.7  Rx     000179A8  7  01 00 00 0F 03 A8 79 
   848)      2114.8  Rx     001179A8  5  01 00 00 A8 79 
   849)      2119.7  Rx     0001B711  7  01 00 00 0F 03 11 B7 
   850)      2119.8  Rx     0011B711  5  01 00 00 11 B7 
   851)      2124.7  Rx     00013DC9  7  01 00 00 0F 03 C9 3D 
   852)      2124.8  Rx     00113DC9  5  01 00 00 C9 3D 
   853)      2129.7  Rx     0001AE7A  7  01 00 00 0F 03 7A AE 
   854)      2129.8  Rx     0011AE7A  5  01 00 00 7A AE 
   855)      2134.7  Rx     00017F42  7  01 00 00 0F 03 42 7F 
   856)      2134.8  Rx     00117F42  5  01 00 00 42 7F 
   857)      2139.7  Rx     00016F60  7  01 00 00 0F 03 60 6F 
   858)      2139.8  Rx     00116F60  5  01 00 00 60 6F 
   859)      2144.7  Rx     00010CEB  7  01 00 00 0F 03 EB 0C 
   860)      2144.8  Rx     00110CEB  5  01 00 00 EB 0C 
   861)      2149.7  Rx     00012E1C  7  01 00 00 0F 03 1C 2E 
   862)      2149.8  Rx     00112E1C  5  01 00 00 1C 2E 
   863)      2154.7  Rx     0001BA07  7  01 00 00 0F 03 07 BA 
   864)      2154.8  Rx     0011BA07  5  01 00 00 07 BA 
   865)      2159.7  Rx     0001B654  7  01 00 00 0F 03 54 B6 
   866)      2159.8  Rx     0011B654  5  01 00 00 54 B6 
   867)      2164.7  Rx     0001D997  7  01 00 00 0F 03 97 D9 
   868)      2164.8  Rx     0011D997  5  01 00 00 97 D9 
   869)      2169.7  Rx     00010BC3  7  01 00 00 0F 03 C3 0B 
   870)      2169.8  Rx     00110BC3  5  01 00 00 C3 0B 
   871)      2174.7  Rx     00015DF6  7  01 00 00 0F 03 F6 5D 
   872)      2174.8  Rx     00115DF6  5  01 00 00 F6 5D 
   873)      2179.7  Rx     00014F9A  7  01 00 00 0F 03 9A 4F 
   874)      2179.8  Rx     00114F9A  5  01 00 00 9A 4F 
   875)      2184.7  Rx     0001C6B5  7  01 00 00 0F 03 B5 C6 
   876)      2184.8  Rx     0011C6B5  5  01 00 00 B5 C6 
   877)      2189.7  Rx     00013A07  7  01 00 00 0F 03 07 3A 
   878)      2189.8  Rx     00113A07  5  01 00 00 07 3A 
   879)      2194.7  Rx     0001EA89  7  01 00 00 0F 03 89 EA 
   880)      2194.8  Rx     0011EA89  5  01 00 00 89 EA 
   881)      2199.7  Rx     00011261  7  01 00 00 0F 03 61 12 
   882)      2199.8  Rx     00111261  5  01 00 00 61 12 
   883)      2204.7  Rx     0001E8CE  7  01 00 00 0F 03 CE E8 
   884)      2204.8  Rx     0011E8CE  5  01 00 00 CE E8 
   885)      2209.7  Rx     00017D0C  7  01 00 00 0F 03 0C 7D 
   886)      2209.8  Rx     00117D0C  5  01 00 00 0C 7D 
   887)      2214.7  Rx     000131EB  7  01 00 00 0F 03 EB 31 
   888)      2214.8  Rx     001131EB  5  01 00 00 EB 31 
   889)      2219.7  Rx     00012118  7  01 00 00 0F 03 18 21 
   890)      2219.8  Rx     00112118  5  01 00 00 18 21 
   891)      2224.7  Rx     0001E39C  7  01 00 00 0F 03 9C E3 
   892)      2224.8  Rx     0011E39C  5  01 00 00 9C E3 
   893)      2229.7  Rx     00013C20  7  01 00 00 0F 03 20 3C 
   894)      2229.8  Rx     00113C20  5  01 00 00 20 3C 
   895)      2234.7  Rx     00017DEA  7  01 00 00 0F 03 EA 7D 
   896)      2234.8  Rx     00117DEA  5  01 00 00 EA 7D 
   897)      2239.7  Rx     000155F6  7  01 00 00 0F 03 F6 55 
   898)      2239.8  Rx     001155F6  5  01 00 00 F6 55 
   899)      2244.7  Rx     00015B5D  7  01 00 00 0F 03 5D 5B 
   900)      2244.8  Rx     00115B5D  5  01 00 00 5D 5B 
   901)      2249.7  Rx     00014223  7  01 00 00 0F 03 23 42 
   902)      2249.8  Rx     00114223  5  01 00 00 23 42 
   903)      2254.7  Rx     000186AA  7  01 00 00 0F 03 AA 86 
   904)      2254.8  Rx     001186AA  5  01 00 00 AA 86 
   905)      2259.7  Rx     00016C3D  7  01 00 00 0F 03 3D 6C 
   906)      2259.8  Rx     00116C3D  5  01 00 00 3D 6C 
   907)      2264.7  Rx     0001A5EA  7  01 00 00 0F 03 EA A5 
   908)      2264.8  Rx     0011A5EA  5  01 00 00 EA A5 
   909)      2269.7  Rx     0001A0AA  7  01 00 00 0F 03 AA A0 
   910)      2269.8  Rx     0011A0AA  5  01 00 00 AA A0 
   911)      2274.7  Rx     0001971E  7  01 00 00 0F 03 1E 97 
   912)      2274.8  Rx     0011971E  5  01 00 00 1E 97 
   913)      2279.7  Rx     00017A3E  7  01 00 00 0F 03 3E 7A 
   914)      2279.8  Rx     00117A3E  5  01 00 00 3E 7A 
   915)      2284.7  Rx     00014B8B  7  01 00 00 0F 03 8B 4B 
   916)      2284.8  Rx     00114B8B  5  01 00 00 8B 4B 
   917)      2289.7  Rx     00017DE1  7  01 00 00 0F 03 E1 7D 
   918)      2289.8  Rx     00117DE1  5  01 00 00 E1 7D 
   919)      2294.6  Rx     00019336  7  01 00 00 0F 03 36 93 
   920)      2294.8  Rx     00119336  5  01 00 00 36 93 
   921)      2299.7  Rx     0001201B  7  01 00 00 0F 03 1B 20 
   922)      2299.8  Rx     0011201B  5  01 00 00 1B 20 
   923)      2304.7  Rx     00018B87  7  01 00 00 0F 03 87 8B 
   924)      2304.8  Rx     00118B87  5  01 00 00 87 8B 
   925)      2309.7  Rx     0001CD33  7  01 00 00 0F 03 33 CD 
   926)      2309.8  Rx     0011CD33  5  01 00 00 33 CD 
   927)      2314.7  Rx     000107D7  7  01 00 00 0F 03 D7 07 
   928)      2314.8  Rx     001107D7  5  01 00 00 D7 07 
   929)      2319.6  Rx     0001EF4E  7  01 00 00 0F 03 4E EF 
   930)      2319.8  Rx     0011EF4E  5  01 00 00 4E EF 
   931)      2324.7  Rx     0001FC7C  7  01 00 00 0F 03 7C FC 
   932)      2324.8  Rx     0011FC7C  5  01 00 00 7C FC 
   933)      2329.7  Rx     000142AB  7  01 00 00 0F 03 AB 42 
   934)      2329.8  Rx     001142AB  5  01 00 00 AB 42 
   935)      2334.7  Rx     00013C8E  7  01 00 00 0F 03 8E 3C 
   936)      2334.8  Rx     00113C8E  5  01 00 00 8E 3C 
   937)      2339.7  Rx     00019EED  7  01 00 00 0F 03 ED 9E 
   938)      2339.8  Rx     00119EED  5  01 00 00 ED 9E 
   939)      2344.7  Rx     00012874  7  01 00 00 0F 03 74 28 
   940)      2344.8  Rx     00112874  5  01 00 00 74 28 
   941)      2349.6  Rx     00010918  7  01 00 00 0F 03 18 09 
   942)      2349.8  Rx     00110918  5  01 00 00 18 09 
   943)      2354.7  Rx     00014F03  7  01 00 00 0F 03 03 4F 
   944)      2354.8  Rx     00114F03  5  01 00 00 03 4F 
   945)      2359.7  Rx     000184A9  7  01 00 00 0F 03 A9 84 
   946)      2359.8  Rx     001184A9  5  01 00 00 A9 84 
   947)      2364.7  Rx     0001FCB3  7  01 00 00 0F 03 B3 FC 
   948)      2364.8  Rx     0011FCB3  5  01 00 00 B3 FC 
   949)      2369.7  Rx     00019AF2  7  01 00 00 0F 03 F2 9A 
   950)      2369.8  Rx     00119AF2  5  01 00 00 F2 9A 
   951)      2374.6  Rx     0001202E  7  01 00 00 0F 03 2E 20 
   952)      2374.8  Rx     0011202E  5  01 00 00 2E 20 
   953)      2379.6  Rx     0001BA9B  7  01 00 00 0F 03 9B BA 
   954)      2379.8  Rx     0011BA9B  5  01 00 00 9B BA 
   955)      2384.7  Rx     00016550  7  01 00 00 0F 03 50 65 
   956)      2384.8  Rx     00116550  5  01 00 00 50 65 
   957)      2389.7  Rx     000191FE  7  01 00 00 0F 03 FE 91 
   958)      2389.8  Rx     001191FE  5  01 00 00 FE 91 
   959)      2394.7  Rx     00019B4B  7  01 00 00 0F 03 4B 9B 
   960)      2394.8  Rx     00119B4B  5  01 00 00 4B 9B 
   961)      2399.6  Rx     00018DBD  7  01 00 00 0F 03 BD 8D 
   962)      2399.8  Rx     00118DBD  5  01 00 00 BD 8D 
   963)      2404.6  Rx     0001E88A  7  01 00 00 0F 03 8A E8 
   964)      2404.8  Rx     0011E88A  5  01 00 00 8A E8 
   965)      2409.7  Rx     00017DB3  7  01 00 00 0F 03 B3 7D 
   966)      2409.8  Rx     00117DB3  5  01 00 00 B3 7D 
   967)      2414.7  Rx     0001868E  7  01 00 00 0F 03 8E 86 
   968)      2414.8  Rx     0011868E  5  01 00 00 8E 86 
   969)      2419.7  Rx     0001B539  7  01 00 00 0F 03 39 B5 
   970)      2419.8  Rx     0011B539  5  01 00 00 39 B5 
   971)      2424.6  Rx     000139D7  7  01 00 00 0F 03 D7 39 
   972)      2424.8  Rx     001139D7  5  01 00 00 D7 39 
   973)      2429.6  Rx     00019C5A  7  01 00 00 0F 03 5A 9C 
   974)      2429.8  Rx     00119C5A  5  01 00 00 5A 9C 
   975)      2434.6  Rx     0001C996  7  01 00 00 0F 03 96 C9 
   976)      2434.8  Rx     0011C996  5  01 00 00 96 C9 
   977)      2439.7  Rx     0001C264  7  01 00 00 0F 03 64 C2 
   978)      2439.8  Rx     0011C264  5  01 00 00 64 C2 
   979)      2444.7  Rx     0001A8BB  7  01 00 00 0F 03 BB A8 
   980)      2444.7  Rx     0011A8BB  5  01 00 00 BB A8 
   981)      2449.7  Rx     0001CEF8  7  01 00 00 0F 03 F8 CE 
   982)      2449.8  Rx     0011CEF8  5  01 00 00 F8 CE 
   983)      2454.6  Rx     000161A1  7  01 00 00 0F 03 A1 61 
   984)      2454.8  Rx     001161A1  5  01 00 00 A1 61 
   985)      2459.6  Rx     00014588  7  01 00 00 0F 03 88 45 
   986)      2459.8  Rx     00114588  5  01 00 00 88 45 
   987)      2464.6  Rx     0001DB5E  7  01 00 00 0F 03 5E DB 
   988)      2464.8  Rx     0011DB5E  5  01 00 00 5E DB 
   989)      2469.7  Rx     000143EB  7  01 00 00 0F 03 EB 43 
   990)      2469.7  Rx     001143EB  5  01 00 00 EB 43 
   991)      2474.7  Rx     00017784  7  01 00 00 0F 03 84 77 
   992)      2474.8  Rx     00117784  5  01 00 00 84 77 
   993)      2479.6  Rx     00014B64  7  01 00 00 0F 03 64 4B 
   994)      2479.8  Rx     00114B64  5  01 00 00 64 4B 
   995)      2484.6  Rx     000140DB  7  01 00 00 0F 03 DB 40 
   996)      2484.8  Rx     001140DB  5  01 00 00 DB 40 
   997)      2489.6  Rx     00016455  7  01 00 00 0F 03 55 64 
   998)      2489.8  Rx     00116455  5  01 00 00 55 64 
   999)      2494.7  Rx     00016357  7  01 00 00 0F 03 57 63 
  1000)      2494.7  Rx     00116357  5  01 00 00 57 63 
  1001)      2499.7  Rx     00018B73  7  01 00 00 0F 03 73 8B 
  1002)      2499.7  Rx     00118B73  5  01 00 00 73 8B 
  1003)      2504.6  Rx     0001B358  7  01 00 00 0F 03 58 B3 
  1004)      2504.8  Rx     0011B358  5  01 00 00 58 B3 
  1005)      2509.6  Rx     0001943B  7  01 00 00 0F 03 3B 94 
  1006)      2509.8  Rx     0011943B  5  01 00 00 3B 94 
  1007)      2514.6  Rx     0001D9F3  7  01 00 00 0F 03 F3 D9 
  1008)      2514.8  Rx     0011D9F3  5  01 00 00 F3 D9 
  1009)      2519.6  Rx     0001C6EF  7  01 00 00 0F 03 EF C6 
  1010)      2519.7  Rx     0011C6EF  5  01 00 00 EF C6 
  1011)      2524.7  Rx     0001F1D9  7  01 00 00 0F 03 D9 F1 
  1012)      2524.7  Rx     0011F1D9  5  01 00 00 D9 F1 
  1013)      2529.6  Rx     0001096B  7  01 00 00 0F 03 6B 09 
  1014)      2529.7  Rx     0011096B  5  01 00 00 6B 09 
  1015)      2534.6  Rx     0001DC1C  7  01 00 00 0F 03 1C DC 
  1016)      2534.8  Rx     0011DC1C  5  01 00 00 1C DC 
  1017)      2539.6  Rx     00011494  7  01 00 00 0F 03 94 14 
  1018)      2539.8  Rx     00111494  5  01 00 00 94 14 
  1019)      2544.6  Rx     00014DD4  7  01 00 00 0F 03 D4 4D 
  1020)      2544.8  Rx     00114DD4  5  01 00 00 D4 4D 
  1021)      2549.6  Rx     00019121  7  01 00 00 0F 03 21 91 
  1022)      2549.7  Rx     00119121  5  01 00 00 21 91 
  1023)      2554.6  Rx     0001E37D  7  01 00 00 0F 03 7D E3 
  1024)      2554.7  Rx     0011E37D  5  01 00 00 7D E3 
  1025)      2559.6  Rx     00013924  7  01 00 00 0F 03 24 39 
  1026)      2559.8  Rx     00113924  5  01 00 00 24 39 
  1027)      2564.6  Rx     00012484  7  01 00 00 0F 03 84 24 
  1028)      2564.8  Rx     00112484  5  01 00 00 84 24 
  1029)      2569.6  Rx     00016C69  7  01 00 00 0F 03 69 6C 
  1030)      2569.8  Rx     00116C69  5  01 00 00 69 6C 
  1031)      2574.6  Rx     0001D957  7  01 00 00 0F 03 57 D9 
  1032)      2574.7  Rx     0011D957  5  01 00 00 57 D9 
  1033)      2579.7  Rx     0001ECAD  7  01 00 00 0F 03 AD EC 
  1034)      2579.7  Rx     0011ECAD  5  01 00 00 AD EC 
  1035)      2584.6  Rx     000177FD  7  01 00 00 0F 03 FD 77 
  1036)      2584.7  Rx     001177FD  5  01 00 00 FD 77 
  1037)      2589.6  Rx     00012742  7  01 00 00 0F 03 42 27 
  1038)      2589.8  Rx     00112742  5  01 00 00 42 27 
  1039)      2594.6  Rx     00013AF8  7  01 00 00 0F 03 F8 3A 
  1040)      2594.8  Rx     00113AF8  5  01 00 00 F8 3A 
  1041)      2599.6  Rx     0001248C  7  01 00 00 0F 03 8C 24 
  1042)      2599.7  Rx     0011248C  5  01 00 00 8C 24 
  1043)      2604.7  Rx     00017803  7  01 00 00 0F 03 03 78 
  1044)      2604.7  Rx     00117803  5  01 00 00 03 78 
  1045)      2609.6  Rx     00014286  7  01 00 00 0F 03 86 42 
  1046)      2609.7  Rx     00114286  5  01 00 00 86 42 
  1047)      2614.6  Rx     000113EC  7  01 00 00 0F 03 EC 13 
  1048)      2614.8  Rx     001113EC  5  01 00 00 EC 13 
  1049)      2619.3  Tx     0011C82D  5  01 00 00 2D C8 
  1050)      2619.6  Rx     00017E2F  7  01 00 00 0F 03 2F 7E 
  1051)      2619.8  Rx     00117E2F  5  01 00 00 2F 7E 
  1052)      2624.6  Rx     00012299  7  01 00 00 0F 03 99 22 
  1053)      2624.7  Rx     00112299  5  01 00 00 99 22 
  1054)      2629.6  Rx     0001308B  7  01 00 00 0F 03 8B 30 
  1055)      2629.7  Rx     0011308B  5  01 00 00 8B 30 
  1056)      2634.6  Rx     000125F5  7  01 00 00 0F 03 F5 25 
  1057)      2634.7  Rx     001125F5  5  01 00 00 F5 25 
  1058)      2639.6  Rx     0001729D  7  01 00 00 0F 03 9D 72 
  1059)      2639.7  Rx     0011729D  5  01 00 00 9D 72 
  1060)      2644.6  Rx     0001BC5A  7  01 00 00 0F 03 5A BC 
  1061)      2644.8  Rx     0011BC5A  5  01 00 00 5A BC 
  1062)      2649.6  Rx     00011088  7  01 00 00 0F 03 88 10 
  1063)      2649.7  Rx     00111088  5  01 00 00 88 10 
  1064)      2654.6  Rx     0001EEBA  7  01 00 00 0F 03 BA EE 
  1065)      2654.7  Rx     0011EEBA  5  01 00 00 BA EE 
  1066)      2659.6  Rx     0001B2B7  7  01 00 00 0F 03 B7 B2 
  1067)      2659.7  Rx     0011B2B7  5  01 00 00 B7 B2 
  1068)      2664.6  Rx     0001708A  7  01 00 00 0F 03 8A 70 
  1069)      2664.7  Rx     0011708A  5  01 00 00 8A 70 
  1070)      2669.6  Rx     000180B8  7  01 00 00 0F 03 B8 80 
  1071)      2669.8  Rx     001180B8  5  01 00 00 B8 80 
  1072)      2674.6  Rx     0001AF41  7  01 00 00 0F 03 41 AF 
  1073)      2674.8  Rx     0011AF41  5  01 00 00 41 AF 
  1074)      2679.6  Rx     0001743A  7  01 00 00 0F 03 3A 74 
  1075)      2679.7  Rx     0011743A  5  01 00 00 3A 74 
  1076)      2684.6  Rx     0001E8EB  7  01 00 00 0F 03 EB E8 
  1077)      2684.7  Rx     0011E8EB  5  01 00 00 EB E8 
  1078)      2689.6  Rx     00016B40  7  01 00 00 0F 03 40 6B 
  1079)      2689.7  Rx     00116B40  5  01 00 00 40 6B 
  1080)      2694.6  Rx     0001851E  7  01 00 00 0F 03 1E 85 
  1081)      2694.7  Rx     0011851E  5  01 00 00 1E 85 
  1082)      2699.6  Rx     0001D78B  7  01 00 00 0F 03 8B D7 
  1083)      2699.8  Rx     0011D78B  5  01 00 00 8B D7 
  1084)      2704.6  Rx     0001BD50  7  01 00 00 0F 03 50 BD 
  1085)      2704.7  Rx     0011BD50  5  01 00 00 50 BD 
  1086)      2709.6  Rx     0001D5D1  7  01 00 00 0F 03 D1 D5 
  1087)      2709.7  Rx     0011D5D1  5  01 00 00 D1 D5 
  1088)      2714.6  Rx     00018167  7  01 00 00 0F 03 67 81 
  1089)      2714.7  Rx     00118167  5  01 00 00 67 81 
  1090)      2719.6  Rx     00010231  7  01 00 00 0F 03 31 02 
  1091)      2719.7  Rx     00110231  5  01 00 00 31 02 
  1092)      2724.6  Rx     00012AF3  7  01 00 00 0F 03 F3 2A 
  1093)      2724.7  Rx     00112AF3  5  01 00 00 F3 2A 
  1094)      2729.6  Rx     0001BC0C  7  01 00 00 0F 03 0C BC 
  1095)      2729.7  Rx     0011BC0C  5  01 00 00 0C BC 
  1096)      2734.6  Rx     0001A16E  7  01 00 00 0F 03 6E A1 
  1097)      2734.7  Rx     0011A16E  5  01 00 00 6E A1 
  1098)      2739.6  Rx     0001AE21  7  01 00 00 0F 03 21 AE 
  1099)      2739.7  Rx     0011AE21  5  01 00 00 21 AE 
  1100)      2744.6  Rx     00018785  7  01 00 00 0F 03 85 87 
  1101)      2744.7  Rx     00118785  5  01 00 00 85 87 
  1102)      2749.6  Rx     0001D8A8  7  01 00 00 0F 03 A8 D8 
  1103)      2749.7  Rx     0011D8A8  5  01 00 00 A8 D8 
  1104)      2754.6  Rx     0001FD2C  7  01 00 00 0F 03 2C FD 
  1105)      2754.7  Rx     0011FD2C  5  01 00 00 2C FD 
  1106)      2759.6  Rx     00014DBC  7  01 00 00 0F 03 BC 4D 
  1107)      2759.7  Rx     00114DBC  5  01 00 00 BC 4D 
  1108)      2764.6  Rx     0001DC09  7  01 00 00 0F 03 09 DC 
  1109)      2764.7  Rx     0011DC09  5  01 00 00 09 DC 
  1110)      2769.6  Rx     00017554  7  01 00 00 0F 03 54 75 
  1111)      2769.7  Rx     00117554  5  01 00 00 54 75 
  1112)      2774.6  Rx     0001BF7E  7  01 00 00 0F 03 7E BF 
  1113)      2774.7  Rx     0011BF7E  5  01 00 00 7E BF 
  1114)      2779.6  Rx     00016C99  7  01 00 00 0F 03 99 6C 
  1115)      2779.7  Rx     00116C99  5  01 00 00 99 6C 
  1116)      2784.6  Rx     00018360  7  01 00 00 0F 03 60 83 
  1117)      2784.7  Rx     00118360  5  01 00 00 60 83 
  1118)      2789.6  Rx     0001315C  7  01 00 00 0F 03 5C 31 
  1119)      2789.7  Rx     0011315C  5  01 00 00 5C 31 
  1120)      2794.6  Rx     00013412  7  01 00 00 0F 03 12 34 
  1121)      2794.7  Rx     00113412  5  01 00 00 12 34 
  1122)      2799.6  Rx     00010102  7  01 00 00 0F 03 02 01 
  1123)      2799.7  Rx     00110102  5  01 00 00 02 01 
  1124)      2804.6  Rx     000190A3  7  01 00 00 0F 03 A3 90 
  1125)      2804.7  Rx     001190A3  5  01 00 00 A3 90 
  1126)      2809.6  Rx     0001E70D  7  01 00 00 0F 03 0D E7 
  1127)      2809.7  Rx     0011E70D  5  01 00 00 0D E7 
  1128)      2814.6  Rx     0001FF1F  7  01 00 00 0F 03 1F FF 
  1129)      2814.7  Rx     0011FF1F  5  01 00 00 1F FF 
  1130)      2819.6  Rx     0001B63E  7  01 00 00 0F 03 3E B6 
  1131)      2819.7  Rx     0011B63E  5  01 00 00 3E B6 
  1132)      2824.6  Rx     00019533  7  01 00 00 0F 03 33 95 
  1133)      2824.7  Rx     00119533  5  01 00 00 33 95 
  1134)      2829.6  Rx     00016BD9  7  01 00 00 0F 03 D9 6B 
  1135)      2829.7  Rx     00116BD9  5  01 00 00 D9 6B 
  1136)      2834.6  Rx     0001EAD6  7  01 00 00 0F 03 D6 EA 
  1137)      2834.7  Rx     0011EAD6  5  01 00 00 D6 EA 
  1138)      2839.6  Rx     00013B93  7  01 00 00 0F 03 93 3B 
  1139)      2839.7  Rx     00113B93  5  01 00 00 93 3B 
  1140)      2844.6  Rx     00010290  7  01 00 00 0F 03 90 02 
  1141)      2844.7  Rx     00110290  5  01 00 00 90 02 
  1142)      2849.6  Rx     00015B39  7  01 00 00 0F 03 39 5B 
  1143)      2849.7  Rx     00115B39  5  01 00 00 39 5B 
  1144)      2854.6  Rx     00013A9B  7  01 00 00 0F 03 9B 3A 
  1145)      2854.7  Rx     00113A9B  5  01 00 00 9B 3A 
  1146)      2859.6  Rx     00019809  7  01 00 00 0F 03 09 98 
  1147)      2859.7  Rx     00119809  5  01 00 00 09 98 
  1148)      2864.6  Rx     0001D7EC  7  01 00 00 0F 03 EC D7 
  1149)      2864.7  Rx     0011D7EC  5  01 00 00 EC D7 
  1150)      2869.6  Rx     0001FC55  7  01 00 00 0F 03 55 FC 
  1151)      2869.7  Rx     0011FC55  5  01 00 00 55 FC 
  1152)      2874.6  Rx     00018FF2  7  01 00 00 0F 03 F2 8F 
  1153)      2874.7  Rx     00118FF2  5  01 00 00 F2 8F 
  1154)      2879.6  Rx     000182EE  7  01 00 00 0F 03 EE 82 
  1155)      2879.7  Rx     001182EE  5  01 00 00 EE 82 
  1156)      2884.6  Rx     00011B7F  7  01 00 00 0F 03 7F 1B 
  1157)      2884.7  Rx     00111B7F  5  01 00 00 7F 1B 
  1158)      2889.6  Rx     00010265  7  01 00 00 0F 03 65 02 
  1159)      2889.7  Rx     00110265  5  01 00 00 65 02 
  1160)      2894.6  Rx     0001013A  7  01 00 00 0F 03 3A 01 
  1161)      2894.7  Rx     0011013A  5  01 00 00 3A 01 
  1162)      2899.6  Rx     0001991D  7  01 00 00 0F 03 1D 99 
  1163)      2899.7  Rx     0011991D  5  01 00 00 1D 99 
  1164)      2904.6  Rx     00018398  7  01 00 00 0F 03 98 83 
  1165)      2904.7  Rx     00118398  5  01 00 00 98 83 
  1166)      2909.6  Rx     00015FD5  7  01 00 00 0F 03 D5 5F 
  1167)      2909.7  Rx     00115FD5  5  01 00 00 D5 5F 
  1168)      2914.6  Rx     00013E1C  7  01 00 00 0F 03 1C 3E 
  1169)      2914.7  Rx     00113E1C  5  01 00 00 1C 3E 
  1170)      2919.6  Rx     0001D2FE  7  01 00 00 0F 03 FE D2 
  1171)      2919.7  Rx     0011D2FE  5  01 00 00 FE D2 
  1172)      2924.6  Rx     0001F776  7  01 00 00 0F 03 76 F7 
  1173)      2924.7  Rx     0011F776  5  01 00 00 76 F7 
  1174)      2929.6  Rx     00010829  7  01 00 00 0F 03 29 08 
  1175)      2929.7  Rx     00110829  5  01 00 00 29 08 
  1176)      2934.6  Rx     000185C0  7  01 00 00 0F 03 C0 85 
  1177)      2934.7  Rx     001185C0  5  01 00 00 C0 85 
  1178)      2939.6  Rx     0001AF4C  7  01 00 00 0F 03 4C AF 
  1179)      2939.7  Rx     0011AF4C  5  01 00 00 4C AF 
  1180)      2944.6  Rx     00011BDB  7  01 00 00 0F 03 DB 1B 
  1181)      2944.7  Rx     00111BDB  5  01 00 00 DB 1B 
  1182)      2949.6  Rx     0001E8A6  7  01 00 00 0F 03 A6 E8 
  1183)      2949.7  Rx     0011E8A6  5  01 00 00 A6 E8 
  1184)      2954.6  Rx     0001CAC4  7  01 00 00 0F 03 C4 CA 
  1185)      2954.7  Rx     0011CAC4  5  01 00 00 C4 CA 
  1186)      2959.6  Rx     00019699  7  01 00 00 0F 03 99 96 
  1187)      2959.7  Rx     00119699  5  01 00 00 99 96 
  1188)      2964.6  Rx     0001E35C  7  01 00 00 0F 03 5C E3 
  1189)      2964.7  Rx     0011E35C  5  01 00 00 5C E3 
  1190)      2969.6  Rx     000187AC  7  01 00 00 0F 03 AC 87 
  1191)      2969.7  Rx     001187AC  5  01 00 00 AC 87 
  1192)      2974.6  Rx     0001B0ED  7  01 00 00 0F 03 ED B0 
  1193)      2974.7  Rx     0011B0ED  5  01 00 00 ED B0 
  1194)      2979.6  Rx     00013391  7  01 00 00 0F 03 91 33 
  1195)      2979.7  Rx     00113391  5  01 00 00 91 33 
  1196)      2984.6  Rx     00013679  7  01 00 00 0F 03 79 36 
  1197)      2984.7  Rx     00113679  5  01 00 00 79 36 
  1198)      2989.6  Rx     0001EEE4  7  01 00 00 0F 03 E4 EE 
  1199)      2989.7  Rx     0011EEE4  5  01 00 00 E4 EE 
  1200)      2994.5  Rx     0001B09A  7  01 00 00 0F 03 9A B0 
  1201)      2994.7  Rx     0011B09A  5  01 00 00 9A B0 
  1202)      2999.6  Rx     0001A800  7  01 00 00 0F 03 00 A8 
  1203)      2999.7  Rx     0011A800  5  01 00 00 00 A8 
  1204)      3004.6  Rx     00015F70  7  01 00 00 0F 03 70 5F 
  1205)      3004.7  Rx     00115F70  5  01 00 00 70 5F 
  1206)      3009.6  Rx     00017C1E  7  01 00 00 0F 03 1E 7C 
  1207)      3009.7  Rx     00117C1E  5  01 00 00 1E 7C 
  1208)      3014.6  Rx     00011FFB  7  01 00 00 0F 03 FB 1F 
  1209)      3014.7  Rx     00111FFB  5  01 00 00 FB 1F 
  1210)      3019.6  Rx     0001FE94  7  01 00 00 0F 03 94 FE 
  1211)      3019.7  Rx     0011FE94  5  01 00 00 94 FE 
  1212)      3024.6  Rx     0001B1D0  7  01 00 00 0F 03 D0 B1 
  1213)      3024.7  Rx     0011B1D0  5  01 00 00 D0 B1 
  1214)      3029.6  Rx     0001A8F6  7  01 00 00 0F 03 F6 A8 
  1215)      3029.7  Rx     0011A8F6  5  01 00 00 F6 A8 
  1216)      3034.6  Rx     00012A05  7  01 00 00 0F 03 05 2A 
  1217)      3034.7  Rx     00112A05  5  01 00 00 05 2A 
  1218)      3039.6  Rx     00015562  7  01 00 00 0F 03 62 55 
  1219)      3039.7  Rx     00115562  5  01 00 00 62 55 
  1220)      3044.6  Rx     000115CF  7  01 00 00 0F 03 CF 15 
  1221)      3044.7  Rx     001115CF  5  01 00 00 CF 15 
  1222)      3049.5  Rx     0001E53C  7  01 00 00 0F 03 3C E5 
  1223)      3049.7  Rx     0011E53C  5  01 00 00 3C E5 
  1224)      3054.6  Rx     00011324  7  01 00 00 0F 03 24 13 
  1225)      3054.7  Rx     00111324  5  01 00 00 24 13 
  1226)      3059.6  Rx     0001512A  7  01 00 00 0F 03 2A 51 
  1227)      3059.7  Rx     0011512A  5  01 00 00 2A 51 
  1228)      3064.6  Rx     0001935C  7  01 00 00 0F 03 5C 93 
  1229)      3064.7  Rx     0011935C  5  01 00 00 5C 93 
  1230)      3069.6  Rx     00014C10  7  01 00 00 0F 03 10 4C 
  1231)      3069.7  Rx     00114C10  5  01 00 00 10 4C 
  1232)      3074.5  Rx     000113AD  7  01 00 00 0F 03 AD 13 
  1233)      3074.7  Rx     001113AD  5  01 00 00 AD 13 
  1234)      3079.5  Rx     00015559  7  01 00 00 0F 03 59 55 
  1235)      3079.7  Rx     00115559  5  01 00 00 59 55 
  1236)      3084.6  Rx     0001E0F3  7  01 00 00 0F 03 F3 E0 
  1237)      3084.7  Rx     0011E0F3  5  01 00 00 F3 E0 
  1238)      3089.6  Rx     0001A3CF  7  01 00 00 0F 03 CF A3 
  1239)      3089.6  Rx     0011A3CF  5  01 00 00 CF A3 
  1240)      3094.6  Rx     00018819  7  01 00 00 0F 03 19 88 
  1241)      3094.7  Rx     00118819  5  01 00 00 19 88 
  1242)      3099.5  Rx     0001E0D2  7  01 00 00 0F 03 D2 E0 
  1243)      3099.7  Rx     0011E0D2  5  01 00 00 D2 E0 
  1244)      3104.5  Rx     00010632  7  01 00 00 0F 03 32 06 
  1245)      3104.7  Rx     00110632  5  01 00 00 32 06 
  1246)      3109.6  Rx     0001F4B0  7  01 00 00 0F 03 B0 F4 
  1247)      3109.7  Rx     0011F4B0  5  01 00 00 B0 F4 
  1248)      3114.6  Rx     0001FAF3  7  01 00 00 0F 03 F3 FA 
  1249)      3114.7  Rx     0011FAF3  5  01 00 00 F3 FA 
  1250)      3119.6  Rx     0001D76C  7  01 00 00 0F 03 6C D7 
  1251)      3119.7  Rx     0011D76C  5  01 00 00 6C D7 
  1252)      3124.5  Rx     0001CE2E  7  01 00 00 0F 03 2E CE 
  1253)      3124.7  Rx     0011CE2E  5  01 00 00 2E CE 
  1254)      3129.5  Rx     0001922C  7  01 00 00 0F 03 2C 92 
  1255)      3129.7  Rx     0011922C  5  01 00 00 2C 92 
  1256)      3134.5  Rx     0001288C  7  01 00 00 0F 03 8C 28 
  1257)      3134.7  Rx     0011288C  5  01 00 00 8C 28 
  1258)      3139.6  Rx     0001CC39  7  01 00 00 0F 03 39 CC 
  1259)      3139.7  Rx     0011CC39  5  01 00 00 39 CC 
  1260)      3144.6  Rx     00017585  7  01 00 00 0F 03 85 75 
  1261)      3144.6  Rx     00117585  5  01 00 00 85 75 
  1262)      3149.6  Rx     0001B322  7  01 00 00 0F 03 22 B3 
  1263)      3149.7  Rx     0011B322  5  01 00 00 22 B3 
  1264)      3154.5  Rx     00012073  7  01 00 00 0F 03 73 20 
  1265)      3154.7  Rx     00112073  5  01 00 00 73 20 
  1266)      3159.5  Rx     0001688B  7  01 00 00 0F 03 8B 68 
  1267)      3159.7  Rx     0011688B  5  01 00 00 8B 68 
  1268)      3164.5  Rx     00011C33  7  01 00 00 0F 03 33 1C 
  1269)      3164.7  Rx     00111C33  5  01 00 00 33 1C 
  1270)      3169.6  Rx     000170B6  7  01 00 00 0F 03 B6 70 
  1271)      3169.6  Rx     001170B6  5  01 00 00 B6 70 
  1272)      3174.6  Rx     00014CA7  7  01 00 00 0F 03 A7 4C 
  1273)      3174.6  Rx     00114CA7  5  01 00 00 A7 4C 
  1274)      3179.5  Rx     0001ABB6  7  01 00 00 0F 03 B6 AB 
  1275)      3179.7  Rx     0011ABB6  5  01 00 00 B6 AB 
  1276)      3184.5  Rx     00017724  7  01 00 00 0F 03 24 77 
  1277)      3184.7  Rx     00117724  5  01 00 00 24 77 
  1278)      3189.5  Rx     00017FFC  7  01 00 00 0F 03 FC 7F 
  1279)      3189.7  Rx     00117FFC  5  01 00 00 FC 7F 
  1280)      3194.6  Rx     00017A89  7  01 00 00 0F 03 89 7A 
  1281)      3194.6  Rx     00117A89  5  01 00 00 89 7A 
  1282)      3199.6  Rx     00012796  7  01 00 00 0F 03 96 27 
  1283)      3199.6  Rx     00112796  5  01 00 00 96 27 
  1284)      3204.5  Rx     0001398D  7  01 00 00 0F 03 8D 39 
  1285)      3204.7  Rx     0011398D  5  01 00 00 8D 39 
  1286)      3209.5  Rx     0001FE58  7  01 00 00 0F 03 58 FE 
  1287)      3209.7  Rx     0011FE58  5  01 00 00 58 FE 
  1288)      3214.5  Rx     0001F993  7  01 00 00 0F 03 93 F9 
  1289)      3214.7  Rx     0011F993  5  01 00 00 93 F9 
  1290)      3219.5  Rx     000175CF  7  01 00 00 0F 03 CF 75 
  1291)      3219.6  Rx     001175CF  5  01 00 00 CF 75 
  1292)      3224.6  Rx     0001C9FA  7  01 00 00 0F 03 FA C9 
  1293)      3224.6  Rx     0011C9FA  5  01 00 00 FA C9 
  1294)      3229.5  Rx     00014CA2  7  01 00 00 0F 03 A2 4C 
  1295)      3229.6  Rx     00114CA2  5  01 00 00 A2 4C 
  1296)      3234.5  Rx     0001A3C9  7  01 00 00 0F 03 C9 A3 
  1297)      3234.7  Rx     0011A3C9  5  01 00 00 C9 A3 
  1298)      3239.5  Rx     00017DD6  7  01 00 00 0F 03 D6 7D 
  1299)      3239.7  Rx     00117DD6  5  01 00 00 D6 7D 
  1300)      3244.5  Rx     0001BF26  7  01 00 00 0F 03 26 BF 
  1301)      3244.7  Rx     0011BF26  5  01 00 00 26 BF 
  1302)      3249.6  Rx     0001DD0C  7  01 00 00 0F 03 0C DD 
  1303)      3249.6  Rx     0011DD0C  5  01 00 00 0C DD 
  1304)      3254.5  Rx     0001EBF2  7  01 00 00 0F 03 F2 EB 
  1305)      3254.6  Rx     0011EBF2  5  01 00 00 F2 EB 
  1306)      3259.5  Rx     0001ABB2  7  01 00 00 0F 03 B2 AB 
  1307)      3259.7  Rx     0011ABB2  5  01 00 00 B2 AB 
  1308)      3264.5  Rx     0001688D  7  01 00 00 0F 03 8D 68 
  1309)      3264.7  Rx     0011688D  5  01 00 00 8D 68 
  1310)      3269.5  Rx     0001FBC3  7  01 00 00 0F 03 C3 FB 
  1311)      3269.7  Rx     0011FBC3  5  01 00 00 C3 FB 
  1312)      3274.5  Rx     0001ED85  7  01 00 00 0F 03 85 ED 
  1313)      3274.6  Rx     0011ED85  5  01 00 00 85 ED 
  1314)      3279.6  Rx     00015B81  7  01 00 00 0F 03 81 5B 
  1315)      3279.6  Rx     00115B81  5  01 00 00 81 5B 
  1316)      3284.5  Rx     000176C1  7  01 00 00 0F 03 C1 76 
  1317)      3284.6  Rx     001176C1  5  01 00 00 C1 76 
  1318)      3289.5  Rx     0001A257  7  01 00 00 0F 03 57 A2 
  1319)      3289.7  Rx     0011A257  5  01 00 00 57 A2 
  1320)      3294.5  Rx     00018665  7  01 00 00 0F 03 65 86 
  1321)      3294.7  Rx     00118665  5  01 00 00 65 86 
  1322)      3299.5  Rx     000121BD  7  01 00 00 0F 03 BD 21 
  1323)      3299.6  Rx     001121BD  5  01 00 00 BD 21 
  1324)      3304.6  Rx     0001737F  7  01 00 00 0F 03 7F 73 
  1325)      3304.6  Rx     0011737F  5  01 00 00 7F 73 
  1326)      3309.5  Rx     000155DA  7  01 00 00 0F 03 DA 55 
  1327)      3309.6  Rx     001155DA  5  01 00 00 DA 55 
  1328)      3314.5  Rx     00015A4B  7  01 00 00 0F 03 4B 5A 
  1329)      3314.6  Rx     00115A4B  5  01 00 00 4B 5A 
  1330)      3319.5  Rx     00011C3B  7  01 00 00 0F 03 3B 1C 
  1331)      3319.7  Rx     00111C3B  5  01 00 00 3B 1C 
  1332)      3324.5  Rx     00016180  7  01 00 00 0F 03 80 61 
  1333)      3324.6  Rx     00116180  5  01 00 00 80 61 
  1334)      3329.5  Rx     0001DBCA  7  01 00 00 0F 03 CA DB 
  1335)      3329.6  Rx     0011DBCA  5  01 00 00 CA DB 
  1336)      3334.5  Rx     0001E406  7  01 00 00 0F 03 06 E4 
  1337)      3334.6  Rx     0011E406  5  01 00 00 06 E4 
  1338)      3339.5  Rx     000137F6  7  01 00 00 0F 03 F6 37 
  1339)      3339.7  Rx     001137F6  5  01 00 00 F6 37 
  1340)      3344.5  Rx     00014010  7  01 00 00 0F 03 10 40 
  1341)      3344.7  Rx     00114010  5  01 00 00 10 40 
  1342)      3349.5  Rx     000119AE  7  01 00 00 0F 03 AE 19 
  1343)      3349.6  Rx     001119AE  5  01 00 00 AE 19 
  1344)      3354.5  Rx     00019865  7  01 00 00 0F 03 65 98 
  1345)      3354.6  Rx     00119865  5  01 00 00 65 98 
  1346)      3359.5  Rx     00018B90  7  01 00 00 0F 03 90 8B 
  1347)      3359.6  Rx     00118B90  5  01 00 00 90 8B 
  1348)      3364.5  Rx     0001AA60  7  01 00 00 0F 03 60 AA 
  1349)      3364.6  Rx     0011AA60  5  01 00 00 60 AA 
  1350)      3369.5  Rx     0001F382  7  01 00 00 0F 03 82 F3 
  1351)      3369.7  Rx     0011F382  5  01 00 00 82 F3 
  1352)      3374.5  Rx     0001D6EF  7  01 00 00 0F 03 EF D6 
  1353)      3374.7  Rx     0011D6EF  5  01 00 00 EF D6 
  1354)      3379.5  Rx     0001A694  7  01 00 00 0F 03 94 A6 
  1355)      3379.6  Rx     0011A694  5  01 00 00 94 A6 
  1356)      3384.5  Rx     0001569A  7  01 00 00 0F 03 9A 56 
  1357)      3384.6  Rx     0011569A  5  01 00 00 9A 56 
  1358)      3389.5  Rx     0001F8D3  7  01 00 00 0F 03 D3 F8 
  1359)      3389.6  Rx     0011F8D3  5  01 00 00 D3 F8 
  1360)      3394.5  Rx     00010858  7  01 00 00 0F 03 58 08 
  1361)      3394.6  Rx     00110858  5  01 00 00 58 08 
  1362)      3399.5  Rx     0001E17B  7  01 00 00 0F 03 7B E1 
  1363)      3399.7  Rx     0011E17B  5  01 00 00 7B E1 
  1364)      3404.5  Rx     0001ACB8  7  01 00 00 0F 03 B8 AC 
  1365)      3404.6  Rx     0011ACB8  5  01 00 00 B8 AC 
  1366)      3409.5  Rx     000158A8  7  01 00 00 0F 03 A8 58 
  1367)      3409.6  Rx     001158A8  5  01 00 00 A8 58 
  1368)      3414.5  Rx     0001CAB2  7  01 00 00 0F 03 B2 CA 
  1369)      3414.6  Rx     0011CAB2  5  01 00 00 B2 CA 
  1370)      3419.5  Rx     0001A674  7  01 00 00 0F 03 74 A6 
  1371)      3419.6  Rx     0011A674  5  01 00 00 74 A6 
  1372)      3424.5  Rx     00016114  7  01 00 00 0F 03 14 61 
  1373)      3424.6  Rx     00116114  5  01 00 00 14 61 
  1374)      3429.5  Rx     00019027  7  01 00 00 0F 03 27 90 
  1375)      3429.6  Rx     00119027  5  01 00 00 27 90 
  1376)      3434.5  Rx     0001C365  7  01 00 00 0F 03 65 C3 
  1377)      3434.6  Rx     0011C365  5  01 00 00 65 C3 
  1378)      3439.5  Rx     0001CAE2  7  01 00 00 0F 03 E2 CA 
  1379)      3439.6  Rx     0011CAE2  5  01 00 00 E2 CA 
  1380)      3444.5  Rx     0001F6BD  7  01 00 00 0F 03 BD F6 
  1381)      3444.6  Rx     0011F6BD  5  01 00 00 BD F6 
  1382)      3449.5  Rx     000163F3  7  01 00 00 0F 03 F3 63 
  1383)      3449.6  Rx     001163F3  5  01 00 00 F3 63 
  1384)      3454.5  Rx     0001EADF  7  01 00 00 0F 03 DF EA 
  1385)      3454.6  Rx     0011EADF  5  01 00 00 DF EA 
  1386)      3459.5  Rx     0001D5A5  7  01 00 00 0F 03 A5 D5 
  1387)      3459.6  Rx     0011D5A5  5  01 00 00 A5 D5 
  1388)      3464.5  Rx     0001518F  7  01 00 00 0F 03 8F 51 
  1389)      3464.6  Rx     0011518F  5  01 00 00 8F 51 
  1390)      3469.5  Rx     00017055  7  01 00 00 0F 03 55 70 
  1391)      3469.6  Rx     00117055  5  01 00 00 55 70 
  1392)      3474.5  Rx     00017A0A  7  01 00 00 0F 03 0A 7A 
  1393)      3474.6  Rx     00117A0A  5  01 00 00 0A 7A 
  1394)      3479.5  Rx     00015E18  7  01 00 00 0F 03 18 5E 
  1395)      3479.6  Rx     00115E18  5  01 00 00 18 5E 
  1396)      3484.5  Rx     00014401  7  01 00 00 0F 03 01 44 
  1397)      3484.6  Rx     00114401  5  01 00 00 01 44 
  1398)      3489.5  Rx     00015021  7  01 00 00 0F 03 21 50 
  1399)      3489.6  Rx     00115021  5  01 00 00 21 50 
  1400)      3494.5  Rx     00011181  7  01 00 00 0F 03 81 11 
  1401)      3494.6  Rx     00111181  5  01 00 00 81 11 
  1402)      3499.5  Rx     00014BDD  7  01 00 00 0F 03 DD 4B 
  1403)      3499.6  Rx     00114BDD  5  01 00 00 DD 4B 
  1404)      3504.5  Rx     000130BC  7  01 00 00 0F 03 BC 30 
  1405)      3504.6  Rx     001130BC  5  01 00 00 BC 30 
  1406)      3509.5  Rx     00011A55  7  01 00 00 0F 03 55 1A 
  1407)      3509.6  Rx     00111A55  5  01 00 00 55 1A 
  1408)      3514.5  Rx     0001AA81  7  01 00 00 0F 03 81 AA 
  1409)      3514.6  Rx     0011AA81  5  01 00 00 81 AA 
  1410)      3519.5  Rx     00012B5A  7  01 00 00 0F 03 5A 2B 
  1411)      3519.6  Rx     00112B5A  5  01 00 00 5A 2B 
  1412)      3524.5  Rx     000187EF  7  01 00 00 0F 03 EF 87 
  1413)      3524.6  Rx     001187EF  5  01 00 00 EF 87 
  1414)      3529.5  Rx     00016282  7  01 00 00 0F 03 82 62 
  1415)      3529.6  Rx     00116282  5  01 00 00 82 62 
  1416)      3534.5  Rx     0001C5A1  7  01 00 00 0F 03 A1 C5 
  1417)      3534.6  Rx     0011C5A1  5  01 00 00 A1 C5 
  1418)      3539.5  Rx     00018301  7  01 00 00 0F 03 01 83 
  1419)      3539.6  Rx     00118301  5  01 00 00 01 83 
  1420)      3544.5  Rx     00014C64  7  01 00 00 0F 03 64 4C 
  1421)      3544.6  Rx     00114C64  5  01 00 00 64 4C 
  1422)      3549.5  Rx     0001F7EA  7  01 00 00 0F 03 EA F7 
  1423)      3549.6  Rx     0011F7EA  5  01 00 00 EA F7 
  1424)      3554.5  Rx     00016F40  7  01 00 00 0F 03 40 6F 
  1425)      3554.6  Rx     00116F40  5  01 00 00 40 6F 
  1426)      3559.5  Rx     00012552  7  01 00 00 0F 03 52 25 
  1427)      3559.6  Rx     00112552  5  01 00 00 52 25 
  1428)      3564.5  Rx     0001CC51  7  01 00 00 0F 03 51 CC 
  1429)      3564.6  Rx     0011CC51  5  01 00 00 51 CC 
  1430)      3569.5  Rx     0001B76D  7  01 00 00 0F 03 6D B7 
  1431)      3569.6  Rx     0011B76D  5  01 00 00 6D B7 
  1432)      3574.5  Rx     000141C1  7  01 00 00 0F 03 C1 41 
  1433)      3574.6  Rx     001141C1  5  01 00 00 C1 41 
  1434)      3579.5  Rx     000177A1  7  01 00 00 0F 03 A1 77 
  1435)      3579.6  Rx     001177A1  5  01 00 00 A1 77 
  1436)      3584.5  Rx     000115EE  7  01 00 00 0F 03 EE 15 
  1437)      3584.6  Rx     001115EE  5  01 00 00 EE 15 
  1438)      3589.5  Rx     00016023  7  01 00 00 0F 03 23 60 
  1439)      3589.6  Rx     00116023  5  01 00 00 23 60 
  1440)      3594.5  Rx     00019578  7  01 00 00 0F 03 78 95 
  1441)      3594.6  Rx     00119578  5  01 00 00 78 95 
  1442)      3599.5  Rx     0001BD97  7  01 00 00 0F 03 97 BD 
  1443)      3599.6  Rx     0011BD97  5  01 00 00 97 BD 
  1444)      3604.5  Rx     000177CB  7  01 00 00 0F 03 CB 77 
  1445)      3604.6  Rx     001177CB  5  01 00 00 CB 77 
  1446)      3609.5  Rx     000166C8  7  01 00 00 0F 03 C8 66 
  1447)      3609.6  Rx     001166C8  5  01 00 00 C8 66 
  1448)      3614.5  Rx     00016E62  7  01 00 00 0F 03 62 6E 
  1449)      3614.6  Rx     00116E62  5  01 00 00 62 6E 
  1450)      3619.5  Rx     00018179  7  01 00 00 0F 03 79 81 
  1451)      3619.6  Rx     00118179  5  01 00 00 79 81 
  1452)      3624.5  Rx     00012CDD  7  01 00 00 0F 03 DD 2C 
  1453)      3624.6  Rx     00112CDD  5  01 00 00 DD 2C 
  1454)      3629.5  Rx     0001B3DB  7  01 00 00 0F 03 DB B3 
  1455)      3629.6  Rx     0011B3DB  5  01 00 00 DB B3 
  1456)      3634.5  Rx     0001A797  7  01 00 00 0F 03 97 A7 
  1457)      3634.6  Rx     0011A797  5  01 00 00 97 A7 
  1458)      3639.5  Rx     0001CD2A  7  01 00 00 0F 03 2A CD 
  1459)      3639.6  Rx     0011CD2A  5  01 00 00 2A CD 
  1460)      3644.5  Rx     0001EC5D  7  01 00 00 0F 03 5D EC 
  1461)      3644.6  Rx     0011EC5D  5  01 00 00 5D EC 
  1462)      3649.5  Rx     00017884  7  01 00 00 0F 03 84 78 
  1463)      3649.6  Rx     00117884  5  01 00 00 84 78 
  1464)      3654.5  Rx     0001E47F  7  01 00 00 0F 03 7F E4 
  1465)      3654.6  Rx     0011E47F  5  01 00 00 7F E4 
  1466)      3659.5  Rx     00017FF1  7  01 00 00 0F 03 F1 7F 
  1467)      3659.6  Rx     00117FF1  5  01 00 00 F1 7F 
  1468)      3664.5  Rx     00016950  7  01 00 00 0F 03 50 69 
  1469)      3664.6  Rx     00116950  5  01 00 00 50 69 
  1470)      3669.5  Rx     00011E39  7  01 00 00 0F 03 39 1E 
  1471)      3669.6  Rx     00111E39  5  01 00 00 39 1E 
  1472)      3674.5  Rx     0001CBC6  7  01 00 00 0F 03 C6 CB 
  1473)      3674.6  Rx     0011CBC6  5  01 00 00 C6 CB 
  1474)      3679.5  Rx     00019CFA  7  01 00 00 0F 03 FA 9C 
  1475)      3679.6  Rx     00119CFA  5  01 00 00 FA 9C 
  1476)      3684.5  Rx     0001E9E4  7  01 00 00 0F 03 E4 E9 
  1477)      3684.6  Rx     0011E9E4  5  01 00 00 E4 E9 
  1478)      3689.5  Rx     0001E51F  7  01 00 00 0F 03 1F E5 
  1479)      3689.6  Rx     0011E51F  5  01 00 00 1F E5 
  1480)      3694.5  Rx     0001E810  7  01 00 00 0F 03 10 E8 
  1481)      3694.6  Rx     0011E810  5  01 00 00 10 E8 
  1482)      3699.5  Rx     0001AA9E  7  01 00 00 0F 03 9E AA 
  1483)      3699.6  Rx     0011AA9E  5  01 00 00 9E AA 
  1484)      3704.5  Rx     0001D680  7  01 00 00 0F 03 80 D6 
  1485)      3704.6  Rx     0011D680  5  01 00 00 80 D6 
  1486)      3709.5  Rx     0001DD30  7  01 00 00 0F 03 30 DD 
  1487)      3709.6  Rx     0011DD30  5  01 00 00 30 DD 
  1488)      3714.5  Rx     0001E66C  7  01 00 00 0F 03 6C E6 
  1489)      3714.6  Rx     0011E66C  5  01 00 00 6C E6 
  1490)      3719.5  Rx     0001EA62  7  01 00 00 0F 03 62 EA 
  1491)      3719.6  Rx     0011EA62  5  01 00 00 62 EA 
  1492)      3724.5  Rx     00014499  7  01 00 00 0F 03 99 44 
  1493)      3724.6  Rx     00114499  5  01 00 00 99 44 
  1494)      3729.5  Rx     00019621  7  01 00 00 0F 03 21 96 
  1495)      3729.6  Rx     00119621  5  01 00 00 21 96 
  1496)      3734.5  Rx     00017A88  7  01 00 00 0F 03 88 7A 
  1497)      3734.6  Rx     00117A88  5  01 00 00 88 7A 
  1498)      3739.5  Rx     0001B9BF  7  01 00 00 0F 03 BF B9 
  1499)      3739.6  Rx     0011B9BF  5  01 00 00 BF B9 
  1500)      3744.5  Rx     00019945  7  01 00 00 0F 03 45 99 
  1501)      3744.6  Rx     00119945  5  01 00 00 45 99 
  1502)      3749.5  Rx     00010600  7  01 00 00 0F 03 00 06 
  1503)      3749.6  Rx     00110600  5  01 00 00 00 06 
  1504)      3754.5  Rx     000188A9  7  01 00 00 0F 03 A9 88 
  1505)      3754.6  Rx     001188A9  5  01 00 00 A9 88 
  1506)      3759.5  Rx     0001DBA6  7  01 00 00 0F 03 A6 DB 
  1507)      3759.6  Rx     0011DBA6  5  01 00 00 A6 DB 
  1508)      3764.5  Rx     00010B91  7  01 00 00 0F 03 91 0B 
  1509)      3764.6  Rx     00110B91  5  01 00 00 91 0B 
  1510)      3769.5  Rx     0001569F  7  01 00 00 0F 03 9F 56 
  1511)      3769.6  Rx     0011569F  5  01 00 00 9F 56 
  1512)      3774.5  Rx     00013957  7  01 00 00 0F 03 57 39 
  1513)      3774.6  Rx     00113957  5  01 00 00 57 39 
  1514)      3779.5  Rx     0001CEC1  7  01 00 00 0F 03 C1 CE 
  1515)      3779.6  Rx     0011CEC1  5  01 00 00 C1 CE 
  1516)      3784.5  Rx     00012691  7  01 00 00 0F 03 91 26 
  1517)      3784.6  Rx     00112691  5  01 00 00 91 26 
  1518)      3789.5  Rx     0001A9B4  7  01 00 00 0F 03 B4 A9 
  1519)      3789.6  Rx     0011A9B4  5  01 00 00 B4 A9 
  1520)      3794.5  Rx     0001F6DB  7  01 00 00 0F 03 DB F6 
  1521)      3794.6  Rx     0011F6DB  5  01 00 00 DB F6 
  1522)      3799.5  Rx     00010C7A  7  01 00 00 0F 03 7A 0C 
  1523)      3799.6  Rx     00110C7A  5  01 00 00 7A 0C 
  1524)      3804.5  Rx     00017B3B  7  01 00 00 0F 03 3B 7B 
  1525)      3804.6  Rx     00117B3B  5  01 00 00 3B 7B 
  1526)      3809.5  Rx     0001F7BB  7  01 00 00 0F 03 BB F7 
  1527)      3809.6  Rx     0011F7BB  5  01 00 00 BB F7 
  1528)      3814.5  Rx     00018469  7  01 00 00 0F 03 69 84 
  1529)      3814.6  Rx     00118469  5  01 00 00 69 84 
  1530)      3819.5  Rx     000174BC  7  01 00 00 0F 03 BC 74 
  1531)      3819.6  Rx     001174BC  5  01 00 00 BC 74 
  1532)      3824.5  Rx     000109F3  7  01 00 00 0F 03 F3 09 
  1533)      3824.6  Rx     001109F3  5  01 00 00 F3 09 
  1534)      3829.5  Rx     0001C9A2  7  01 00 00 0F 03 A2 C9 
  1535)      3829.6  Rx     0011C9A2  5  01 00 00 A2 C9 
  1536)      3834.5  Rx     00011F1C  7  01 00 00 0F 03 1C 1F 
  1537)      3834.6  Rx     00111F1C  5  01 00 00 1C 1F 
  1538)      3839.5  Rx     00018A7A  7  01 00 00 0F 03 7A 8A 
  1539)      3839.6  Rx     00118A7A  5  01 00 00 7A 8A 
  1540)      3844.5  Rx     0001FBE5  7  01 00 00 0F 03 E5 FB 
  1541)      3844.6  Rx     0011FBE5  5  01 00 00 E5 FB 
  1542)      3849.5  Rx     00012922  7  01 00 00 0F 03 22 29 
  1543)      3849.6  Rx     00112922  5  01 00 00 22 29 
  1544)      3854.5  Rx     000164A5  7  01 00 00 0F 03 A5 64 
  1545)      3854.6  Rx     001164A5  5  01 00 00 A5 64 
  1546)      3859.5  Rx     0001BCF3  7  01 00 00 0F 03 F3 BC 
  1547)      3859.6  Rx     0011BCF3  5  01 00 00 F3 BC 
  1548)      3864.5  Rx     00010816  7  01 00 00 0F 03 16 08 
  1549)      3864.6  Rx     00110816  5  01 00 00 16 08 
  1550)      3869.5  Rx     000153ED  7  01 00 00 0F 03 ED 53 
  1551)      3869.6  Rx     001153ED  5  01 00 00 ED 53 
  1552)      3874.5  Rx     00019BC1  7  01 00 00 0F 03 C1 9B 
  1553)      3874.6  Rx     00119BC1  5  01 00 00 C1 9B 
  1554)      3879.5  Rx     0001CDB3  7  01 00 00 0F 03 B3 CD 
  1555)      3879.6  Rx     0011CDB3  5  01 00 00 B3 CD 
  1556)      3884.5  Rx     00012C38  7  01 00 00 0F 03 38 2C 
  1557)      3884.6  Rx     00112C38  5  01 00 00 38 2C 
  1558)      3889.5  Rx     0001958D  7  01 00 00 0F 03 8D 95 
  1559)      3889.6  Rx     0011958D  5  01 00 00 8D 95 
  1560)      3894.5  Rx     00018E6F  7  01 00 00 0F 03 6F 8E 
  1561)      3894.6  Rx     00118E6F  5  01 00 00 6F 8E 
  1562)      3899.5  Rx     00010F58  7  01 00 00 0F 03 58 0F 
  1563)      3899.6  Rx     00110F58  5  01 00 00 58 0F 
  1564)      3904.5  Rx     00011940  7  01 00 00 0F 03 40 19 
  1565)      3904.6  Rx     00111940  5  01 00 00 40 19 
  1566)      3909.5  Rx     00012006  7  01 00 00 0F 03 06 20 
  1567)      3909.6  Rx     00112006  5  01 00 00 06 20 
  1568)      3914.5  Rx     0001C1DD  7  01 00 00 0F 03 DD C1 
  1569)      3914.6  Rx     0011C1DD  5  01 00 00 DD C1 
  1570)      3919.5  Rx     0001BD19  7  01 00 00 0F 03 19 BD 
  1571)      3919.6  Rx     0011BD19  5  01 00 00 19 BD 
  1572)      3924.5  Rx     0001DFB7  7  01 00 00 0F 03 B7 DF 
  1573)      3924.6  Rx     0011DFB7  5  01 00 00 B7 DF 
  1574)      3929.5  Rx     0001D340  7  01 00 00 0F 03 40 D3 
  1575)      3929.6  Rx     0011D340  5  01 00 00 40 D3 
  1576)      3934.5  Rx     00016826  7  01 00 00 0F 03 26 68 
  1577)      3934.6  Rx     00116826  5  01 00 00 26 68 
  1578)      3939.5  Rx     00015306  7  01 00 00 0F 03 06 53 
  1579)      3939.6  Rx     00115306  5  01 00 00 06 53 
  1580)      3944.5  Rx     000163D3  7  01 00 00 0F 03 D3 63 
  1581)      3944.6  Rx     001163D3  5  01 00 00 D3 63 
  1582)      3949.5  Rx     00010727  7  01 00 00 0F 03 27 07 
  1583)      3949.6  Rx     00110727  5  01 00 00 27 07 
  1584)      3954.5  Rx     000193BD  7  01 00 00 0F 03 BD 93 
  1585)      3954.6  Rx     001193BD  5  01 00 00 BD 93 
  1586)      3959.5  Rx     0001BF0E  7  01 00 00 0F 03 0E BF 
  1587)      3959.6  Rx     0011BF0E  5  01 00 00 0E BF 
  1588)      3964.5  Rx     00010545  7  01 00 00 0F 03 45 05 
  1589)      3964.6  Rx     00110545  5  01 00 00 45 05 
  1590)      3969.5  Rx     0001648E  7  01 00 00 0F 03 8E 64 
  1591)      3969.6  Rx     0011648E  5  01 00 00 8E 64 
  1592)      3974.5  Rx     000114A6  7  01 00 00 0F 03 A6 14 
  1593)      3974.6  Rx     001114A6  5  01 00 00 A6 14 
  1594)      3979.5  Rx     0001D6C5  7  01 00 00 0F 03 C5 D6 
  1595)      3979.6  Rx     0011D6C5  5  01 00 00 C5 D6 
  1596)      3984.5  Rx     000132CF  7  01 00 00 0F 03 CF 32 
  1597)      3984.6  Rx     001132CF  5  01 00 00 CF 32 
  1598)      3989.5  Rx     0001B8D7  7  01 00 00 0F 03 D7 B8 
  1599)      3989.6  Rx     0011B8D7  5  01 00 00 D7 B8 
  1600)      3994.5  Rx     0001BF6A  7  01 00 00 0F 03 6A BF 
  1601)      3994.6  Rx     0011BF6A  5  01 00 00 6A BF 
  1602)      3999.5  Rx     00018DE2  7  01 00 00 0F 03 E2 8D 
  1603)      3999.6  Rx     00118DE2  5  01 00 00 E2 8D 
  1604)      4004.5  Rx     0001D59C  7  01 00 00 0F 03 9C D5 
  1605)      4004.6  Rx     0011D59C  5  01 00 00 9C D5 
  1606)      4009.5  Rx     0001C053  7  01 00 00 0F 03 53 C0 
  1607)      4009.6  Rx     0011C053  5  01 00 00 53 C0 
  1608)      4014.5  Rx     000151C7  7  01 00 00 0F 03 C7 51 
  1609)      4014.6  Rx     001151C7  5  01 00 00 C7 51 
  1610)      4019.5  Rx     00015D89  7  01 00 00 0F 03 89 5D 
  1611)      4019.6  Rx     00115D89  5  01 00 00 89 5D 
  1612)      4024.5  Rx     00010C4E  7  01 00 00 0F 03 4E 0C 
  1613)      4024.6  Rx     00110C4E  5  01 00 00 4E 0C 
  1614)      4029.5  Rx     0001F769  7  01 00 00 0F 03 69 F7 
  1615)      4029.6  Rx     0011F769  5  01 00 00 69 F7 
  1616)      4034.5  Rx     0001A52A  7  01 00 00 0F 03 2A A5 
  1617)      4034.6  Rx     0011A52A  5  01 00 00 2A A5 
  1618)      4039.5  Rx     0001704D  7  01 00 00 0F 03 4D 70 
  1619)      4039.6  Rx     0011704D  5  01 00 00 4D 70 
  1620)      4044.5  Rx     0001A5D6  7  01 00 00 0F 03 D6 A5 
  1621)      4044.6  Rx     0011A5D6  5  01 00 00 D6 A5 
  1622)      4049.5  Rx     00015678  7  01 00 00 0F 03 78 56 
  1623)      4049.6  Rx     00115678  5  01 00 00 78 56 
  1624)      4054.5  Rx     00019EDC  7  01 00 00 0F 03 DC 9E 
  1625)      4054.6  Rx     00119EDC  5  01 00 00 DC 9E 
  1626)      4059.5  Rx     00011AF3  7  01 00 00 0F 03 F3 1A 
  1627)      4059.6  Rx     00111AF3  5  01 00 00 F3 1A 
  1628)      4064.5  Rx     0001AC06  7  01 00 00 0F 03 06 AC 
  1629)      4064.6  Rx     0011AC06  5  01 00 00 06 AC 
  1630)      4069.5  Rx     0001507C  7  01 00 00 0F 03 7C 50 
  1631)      4069.6  Rx     0011507C  5  01 00 00 7C 50 
