;$FILEVERSION=1.1
;$STARTTIME=46290.6155424306
;
;   Start time: 25/09/2026 14:46:22.866.0
;   Generated by PCAN-View v5.3.3.958
;
;   Message Number
;   |         Time Offset (ms)
;   |         |        Type
;   |         |        |        ID (hex)
;   |         |        |        |     Data Length
;   |         |        |        |     |   Data Bytes (hex) ...
;   |         |        |        |     |   |
;---+--   ----+----  --+--  ----+---  +  -+ -- -- -- -- -- -- --
     1)      8881.4  Rx     0001730A  7  01 00 00 0F 00 0A 73 
     2)      8881.6  Rx     0011730A  5  01 00 00 0A 73 
     3)      8886.4  Rx     00013366  7  01 00 00 0F 03 66 33 
     4)      8886.6  Rx     00113366  5  01 00 00 66 33 
     5)      8891.5  Rx     00019BCA  7  01 00 00 0F 03 CA 9B 
     6)      8891.5  Rx     00119BCA  5  01 00 00 CA 9B 
     7)      8896.5  Rx     0001C99C  7  01 00 00 0F 03 9C C9 
     8)      8896.5  Rx     0011C99C  5  01 00 00 9C C9 
     9)      8901.4  Rx     000129C7  7  01 00 00 0F 03 C7 29 
    10)      8901.6  Rx     001129C7  5  01 00 00 C7 29 
    11)      8906.4  Rx     0001225B  7  01 00 00 0F 03 5B 22 
    12)      8906.6  Rx     0011225B  5  01 00 00 5B 22 
    13)      8911.4  Rx     000187C2  7  01 00 00 0F 03 C2 87 
    14)      8911.6  Rx     001187C2  5  01 00 00 C2 87 
    15)      8916.4  Rx     0001E823  7  01 00 00 0F 03 23 E8 
    16)      8916.6  Rx     0011E823  5  01 00 00 23 E8 
    17)      8921.5  Rx     00017100  7  01 00 00 0F 03 00 71 
    18)      8921.5  Rx     00117100  5  01 00 00 00 71 
    19)      8926.5  Rx     00019327  7  01 00 00 0F 03 27 93 
    20)      8926.5  Rx     00119327  5  01 00 00 27 93 
    21)      8931.4  Rx     0001D12B  7  01 00 00 0F 03 2B D1 
    22)      8931.6  Rx     0011D12B  5  01 00 00 2B D1 
    23)      8936.4  Rx     00010645  7  01 00 00 0F 03 45 06 
    24)      8936.6  Rx     00110645  5  01 00 00 45 06 
    25)      8941.4  Rx     00012865  7  01 00 00 0F 03 65 28 
    26)      8941.6  Rx     00112865  5  01 00 00 65 28 
    27)      8946.5  Rx     00015359  7  01 00 00 0F 03 59 53 
    28)      8946.5  Rx     00115359  5  01 00 00 59 53 
    29)      8951.5  Rx     00010193  7  01 00 00 0F 03 93 01 
    30)      8951.5  Rx     00110193  5  01 00 00 93 01 
    31)      8956.4  Rx     0001F3F3  7  01 00 00 0F 03 F3 F3 
    32)      8956.6  Rx     0011F3F3  5  01 00 00 F3 F3 
    33)      8961.4  Rx     00014972  7  01 00 00 0F 03 72 49 
    34)      8961.6  Rx     00114972  5  01 00 00 72 49 
    35)      8966.4  Rx     00012345  7  01 00 00 0F 03 45 23 
    36)      8966.6  Rx     00112345  5  01 00 00 45 23 
    37)      8971.4  Rx     0001C3EF  7  01 00 00 0F 03 EF C3 
    38)      8971.5  Rx     0011C3EF  5  01 00 00 EF C3 
    39)      8976.5  Rx     00011BC1  7  01 00 00 0F 03 C1 1B 
    40)      8976.5  Rx     00111BC1  5  01 00 00 C1 1B 
    41)      8981.4  Rx     0001BDD6  7  01 00 00 0F 03 D6 BD 
    42)      8981.5  Rx     0011BDD6  5  01 00 00 D6 BD 
    43)      8986.4  Rx     0001B2B8  7  01 00 00 0F 03 B8 B2 
    44)      8986.6  Rx     0011B2B8  5  01 00 00 B8 B2 
    45)      8991.4  Rx     00012BDE  7  01 00 00 0F 03 DE 2B 
    46)      8991.6  Rx     00112BDE  5  01 00 00 DE 2B 
    47)      8996.4  Rx     000101FF  7  01 00 00 0F 03 FF 01 
    48)      8996.6  Rx     001101FF  5  01 00 00 FF 01 
    49)      9001.4  Rx     00012894  7  01 00 00 0F 03 94 28 
    50)      9001.5  Rx     00112894  5  01 00 00 94 28 
    51)      9006.4  Rx     0001C368  7  01 00 00 0F 03 68 C3 
    52)      9006.5  Rx     0011C368  5  01 00 00 68 C3 
    53)      9011.4  Rx     000125AF  7  01 00 00 0F 03 AF 25 
    54)      9011.5  Rx     001125AF  5  01 00 00 AF 25 
    55)      9016.4  Rx     0001E789  7  01 00 00 0F 03 89 E7 
    56)      9016.6  Rx     0011E789  5  01 00 00 89 E7 
    57)      9021.4  Rx     0001C5E5  7  01 00 00 0F 03 E5 C5 
    58)      9021.6  Rx     0011C5E5  5  01 00 00 E5 C5 
    59)      9026.4  Rx     00012D2C  7  01 00 00 0F 03 2C 2D 
    60)      9026.5  Rx     00112D2C  5  01 00 00 2C 2D 
    61)      9031.5  Rx     0001AF24  7  01 00 00 0F 03 24 AF 
    62)      9031.5  Rx     0011AF24  5  01 00 00 24 AF 
    63)      9036.4  Rx     0001445E  7  01 00 00 0F 03 5E 44 
    64)      9036.5  Rx     0011445E  5  01 00 00 5E 44 
    65)      9041.4  Rx     000129E4  7  01 00 00 0F 03 E4 29 
    66)      9041.6  Rx     001129E4  5  01 00 00 E4 29 
    67)      9046.4  Rx     0001FFF0  7  01 00 00 0F 03 F0 FF 
    68)      9046.6  Rx     0011FFF0  5  01 00 00 F0 FF 
    69)      9051.4  Rx     000124F3  7  01 00 00 0F 03 F3 24 
    70)      9051.5  Rx     001124F3  5  01 00 00 F3 24 
    71)      9056.4  Rx     000171F1  7  01 00 00 0F 03 F1 71 
    72)      9056.5  Rx     001171F1  5  01 00 00 F1 71 
    73)      9061.4  Rx     00011DE7  7  01 00 00 0F 03 E7 1D 
    74)      9061.5  Rx     00111DE7  5  01 00 00 E7 1D 
    75)      9066.4  Rx     00017765  7  01 00 00 0F 03 65 77 
    76)      9066.5  Rx     00117765  5  01 00 00 65 77 
    77)      9071.4  Rx     0001A910  7  01 00 00 0F 03 10 A9 
    78)      9071.6  Rx     0011A910  5  01 00 00 10 A9 
    79)      9076.4  Rx     00012542  7  01 00 00 0F 03 42 25 
    80)      9076.5  Rx     00112542  5  01 00 00 42 25 
    81)      9081.4  Rx     000160AD  7  01 00 00 0F 03 AD 60 
    82)      9081.5  Rx     001160AD  5  01 00 00 AD 60 
    83)      9086.4  Rx     00011C7B  7  01 00 00 0F 03 7B 1C 
    84)      9086.5  Rx     00111C7B  5  01 00 00 7B 1C 
    85)      9091.4  Rx     00015DAC  7  01 00 00 0F 03 AC 5D 
    86)      9091.5  Rx     00115DAC  5  01 00 00 AC 5D 
    87)      9096.4  Rx     000100AB  7  01 00 00 0F 03 AB 00 
    88)      9096.6  Rx     001100AB  5  01 00 00 AB 00 
    89)      9101.4  Rx     0001893C  7  01 00 00 0F 03 3C 89 
    90)      9101.6  Rx     0011893C  5  01 00 00 3C 89 
    91)      9106.4  Rx     0001DC8F  7  01 00 00 0F 03 8F DC 
    92)      9106.5  Rx     0011DC8F  5  01 00 00 8F DC 
    93)      9111.4  Rx     0001B8FC  7  01 00 00 0F 03 FC B8 
    94)      9111.5  Rx     0011B8FC  5  01 00 00 FC B8 
    95)      9116.4  Rx     0001317A  7  01 00 00 0F 03 7A 31 
    96)      9116.5  Rx     0011317A  5  01 00 00 7A 31 
    97)      9121.4  Rx     0001C887  7  01 00 00 0F 03 87 C8 
    98)      9121.5  Rx     0011C887  5  01 00 00 87 C8 
    99)      9126.4  Rx     00010E64  7  01 00 00 0F 03 64 0E 
   100)      9126.6  Rx     00110E64  5  01 00 00 64 0E 
   101)      9131.4  Rx     0001D9B9  7  01 00 00 0F 03 B9 D9 
   102)      9131.5  Rx     0011D9B9  5  01 00 00 B9 D9 
   103)      9136.4  Rx     0001F942  7  01 00 00 0F 03 42 F9 
   104)      9136.5  Rx     0011F942  5  01 00 00 42 F9 
   105)      9141.4  Rx     0001C1D2  7  01 00 00 0F 03 D2 C1 
   106)      9141.5  Rx     0011C1D2  5  01 00 00 D2 C1 
   107)      9146.4  Rx     000170D2  7  01 00 00 0F 03 D2 70 
   108)      9146.5  Rx     001170D2  5  01 00 00 D2 70 
   109)      9151.4  Rx     0001D86A  7  01 00 00 0F 03 6A D8 
   110)      9151.5  Rx     0011D86A  5  01 00 00 6A D8 
   111)      9156.4  Rx     000136F0  7  01 00 00 0F 03 F0 36 
   112)      9156.5  Rx     001136F0  5  01 00 00 F0 36 
   113)      9161.4  Rx     000151D5  7  01 00 00 0F 03 D5 51 
   114)      9161.5  Rx     001151D5  5  01 00 00 D5 51 
   115)      9166.4  Rx     00016F3F  7  01 00 00 0F 03 3F 6F 
   116)      9166.5  Rx     00116F3F  5  01 00 00 3F 6F 
   117)      9171.4  Rx     00011563  7  01 00 00 0F 03 63 15 
   118)      9171.5  Rx     00111563  5  01 00 00 63 15 
   119)      9176.4  Rx     0001FF9F  7  01 00 00 0F 03 9F FF 
   120)      9176.6  Rx     0011FF9F  5  01 00 00 9F FF 
   121)      9181.4  Rx     000168A1  7  01 00 00 0F 03 A1 68 
   122)      9181.5  Rx     001168A1  5  01 00 00 A1 68 
   123)      9186.4  Rx     0001EBD0  7  01 00 00 0F 03 D0 EB 
   124)      9186.5  Rx     0011EBD0  5  01 00 00 D0 EB 
   125)      9191.4  Rx     0001838B  7  01 00 00 0F 03 8B 83 
   126)      9191.5  Rx     0011838B  5  01 00 00 8B 83 
   127)      9196.4  Rx     0001272C  7  01 00 00 0F 03 2C 27 
   128)      9196.5  Rx     0011272C  5  01 00 00 2C 27 
   129)      9201.4  Rx     0001DA46  7  01 00 00 0F 03 46 DA 
   130)      9201.5  Rx     0011DA46  5  01 00 00 46 DA 
   131)      9206.4  Rx     00018F5E  7  01 00 00 0F 03 5E 8F 
   132)      9206.5  Rx     00118F5E  5  01 00 00 5E 8F 
   133)      9211.4  Rx     0001F7E0  7  01 00 00 0F 03 E0 F7 
   134)      9211.5  Rx     0011F7E0  5  01 00 00 E0 F7 
   135)      9216.4  Rx     0001D488  7  01 00 00 0F 03 88 D4 
   136)      9216.5  Rx     0011D488  5  01 00 00 88 D4 
   137)      9221.4  Rx     00011E30  7  01 00 00 0F 03 30 1E 
   138)      9221.5  Rx     00111E30  5  01 00 00 30 1E 
   139)      9226.4  Rx     0001AF29  7  01 00 00 0F 03 29 AF 
   140)      9226.5  Rx     0011AF29  5  01 00 00 29 AF 
   141)      9231.4  Rx     00018DBB  7  01 00 00 0F 03 BB 8D 
   142)      9231.5  Rx     00118DBB  5  01 00 00 BB 8D 
   143)      9236.4  Rx     00011DCF  7  01 00 00 0F 03 CF 1D 
   144)      9236.5  Rx     00111DCF  5  01 00 00 CF 1D 
   145)      9241.4  Rx     00012D54  7  01 00 00 0F 03 54 2D 
   146)      9241.5  Rx     00112D54  5  01 00 00 54 2D 
   147)      9246.4  Rx     0001704F  7  01 00 00 0F 03 4F 70 
   148)      9246.5  Rx     0011704F  5  01 00 00 4F 70 
   149)      9251.4  Rx     0001DBD3  7  01 00 00 0F 03 D3 DB 
   150)      9251.5  Rx     0011DBD3  5  01 00 00 D3 DB 
   151)      9256.4  Rx     00017C1B  7  01 00 00 0F 03 1B 7C 
   152)      9256.5  Rx     00117C1B  5  01 00 00 1B 7C 
   153)      9261.4  Rx     00015F0F  7  01 00 00 0F 03 0F 5F 
   154)      9261.5  Rx     00115F0F  5  01 00 00 0F 5F 
   155)      9266.4  Rx     0001D4FA  7  01 00 00 0F 03 FA D4 
   156)      9266.5  Rx     0011D4FA  5  01 00 00 FA D4 
   157)      9271.4  Rx     00015203  7  01 00 00 0F 03 03 52 
   158)      9271.5  Rx     00115203  5  01 00 00 03 52 
   159)      9276.4  Rx     00017B19  7  01 00 00 0F 03 19 7B 
   160)      9276.5  Rx     00117B19  5  01 00 00 19 7B 
   161)      9281.4  Rx     000110C8  7  01 00 00 0F 03 C8 10 
   162)      9281.5  Rx     001110C8  5  01 00 00 C8 10 
   163)      9286.4  Rx     0001C75B  7  01 00 00 0F 03 5B C7 
   164)      9286.5  Rx     0011C75B  5  01 00 00 5B C7 
   165)      9291.4  Rx     00018FCA  7  01 00 00 0F 03 CA 8F 
   166)      9291.5  Rx     00118FCA  5  01 00 00 CA 8F 
   167)      9296.4  Rx     00012457  7  01 00 00 0F 03 57 24 
   168)      9296.5  Rx     00112457  5  01 00 00 57 24 
   169)      9301.4  Rx     0001A05B  7  01 00 00 0F 03 5B A0 
   170)      9301.5  Rx     0011A05B  5  01 00 00 5B A0 
   171)      9306.4  Rx     00012A59  7  01 00 00 0F 03 59 2A 
   172)      9306.5  Rx     00112A59  5  01 00 00 59 2A 
   173)      9311.4  Rx     00019796  7  01 00 00 0F 03 96 97 
   174)      9311.5  Rx     00119796  5  01 00 00 96 97 
   175)      9316.4  Rx     0001BE63  7  01 00 00 0F 03 63 BE 
   176)      9316.5  Rx     0011BE63  5  01 00 00 63 BE 
   177)      9321.4  Rx     00012935  7  01 00 00 0F 03 35 29 
   178)      9321.5  Rx     00112935  5  01 00 00 35 29 
   179)      9326.4  Rx     0001F008  7  01 00 00 0F 03 08 F0 
   180)      9326.5  Rx     0011F008  5  01 00 00 08 F0 
   181)      9331.4  Rx     000146BF  7  01 00 00 0F 03 BF 46 
   182)      9331.5  Rx     001146BF  5  01 00 00 BF 46 
   183)      9336.4  Rx     00012B94  7  01 00 00 0F 03 94 2B 
   184)      9336.5  Rx     00112B94  5  01 00 00 94 2B 
   185)      9341.4  Rx     0001503D  7  01 00 00 0F 03 3D 50 
   186)      9341.5  Rx     0011503D  5  01 00 00 3D 50 
   187)      9346.4  Rx     000125DB  7  01 00 00 0F 03 DB 25 
   188)      9346.5  Rx     001125DB  5  01 00 00 DB 25 
   189)      9351.4  Rx     00018A54  7  01 00 00 0F 03 54 8A 
   190)      9351.5  Rx     00118A54  5  01 00 00 54 8A 
   191)      9356.4  Rx     000198A5  7  01 00 00 0F 03 A5 98 
   192)      9356.5  Rx     001198A5  5  01 00 00 A5 98 
   193)      9361.4  Rx     00011E78  7  01 00 00 0F 03 78 1E 
   194)      9361.5  Rx     00111E78  5  01 00 00 78 1E 
   195)      9366.4  Rx     0001FE98  7  01 00 00 0F 03 98 FE 
   196)      9366.5  Rx     0011FE98  5  01 00 00 98 FE 
   197)      9371.4  Rx     0001B098  7  01 00 00 0F 03 98 B0 
   198)      9371.5  Rx     0011B098  5  01 00 00 98 B0 
   199)      9376.4  Rx     00011307  7  01 00 00 0F 03 07 13 
   200)      9376.5  Rx     00111307  5  01 00 00 07 13 
   201)      9381.4  Rx     0001C66B  7  01 00 00 0F 03 6B C6 
   202)      9381.5  Rx     0011C66B  5  01 00 00 6B C6 
   203)      9386.4  Rx     0001EE0E  7  01 00 00 0F 03 0E EE 
   204)      9386.5  Rx     0011EE0E  5  01 00 00 0E EE 
   205)      9391.4  Rx     0001CB4A  7  01 00 00 0F 03 4A CB 
   206)      9391.5  Rx     0011CB4A  5  01 00 00 4A CB 
   207)      9396.4  Rx     0001F6F2  7  01 00 00 0F 03 F2 F6 
   208)      9396.5  Rx     0011F6F2  5  01 00 00 F2 F6 
   209)      9401.4  Rx     0001783E  7  01 00 00 0F 03 3E 78 
   210)      9401.5  Rx     0011783E  5  01 00 00 3E 78 
   211)      9406.4  Rx     0001AE88  7  01 00 00 0F 03 88 AE 
   212)      9406.5  Rx     0011AE88  5  01 00 00 88 AE 
   213)      9411.4  Rx     0001EAA7  7  01 00 00 0F 03 A7 EA 
   214)      9411.5  Rx     0011EAA7  5  01 00 00 A7 EA 
   215)      9416.4  Rx     0001A13F  7  01 00 00 0F 03 3F A1 
   216)      9416.5  Rx     0011A13F  5  01 00 00 3F A1 
   217)      9421.4  Rx     000140A5  7  01 00 00 0F 03 A5 40 
   218)      9421.5  Rx     001140A5  5  01 00 00 A5 40 
   219)      9426.4  Rx     00015800  7  01 00 00 0F 03 00 58 
   220)      9426.5  Rx     00115800  5  01 00 00 00 58 
   221)      9431.4  Rx     00017130  7  01 00 00 0F 03 30 71 
   222)      9431.5  Rx     00117130  5  01 00 00 30 71 
   223)      9436.4  Rx     0001E8F7  7  01 00 00 0F 03 F7 E8 
   224)      9436.5  Rx     0011E8F7  5  01 00 00 F7 E8 
   225)      9441.4  Rx     0001BE7E  7  01 00 00 0F 03 7E BE 
   226)      9441.5  Rx     0011BE7E  5  01 00 00 7E BE 
   227)      9446.4  Rx     00017112  7  01 00 00 0F 03 12 71 
   228)      9446.5  Rx     00117112  5  01 00 00 12 71 
   229)      9451.4  Rx     0001742B  7  01 00 00 0F 03 2B 74 
   230)      9451.5  Rx     0011742B  5  01 00 00 2B 74 
   231)      9456.4  Rx     0001BCAA  7  01 00 00 0F 03 AA BC 
   232)      9456.5  Rx     0011BCAA  5  01 00 00 AA BC 
   233)      9461.4  Rx     0001FF39  7  01 00 00 0F 03 39 FF 
   234)      9461.6  Rx     0011FF39  5  01 00 00 39 FF 
   235)      9466.4  Rx     0001F5B6  7  01 00 00 0F 03 B6 F5 
   236)      9466.5  Rx     0011F5B6  5  01 00 00 B6 F5 
   237)      9471.4  Rx     0001FCEA  7  01 00 00 0F 03 EA FC 
   238)      9471.5  Rx     0011FCEA  5  01 00 00 EA FC 
   239)      9476.4  Rx     0001B380  7  01 00 00 0F 03 80 B3 
   240)      9476.5  Rx     0011B380  5  01 00 00 80 B3 
   241)      9481.4  Rx     000151FB  7  01 00 00 0F 03 FB 51 
   242)      9481.5  Rx     001151FB  5  01 00 00 FB 51 
   243)      9486.4  Rx     00016FAC  7  01 00 00 0F 03 AC 6F 
   244)      9486.5  Rx     00116FAC  5  01 00 00 AC 6F 
   245)      9491.4  Rx     000156CD  7  01 00 00 0F 03 CD 56 
   246)      9491.5  Rx     001156CD  5  01 00 00 CD 56 
   247)      9496.4  Rx     00018610  7  01 00 00 0F 03 10 86 
   248)      9496.5  Rx     00118610  5  01 00 00 10 86 
   249)      9501.4  Rx     00011D80  7  01 00 00 0F 03 80 1D 
   250)      9501.5  Rx     00111D80  5  01 00 00 80 1D 
   251)      9506.4  Rx     0001F8B5  7  01 00 00 0F 03 B5 F8 
   252)      9506.5  Rx     0011F8B5  5  01 00 00 B5 F8 
   253)      9511.4  Rx     00016207  7  01 00 00 0F 03 07 62 
   254)      9511.5  Rx     00116207  5  01 00 00 07 62 
   255)      9516.4  Rx     0001C6F3  7  01 00 00 0F 03 F3 C6 
   256)      9516.5  Rx     0011C6F3  5  01 00 00 F3 C6 
   257)      9521.4  Rx     000198C4  7  01 00 00 0F 03 C4 98 
   258)      9521.5  Rx     001198C4  5  01 00 00 C4 98 
   259)      9526.4  Rx     00016E87  7  01 00 00 0F 03 87 6E 
   260)      9526.5  Rx     00116E87  5  01 00 00 87 6E 
   261)      9531.4  Rx     0001F323  7  01 00 00 0F 03 23 F3 
   262)      9531.5  Rx     0011F323  5  01 00 00 23 F3 
   263)      9536.4  Rx     00014B17  7  01 00 00 0F 03 17 4B 
   264)      9536.5  Rx     00114B17  5  01 00 00 17 4B 
   265)      9541.4  Rx     0001BA5F  7  01 00 00 0F 03 5F BA 
   266)      9541.5  Rx     0011BA5F  5  01 00 00 5F BA 
   267)      9546.4  Rx     00014C7D  7  01 00 00 0F 03 7D 4C 
   268)      9546.5  Rx     00114C7D  5  01 00 00 7D 4C 
   269)      9551.4  Rx     00010745  7  01 00 00 0F 03 45 07 
   270)      9551.5  Rx     00110745  5  01 00 00 45 07 
   271)      9556.4  Rx     0001CDD3  7  01 00 00 0F 03 D3 CD 
   272)      9556.5  Rx     0011CDD3  5  01 00 00 D3 CD 
   273)      9561.4  Rx     0001E6B3  7  01 00 00 0F 03 B3 E6 
   274)      9561.5  Rx     0011E6B3  5  01 00 00 B3 E6 
   275)      9566.4  Rx     0001F710  7  01 00 00 0F 03 10 F7 
   276)      9566.5  Rx     0011F710  5  01 00 00 10 F7 
   277)      9571.4  Rx     00012531  7  01 00 00 0F 03 31 25 
   278)      9571.5  Rx     00112531  5  01 00 00 31 25 
   279)      9576.4  Rx     000180BE  7  01 00 00 0F 03 BE 80 
   280)      9576.5  Rx     001180BE  5  01 00 00 BE 80 
   281)      9581.4  Rx     0001D4C8  7  01 00 00 0F 03 C8 D4 
   282)      9581.5  Rx     0011D4C8  5  01 00 00 C8 D4 
   283)      9586.4  Rx     00018909  7  01 00 00 0F 03 09 89 
   284)      9586.5  Rx     00118909  5  01 00 00 09 89 
   285)      9591.4  Rx     0001B30B  7  01 00 00 0F 03 0B B3 
   286)      9591.5  Rx     0011B30B  5  01 00 00 0B B3 
   287)      9596.4  Rx     00019F3E  7  01 00 00 0F 03 3E 9F 
   288)      9596.5  Rx     00119F3E  5  01 00 00 3E 9F 
   289)      9601.4  Rx     00016DF1  7  01 00 00 0F 03 F1 6D 
   290)      9601.5  Rx     00116DF1  5  01 00 00 F1 6D 
   291)      9606.4  Rx     00013272  7  01 00 00 0F 03 72 32 
   292)      9606.5  Rx     00113272  5  01 00 00 72 32 
   293)      9611.4  Rx     000134E3  7  01 00 00 0F 03 E3 34 
   294)      9611.5  Rx     001134E3  5  01 00 00 E3 34 
   295)      9616.4  Rx     0001DDE2  7  01 00 00 0F 03 E2 DD 
   296)      9616.5  Rx     0011DDE2  5  01 00 00 E2 DD 
   297)      9621.4  Rx     00016C36  7  01 00 00 0F 03 36 6C 
   298)      9621.5  Rx     00116C36  5  01 00 00 36 6C 
   299)      9626.4  Rx     0001F950  7  01 00 00 0F 03 50 F9 
   300)      9626.5  Rx     0011F950  5  01 00 00 50 F9 
   301)      9631.4  Rx     0001B3EE  7  01 00 00 0F 03 EE B3 
   302)      9631.5  Rx     0011B3EE  5  01 00 00 EE B3 
   303)      9636.4  Rx     0001356F  7  01 00 00 0F 03 6F 35 
   304)      9636.5  Rx     0011356F  5  01 00 00 6F 35 
   305)      9641.4  Rx     00016770  7  01 00 00 0F 03 70 67 
   306)      9641.5  Rx     00116770  5  01 00 00 70 67 
   307)      9646.4  Rx     00010412  7  01 00 00 0F 03 12 04 
   308)      9646.5  Rx     00110412  5  01 00 00 12 04 
   309)      9651.4  Rx     0001E694  7  01 00 00 0F 03 94 E6 
   310)      9651.5  Rx     0011E694  5  01 00 00 94 E6 
   311)      9656.4  Rx     000139BB  7  01 00 00 0F 03 BB 39 
   312)      9656.5  Rx     001139BB  5  01 00 00 BB 39 
   313)      9661.4  Rx     00016533  7  01 00 00 0F 03 33 65 
   314)      9661.5  Rx     00116533  5  01 00 00 33 65 
   315)      9666.4  Rx     00018DC7  7  01 00 00 0F 03 C7 8D 
   316)      9666.5  Rx     00118DC7  5  01 00 00 C7 8D 
   317)      9671.4  Rx     0001B12D  7  01 00 00 0F 03 2D B1 
   318)      9671.5  Rx     0011B12D  5  01 00 00 2D B1 
   319)      9676.4  Rx     0001C83D  7  01 00 00 0F 03 3D C8 
   320)      9676.5  Rx     0011C83D  5  01 00 00 3D C8 
   321)      9681.4  Rx     0001EB70  7  01 00 00 0F 03 70 EB 
   322)      9681.5  Rx     0011EB70  5  01 00 00 70 EB 
   323)      9686.4  Rx     0001FC12  7  01 00 00 0F 03 12 FC 
   324)      9686.5  Rx     0011FC12  5  01 00 00 12 FC 
   325)      9691.4  Rx     00015B8A  7  01 00 00 0F 03 8A 5B 
   326)      9691.5  Rx     00115B8A  5  01 00 00 8A 5B 
   327)      9696.4  Rx     00019E60  7  01 00 00 0F 03 60 9E 
   328)      9696.5  Rx     00119E60  5  01 00 00 60 9E 
   329)      9701.4  Rx     000195D6  7  01 00 00 0F 03 D6 95 
   330)      9701.5  Rx     001195D6  5  01 00 00 D6 95 
   331)      9706.4  Rx     0001F6DD  7  01 00 00 0F 03 DD F6 
   332)      9706.5  Rx     0011F6DD  5  01 00 00 DD F6 
   333)      9711.4  Rx     0001DB35  7  01 00 00 0F 03 35 DB 
   334)      9711.5  Rx     0011DB35  5  01 00 00 35 DB 
   335)      9716.4  Rx     0001C79A  7  01 00 00 0F 03 9A C7 
   336)      9716.5  Rx     0011C79A  5  01 00 00 9A C7 
   337)      9721.4  Rx     000109FB  7  01 00 00 0F 03 FB 09 
   338)      9721.5  Rx     001109FB  5  01 00 00 FB 09 
   339)      9726.4  Rx     000161CF  7  01 00 00 0F 03 CF 61 
   340)      9726.5  Rx     001161CF  5  01 00 00 CF 61 
   341)      9731.4  Rx     00013277  7  01 00 00 0F 03 77 32 
   342)      9731.5  Rx     00113277  5  01 00 00 77 32 
   343)      9736.4  Rx     00014B3F  7  01 00 00 0F 03 3F 4B 
   344)      9736.5  Rx     00114B3F  5  01 00 00 3F 4B 
   345)      9741.4  Rx     0001BE3D  7  01 00 00 0F 03 3D BE 
   346)      9741.5  Rx     0011BE3D  5  01 00 00 3D BE 
   347)      9746.4  Rx     00018B7D  7  01 00 00 0F 03 7D 8B 
   348)      9746.5  Rx     00118B7D  5  01 00 00 7D 8B 
   349)      9751.4  Rx     0001B81D  7  01 00 00 0F 03 1D B8 
   350)      9751.5  Rx     0011B81D  5  01 00 00 1D B8 
   351)      9756.4  Rx     0001B615  7  01 00 00 0F 03 15 B6 
   352)      9756.5  Rx     0011B615  5  01 00 00 15 B6 
   353)      9761.4  Rx     0001C769  7  01 00 00 0F 03 69 C7 
   354)      9761.5  Rx     0011C769  5  01 00 00 69 C7 
   355)      9766.4  Rx     00011E63  7  01 00 00 0F 03 63 1E 
   356)      9766.5  Rx     00111E63  5  01 00 00 63 1E 
   357)      9771.4  Rx     000173FA  7  01 00 00 0F 03 FA 73 
   358)      9771.5  Rx     001173FA  5  01 00 00 FA 73 
   359)      9776.4  Rx     0001ABA6  7  01 00 00 0F 03 A6 AB 
   360)      9776.5  Rx     0011ABA6  5  01 00 00 A6 AB 
   361)      9781.4  Rx     00019D18  7  01 00 00 0F 03 18 9D 
   362)      9781.5  Rx     00119D18  5  01 00 00 18 9D 
   363)      9786.4  Rx     00014F90  7  01 00 00 0F 03 90 4F 
   364)      9786.5  Rx     00114F90  5  01 00 00 90 4F 
   365)      9791.4  Rx     0001502A  7  01 00 00 0F 03 2A 50 
   366)      9791.5  Rx     0011502A  5  01 00 00 2A 50 
   367)      9796.4  Rx     00016758  7  01 00 00 0F 03 58 67 
   368)      9796.5  Rx     00116758  5  01 00 00 58 67 
   369)      9801.4  Rx     000104DC  7  01 00 00 0F 03 DC 04 
   370)      9801.5  Rx     001104DC  5  01 00 00 DC 04 
   371)      9806.4  Rx     0001D323  7  01 00 00 0F 03 23 D3 
   372)      9806.5  Rx     0011D323  5  01 00 00 23 D3 
   373)      9811.4  Rx     0001971C  7  01 00 00 0F 03 1C 97 
   374)      9811.5  Rx     0011971C  5  01 00 00 1C 97 
   375)      9816.4  Rx     00015D3D  7  01 00 00 0F 03 3D 5D 
   376)      9816.5  Rx     00115D3D  5  01 00 00 3D 5D 
   377)      9821.4  Rx     0001D41E  7  01 00 00 0F 03 1E D4 
   378)      9821.5  Rx     0011D41E  5  01 00 00 1E D4 
   379)      9826.4  Rx     0001FE78  7  01 00 00 0F 03 78 FE 
   380)      9826.5  Rx     0011FE78  5  01 00 00 78 FE 
   381)      9831.4  Rx     0001164D  7  01 00 00 0F 03 4D 16 
   382)      9831.5  Rx     0011164D  5  01 00 00 4D 16 
   383)      9836.4  Rx     0001C6AB  7  01 00 00 0F 03 AB C6 
   384)      9836.5  Rx     0011C6AB  5  01 00 00 AB C6 
   385)      9841.4  Rx     0001B0C4  7  01 00 00 0F 03 C4 B0 
   386)      9841.5  Rx     0011B0C4  5  01 00 00 C4 B0 
   387)      9846.4  Rx     0001D021  7  01 00 00 0F 03 21 D0 
   388)      9846.5  Rx     0011D021  5  01 00 00 21 D0 
   389)      9851.4  Rx     00018DD3  7  01 00 00 0F 03 D3 8D 
   390)      9851.5  Rx     00118DD3  5  01 00 00 D3 8D 
   391)      9856.4  Rx     00012A8A  7  01 00 00 0F 03 8A 2A 
   392)      9856.5  Rx     00112A8A  5  01 00 00 8A 2A 
   393)      9861.4  Rx     0001F896  7  01 00 00 0F 03 96 F8 
   394)      9861.5  Rx     0011F896  5  01 00 00 96 F8 
   395)      9866.4  Rx     00010196  7  01 00 00 0F 03 96 01 
   396)      9866.5  Rx     00110196  5  01 00 00 96 01 
   397)      9871.4  Rx     0001E8A0  7  01 00 00 0F 03 A0 E8 
   398)      9871.5  Rx     0011E8A0  5  01 00 00 A0 E8 
   399)      9876.4  Rx     0001F96F  7  01 00 00 0F 03 6F F9 
   400)      9876.5  Rx     0011F96F  5  01 00 00 6F F9 
   401)      9881.4  Rx     00018F5D  7  01 00 00 0F 03 5D 8F 
   402)      9881.5  Rx     00118F5D  5  01 00 00 5D 8F 
   403)      9886.4  Rx     00011AAC  7  01 00 00 0F 03 AC 1A 
   404)      9886.5  Rx     00111AAC  5  01 00 00 AC 1A 
   405)      9891.4  Rx     0001AD83  7  01 00 00 0F 03 83 AD 
   406)      9891.5  Rx     0011AD83  5  01 00 00 83 AD 
   407)      9896.4  Rx     0001116B  7  01 00 00 0F 03 6B 11 
   408)      9896.5  Rx     0011116B  5  01 00 00 6B 11 
   409)      9901.4  Rx     00019BCF  7  01 00 00 0F 03 CF 9B 
   410)      9901.5  Rx     00119BCF  5  01 00 00 CF 9B 
   411)      9906.4  Rx     000176C5  7  01 00 00 0F 03 C5 76 
   412)      9906.5  Rx     001176C5  5  01 00 00 C5 76 
   413)      9911.4  Rx     000120ED  7  01 00 00 0F 03 ED 20 
   414)      9911.5  Rx     001120ED  5  01 00 00 ED 20 
   415)      9916.4  Rx     000159A3  7  01 00 00 0F 03 A3 59 
   416)      9916.5  Rx     001159A3  5  01 00 00 A3 59 
   417)      9921.4  Rx     0001632D  7  01 00 00 0F 03 2D 63 
   418)      9921.5  Rx     0011632D  5  01 00 00 2D 63 
   419)      9926.4  Rx     00015FCB  7  01 00 00 0F 03 CB 5F 
   420)      9926.5  Rx     00115FCB  5  01 00 00 CB 5F 
   421)      9931.4  Rx     0001C378  7  01 00 00 0F 03 78 C3 
   422)      9931.5  Rx     0011C378  5  01 00 00 78 C3 
   423)      9936.4  Rx     0001419F  7  01 00 00 0F 03 9F 41 
   424)      9936.5  Rx     0011419F  5  01 00 00 9F 41 
   425)      9941.4  Rx     000123A8  7  01 00 00 0F 03 A8 23 
   426)      9941.5  Rx     001123A8  5  01 00 00 A8 23 
   427)      9946.4  Rx     00011ADD  7  01 00 00 0F 03 DD 1A 
   428)      9946.5  Rx     00111ADD  5  01 00 00 DD 1A 
   429)      9951.4  Rx     00017927  7  01 00 00 0F 03 27 79 
   430)      9951.5  Rx     00117927  5  01 00 00 27 79 
   431)      9956.4  Rx     00016463  7  01 00 00 0F 03 63 64 
   432)      9956.5  Rx     00116463  5  01 00 00 63 64 
   433)      9961.4  Rx     0001D587  7  01 00 00 0F 03 87 D5 
   434)      9961.5  Rx     0011D587  5  01 00 00 87 D5 
   435)      9966.4  Rx     0001FAC6  7  01 00 00 0F 03 C6 FA 
   436)      9966.5  Rx     0011FAC6  5  01 00 00 C6 FA 
   437)      9971.4  Rx     0001056D  7  01 00 00 0F 03 6D 05 
   438)      9971.5  Rx     0011056D  5  01 00 00 6D 05 
   439)      9976.4  Rx     0001133E  7  01 00 00 0F 03 3E 13 
   440)      9976.5  Rx     0011133E  5  01 00 00 3E 13 
   441)      9981.4  Rx     00010309  7  01 00 00 0F 03 09 03 
   442)      9981.5  Rx     00110309  5  01 00 00 09 03 
   443)      9986.3  Rx     00016C31  7  01 00 00 0F 03 31 6C 
   444)      9986.5  Rx     00116C31  5  01 00 00 31 6C 
   445)      9991.4  Rx     00012FEF  7  01 00 00 0F 03 EF 2F 
   446)      9991.5  Rx     00112FEF  5  01 00 00 EF 2F 
   447)      9996.4  Rx     0001D464  7  01 00 00 0F 03 64 D4 
   448)      9996.5  Rx     0011D464  5  01 00 00 64 D4 
   449)     10001.4  Rx     00018F0A  7  01 00 00 0F 03 0A 8F 
   450)     10001.5  Rx     00118F0A  5  01 00 00 0A 8F 
   451)     10006.4  Rx     0001079D  7  01 00 00 0F 03 9D 07 
   452)     10006.5  Rx     0011079D  5  01 00 00 9D 07 
   453)     10011.3  Rx     00012608  7  01 00 00 0F 03 08 26 
   454)     10011.5  Rx     00112608  5  01 00 00 08 26 
   455)     10016.4  Rx     0001113D  7  01 00 00 0F 03 3D 11 
   456)     10016.5  Rx     0011113D  5  01 00 00 3D 11 
   457)     10021.4  Rx     00018A67  7  01 00 00 0F 03 67 8A 
   458)     10021.5  Rx     00118A67  5  01 00 00 67 8A 
   459)     10026.4  Rx     00019511  7  01 00 00 0F 03 11 95 
   460)     10026.5  Rx     00119511  5  01 00 00 11 95 
   461)     10031.4  Rx     0001D510  7  01 00 00 0F 03 10 D5 
   462)     10031.5  Rx     0011D510  5  01 00 00 10 D5 
   463)     10036.4  Rx     00018C7A  7  01 00 00 0F 03 7A 8C 
   464)     10036.5  Rx     00118C7A  5  01 00 00 7A 8C 
   465)     10041.4  Rx     00011022  7  01 00 00 0F 03 22 10 
   466)     10041.5  Rx     00111022  5  01 00 00 22 10 
   467)     10046.4  Rx     0001398F  7  01 00 00 0F 03 8F 39 
   468)     10046.5  Rx     0011398F  5  01 00 00 8F 39 
   469)     10051.4  Rx     0001355B  7  01 00 00 0F 03 5B 35 
   470)     10051.5  Rx     0011355B  5  01 00 00 5B 35 
   471)     10056.4  Rx     0001FFEB  7  01 00 00 0F 03 EB FF 
   472)     10056.5  Rx     0011FFEB  5  01 00 00 EB FF 
   473)     10061.4  Rx     00010444  7  01 00 00 0F 03 44 04 
   474)     10061.5  Rx     00110444  5  01 00 00 44 04 
   475)     10066.3  Rx     00016A49  7  01 00 00 0F 03 49 6A 
   476)     10066.5  Rx     00116A49  5  01 00 00 49 6A 
   477)     10071.4  Rx     00018E03  7  01 00 00 0F 03 03 8E 
   478)     10071.5  Rx     00118E03  5  01 00 00 03 8E 
   479)     10076.4  Rx     0001A212  7  01 00 00 0F 03 12 A2 
   480)     10076.5  Rx     0011A212  5  01 00 00 12 A2 
   481)     10081.4  Rx     0001E585  7  01 00 00 0F 03 85 E5 
   482)     10081.5  Rx     0011E585  5  01 00 00 85 E5 
   483)     10086.4  Rx     00010D95  7  01 00 00 0F 03 95 0D 
   484)     10086.5  Rx     00110D95  5  01 00 00 95 0D 
   485)     10091.3  Rx     0001C965  7  01 00 00 0F 03 65 C9 
   486)     10091.5  Rx     0011C965  5  01 00 00 65 C9 
   487)     10096.3  Rx     0001C776  7  01 00 00 0F 03 76 C7 
   488)     10096.5  Rx     0011C776  5  01 00 00 76 C7 
   489)     10101.4  Rx     0001A5AD  7  01 00 00 0F 03 AD A5 
   490)     10101.5  Rx     0011A5AD  5  01 00 00 AD A5 
   491)     10106.4  Rx     000179A0  7  01 00 00 0F 03 A0 79 
   492)     10106.5  Rx     001179A0  5  01 00 00 A0 79 
   493)     10111.4  Rx     0001D26C  7  01 00 00 0F 03 6C D2 
   494)     10111.5  Rx     0011D26C  5  01 00 00 6C D2 
   495)     10116.3  Rx     000157B8  7  01 00 00 0F 03 B8 57 
   496)     10116.5  Rx     001157B8  5  01 00 00 B8 57 
   497)     10121.3  Rx     000174B8  7  01 00 00 0F 03 B8 74 
   498)     10121.5  Rx     001174B8  5  01 00 00 B8 74 
   499)     10126.4  Rx     000198E4  7  01 00 00 0F 03 E4 98 
   500)     10126.5  Rx     001198E4  5  01 00 00 E4 98 
   501)     10131.4  Rx     0001D68F  7  01 00 00 0F 03 8F D6 
   502)     10131.5  Rx     0011D68F  5  01 00 00 8F D6 
   503)     10136.4  Rx     00017E66  7  01 00 00 0F 03 66 7E 
   504)     10136.5  Rx     00117E66  5  01 00 00 66 7E 
   505)     10141.4  Rx     000192BB  7  01 00 00 0F 03 BB 92 
   506)     10141.5  Rx     001192BB  5  01 00 00 BB 92 
   507)     10146.3  Rx     0001F459  7  01 00 00 0F 03 59 F4 
   508)     10146.5  Rx     0011F459  5  01 00 00 59 F4 
   509)     10151.3  Rx     0001949B  7  01 00 00 0F 03 9B 94 
   510)     10151.5  Rx     0011949B  5  01 00 00 9B 94 
   511)     10156.4  Rx     00011F92  7  01 00 00 0F 03 92 1F 
   512)     10156.5  Rx     00111F92  5  01 00 00 92 1F 
   513)     10161.4  Rx     00011C88  7  01 00 00 0F 03 88 1C 
   514)     10161.4  Rx     00111C88  5  01 00 00 88 1C 
   515)     10166.4  Rx     0001B76E  7  01 00 00 0F 03 6E B7 
   516)     10166.5  Rx     0011B76E  5  01 00 00 6E B7 
   517)     10171.3  Rx     0001C430  7  01 00 00 0F 03 30 C4 
   518)     10171.5  Rx     0011C430  5  01 00 00 30 C4 
   519)     10176.3  Rx     00017420  7  01 00 00 0F 03 20 74 
   520)     10176.5  Rx     00117420  5  01 00 00 20 74 
   521)     10181.3  Rx     0001E712  7  01 00 00 0F 03 12 E7 
   522)     10181.5  Rx     0011E712  5  01 00 00 12 E7 
   523)     10186.4  Rx     0001C9B6  7  01 00 00 0F 03 B6 C9 
   524)     10186.4  Rx     0011C9B6  5  01 00 00 B6 C9 
   525)     10191.4  Rx     0001420C  7  01 00 00 0F 03 0C 42 
   526)     10191.5  Rx     0011420C  5  01 00 00 0C 42 
   527)     10196.3  Rx     0001A1E2  7  01 00 00 0F 03 E2 A1 
   528)     10196.5  Rx     0011A1E2  5  01 00 00 E2 A1 
   529)     10201.3  Rx     00013191  7  01 00 00 0F 03 91 31 
   530)     10201.5  Rx     00113191  5  01 00 00 91 31 
   531)     10206.3  Rx     0001E261  7  01 00 00 0F 03 61 E2 
   532)     10206.5  Rx     0011E261  5  01 00 00 61 E2 
   533)     10211.4  Rx     00017109  7  01 00 00 0F 03 09 71 
   534)     10211.5  Rx     00117109  5  01 00 00 09 71 
   535)     10216.4  Rx     00012F65  7  01 00 00 0F 03 65 2F 
   536)     10216.4  Rx     00112F65  5  01 00 00 65 2F 
   537)     10221.4  Rx     0001A265  7  01 00 00 0F 03 65 A2 
   538)     10221.4  Rx     0011A265  5  01 00 00 65 A2 
   539)     10226.3  Rx     00018D70  7  01 00 00 0F 03 70 8D 
   540)     10226.5  Rx     00118D70  5  01 00 00 70 8D 
   541)     10231.3  Rx     00019FE7  7  01 00 00 0F 03 E7 9F 
   542)     10231.5  Rx     00119FE7  5  01 00 00 E7 9F 
   543)     10236.3  Rx     0001B388  7  01 00 00 0F 03 88 B3 
   544)     10236.5  Rx     0011B388  5  01 00 00 88 B3 
   545)     10241.4  Rx     0001EEBB  7  01 00 00 0F 03 BB EE 
   546)     10241.4  Rx     0011EEBB  5  01 00 00 BB EE 
   547)     10246.4  Rx     00014AA6  7  01 00 00 0F 03 A6 4A 
   548)     10246.4  Rx     00114AA6  5  01 00 00 A6 4A 
   549)     10251.3  Rx     00012BCA  7  01 00 00 0F 03 CA 2B 
   550)     10251.5  Rx     00112BCA  5  01 00 00 CA 2B 
   551)     10256.3  Rx     000150D1  7  01 00 00 0F 03 D1 50 
   552)     10256.5  Rx     001150D1  5  01 00 00 D1 50 
   553)     10261.3  Rx     0001BCF0  7  01 00 00 0F 03 F0 BC 
   554)     10261.5  Rx     0011BCF0  5  01 00 00 F0 BC 
   555)     10266.4  Rx     00018E40  7  01 00 00 0F 03 40 8E 
   556)     10266.4  Rx     00118E40  5  01 00 00 40 8E 
   557)     10271.4  Rx     0001F781  7  01 00 00 0F 03 81 F7 
   558)     10271.5  Rx     0011F781  5  01 00 00 81 F7 
   559)     10276.3  Rx     0001547E  7  01 00 00 0F 03 7E 54 
   560)     10276.5  Rx     0011547E  5  01 00 00 7E 54 
   561)     10281.3  Rx     00017DB8  7  01 00 00 0F 03 B8 7D 
   562)     10281.5  Rx     00117DB8  5  01 00 00 B8 7D 
   563)     10286.3  Rx     0001D764  7  01 00 00 0F 03 64 D7 
   564)     10286.5  Rx     0011D764  5  01 00 00 64 D7 
   565)     10291.3  Rx     0001A78B  7  01 00 00 0F 03 8B A7 
   566)     10291.5  Rx     0011A78B  5  01 00 00 8B A7 
   567)     10296.4  Rx     0001B95D  7  01 00 00 0F 03 5D B9 
   568)     10296.4  Rx     0011B95D  5  01 00 00 5D B9 
   569)     10301.3  Rx     000127FD  7  01 00 00 0F 03 FD 27 
   570)     10301.4  Rx     001127FD  5  01 00 00 FD 27 
   571)     10306.3  Rx     0001BC59  7  01 00 00 0F 03 59 BC 
   572)     10306.5  Rx     0011BC59  5  01 00 00 59 BC 
   573)     10311.3  Rx     0001F6D9  7  01 00 00 0F 03 D9 F6 
   574)     10311.5  Rx     0011F6D9  5  01 00 00 D9 F6 
   575)     10316.3  Rx     0001BE5B  7  01 00 00 0F 03 5B BE 
   576)     10316.5  Rx     0011BE5B  5  01 00 00 5B BE 
   577)     10321.4  Rx     00010787  7  01 00 00 0F 03 87 07 
   578)     10321.4  Rx     00110787  5  01 00 00 87 07 
   579)     10326.4  Rx     00010C7B  7  01 00 00 0F 03 7B 0C 
   580)     10326.4  Rx     00110C7B  5  01 00 00 7B 0C 
   581)     10331.3  Rx     00010C53  7  01 00 00 0F 03 53 0C 
   582)     10331.4  Rx     00110C53  5  01 00 00 53 0C 
   583)     10336.3  Rx     000174DD  7  01 00 00 0F 03 DD 74 
   584)     10336.5  Rx     001174DD  5  01 00 00 DD 74 
   585)     10341.3  Rx     0001AA5F  7  01 00 00 0F 03 5F AA 
   586)     10341.5  Rx     0011AA5F  5  01 00 00 5F AA 
   587)     10346.3  Rx     0001C7EB  7  01 00 00 0F 03 EB C7 
   588)     10346.4  Rx     0011C7EB  5  01 00 00 EB C7 
   589)     10351.3  Rx     0001C51C  7  01 00 00 0F 03 1C C5 
   590)     10351.4  Rx     0011C51C  5  01 00 00 1C C5 
   591)     10356.3  Rx     000152D1  7  01 00 00 0F 03 D1 52 
   592)     10356.4  Rx     001152D1  5  01 00 00 D1 52 
   593)     10361.3  Rx     00018CF4  7  01 00 00 0F 03 F4 8C 
   594)     10361.5  Rx     00118CF4  5  01 00 00 F4 8C 
   595)     10366.3  Rx     00013509  7  01 00 00 0F 03 09 35 
   596)     10366.5  Rx     00113509  5  01 00 00 09 35 
   597)     10371.3  Rx     0001FF95  7  01 00 00 0F 03 95 FF 
   598)     10371.4  Rx     0011FF95  5  01 00 00 95 FF 
   599)     10376.3  Rx     0001C082  7  01 00 00 0F 03 82 C0 
   600)     10376.4  Rx     0011C082  5  01 00 00 82 C0 
   601)     10381.3  Rx     000110FA  7  01 00 00 0F 03 FA 10 
   602)     10381.4  Rx     001110FA  5  01 00 00 FA 10 
   603)     10386.3  Rx     000103A2  7  01 00 00 0F 03 A2 03 
   604)     10386.5  Rx     001103A2  5  01 00 00 A2 03 
   605)     10391.3  Rx     0001F322  7  01 00 00 0F 03 22 F3 
   606)     10391.5  Rx     0011F322  5  01 00 00 22 F3 
   607)     10396.3  Rx     0001AA2F  7  01 00 00 0F 03 2F AA 
   608)     10396.5  Rx     0011AA2F  5  01 00 00 2F AA 
   609)     10401.3  Rx     00011B15  7  01 00 00 0F 03 15 1B 
   610)     10401.4  Rx     00111B15  5  01 00 00 15 1B 
   611)     10406.4  Rx     00013DE8  7  01 00 00 0F 03 E8 3D 
   612)     10406.4  Rx     00113DE8  5  01 00 00 E8 3D 
   613)     10411.3  Rx     000180AD  7  01 00 00 0F 03 AD 80 
   614)     10411.4  Rx     001180AD  5  01 00 00 AD 80 
   615)     10416.3  Rx     00010559  7  01 00 00 0F 03 59 05 
   616)     10416.5  Rx     00110559  5  01 00 00 59 05 
   617)     10421.3  Rx     00011339  7  01 00 00 0F 03 39 13 
   618)     10421.5  Rx     00111339  5  01 00 00 39 13 
   619)     10426.3  Rx     00017725  7  01 00 00 0F 03 25 77 
   620)     10426.4  Rx     00117725  5  01 00 00 25 77 
   621)     10431.3  Rx     000183EE  7  01 00 00 0F 03 EE 83 
   622)     10431.4  Rx     001183EE  5  01 00 00 EE 83 
   623)     10436.3  Rx     000181DF  7  01 00 00 0F 03 DF 81 
   624)     10436.4  Rx     001181DF  5  01 00 00 DF 81 
   625)     10441.3  Rx     000197CE  7  01 00 00 0F 03 CE 97 
   626)     10441.4  Rx     001197CE  5  01 00 00 CE 97 
   627)     10446.3  Rx     0001C42E  7  01 00 00 0F 03 2E C4 
   628)     10446.5  Rx     0011C42E  5  01 00 00 2E C4 
   629)     10451.3  Rx     00011168  7  01 00 00 0F 03 68 11 
   630)     10451.4  Rx     00111168  5  01 00 00 68 11 
   631)     10456.3  Rx     0001EACB  7  01 00 00 0F 03 CB EA 
   632)     10456.4  Rx     0011EACB  5  01 00 00 CB EA 
   633)     10461.3  Rx     00015B96  7  01 00 00 0F 03 96 5B 
   634)     10461.4  Rx     00115B96  5  01 00 00 96 5B 
   635)     10466.3  Rx     0001DD98  7  01 00 00 0F 03 98 DD 
   636)     10466.4  Rx     0011DD98  5  01 00 00 98 DD 
   637)     10471.3  Rx     0001E932  7  01 00 00 0F 03 32 E9 
   638)     10471.4  Rx     0011E932  5  01 00 00 32 E9 
   639)     10476.3  Rx     0001D2E8  7  01 00 00 0F 03 E8 D2 
   640)     10476.5  Rx     0011D2E8  5  01 00 00 E8 D2 
   641)     10481.3  Rx     0001E24E  7  01 00 00 0F 03 4E E2 
   642)     10481.4  Rx     0011E24E  5  01 00 00 4E E2 
   643)     10486.3  Rx     000123AC  7  01 00 00 0F 03 AC 23 
   644)     10486.4  Rx     001123AC  5  01 00 00 AC 23 
   645)     10491.3  Rx     00019E7A  7  01 00 00 0F 03 7A 9E 
   646)     10491.4  Rx     00119E7A  5  01 00 00 7A 9E 
   647)     10496.4  Rx     00012D1B  7  01 00 00 0F 03 1B 2D 
   648)     10496.4  Rx     00112D1B  5  01 00 00 1B 2D 
   649)     10501.4  Rx     00017416  7  01 00 00 0F 03 16 74 
   650)     10501.5  Rx     00117416  5  01 00 00 16 74 
   651)     10506.3  Rx     0001A41B  7  01 00 00 0F 03 1B A4 
   652)     10506.5  Rx     0011A41B  5  01 00 00 1B A4 
   653)     10511.3  Rx     000107C8  7  01 00 00 0F 03 C8 07 
   654)     10511.5  Rx     001107C8  5  01 00 00 C8 07 
   655)     10516.3  Rx     0001C06E  7  01 00 00 0F 03 6E C0 
   656)     10516.5  Rx     0011C06E  5  01 00 00 6E C0 
   657)     10521.4  Rx     0001CB91  7  01 00 00 0F 03 91 CB 
   658)     10521.4  Rx     0011CB91  5  01 00 00 91 CB 
   659)     10526.4  Rx     00014D70  7  01 00 00 0F 03 70 4D 
   660)     10526.4  Rx     00114D70  5  01 00 00 70 4D 
   661)     10531.3  Rx     00017805  7  01 00 00 0F 03 05 78 
   662)     10531.5  Rx     00117805  5  01 00 00 05 78 
   663)     10536.3  Rx     0001D7EB  7  01 00 00 0F 03 EB D7 
   664)     10536.5  Rx     0011D7EB  5  01 00 00 EB D7 
   665)     10541.3  Rx     0001F2CA  7  01 00 00 0F 03 CA F2 
   666)     10541.5  Rx     0011F2CA  5  01 00 00 CA F2 
   667)     10546.3  Rx     0001DC48  7  01 00 00 0F 03 48 DC 
   668)     10546.5  Rx     0011DC48  5  01 00 00 48 DC 
   669)     10551.4  Rx     0001283A  7  01 00 00 0F 03 3A 28 
   670)     10551.4  Rx     0011283A  5  01 00 00 3A 28 
   671)     10556.3  Rx     0001A62D  7  01 00 00 0F 03 2D A6 
   672)     10556.4  Rx     0011A62D  5  01 00 00 2D A6 
   673)     10561.3  Rx     00010EDC  7  01 00 00 0F 03 DC 0E 
   674)     10561.5  Rx     00110EDC  5  01 00 00 DC 0E 
   675)     10566.3  Rx     0001FE43  7  01 00 00 0F 03 43 FE 
   676)     10566.5  Rx     0011FE43  5  01 00 00 43 FE 
   677)     10571.3  Rx     00017218  7  01 00 00 0F 03 18 72 
   678)     10571.5  Rx     00117218  5  01 00 00 18 72 
   679)     10576.4  Rx     000108B6  7  01 00 00 0F 03 B6 08 
   680)     10576.4  Rx     001108B6  5  01 00 00 B6 08 
   681)     10581.4  Rx     00014250  7  01 00 00 0F 03 50 42 
   682)     10581.4  Rx     00114250  5  01 00 00 50 42 
   683)     10586.3  Rx     000156B8  7  01 00 00 0F 03 B8 56 
   684)     10586.5  Rx     001156B8  5  01 00 00 B8 56 
   685)     10591.3  Rx     00011F3B  7  01 00 00 0F 03 3B 1F 
   686)     10591.5  Rx     00111F3B  5  01 00 00 3B 1F 
   687)     10596.3  Rx     0001FF02  7  01 00 00 0F 03 02 FF 
   688)     10596.5  Rx     0011FF02  5  01 00 00 02 FF 
   689)     10601.3  Rx     00015E44  7  01 00 00 0F 03 44 5E 
   690)     10601.4  Rx     00115E44  5  01 00 00 44 5E 
   691)     10606.4  Rx     0001912B  7  01 00 00 0F 03 2B 91 
   692)     10606.4  Rx     0011912B  5  01 00 00 2B 91 
   693)     10611.3  Rx     0001C12E  7  01 00 00 0F 03 2E C1 
   694)     10611.5  Rx     0011C12E  5  01 00 00 2E C1 
   695)     10616.3  Rx     00012957  7  01 00 00 0F 03 57 29 
   696)     10616.5  Rx     00112957  5  01 00 00 57 29 
   697)     10621.3  Rx     0001CE4F  7  01 00 00 0F 03 4F CE 
   698)     10621.5  Rx     0011CE4F  5  01 00 00 4F CE 
   699)     10626.3  Rx     00017D7F  7  01 00 00 0F 03 7F 7D 
   700)     10626.4  Rx     00117D7F  5  01 00 00 7F 7D 
   701)     10631.3  Rx     00010E2C  7  01 00 00 0F 03 2C 0E 
   702)     10631.4  Rx     00110E2C  5  01 00 00 2C 0E 
   703)     10636.3  Rx     00017F62  7  01 00 00 0F 03 62 7F 
   704)     10636.4  Rx     00117F62  5  01 00 00 62 7F 
   705)     10641.3  Rx     00015727  7  01 00 00 0F 03 27 57 
   706)     10641.4  Rx     00115727  5  01 00 00 27 57 
   707)     10646.3  Rx     000115EA  7  01 00 00 0F 03 EA 15 
   708)     10646.5  Rx     001115EA  5  01 00 00 EA 15 
   709)     10651.3  Rx     000116AB  7  01 00 00 0F 03 AB 16 
   710)     10651.5  Rx     001116AB  5  01 00 00 AB 16 
   711)     10656.3  Rx     0001C281  7  01 00 00 0F 03 81 C2 
   712)     10656.4  Rx     0011C281  5  01 00 00 81 C2 
   713)     10661.4  Rx     0001EFFE  7  01 00 00 0F 03 FE EF 
   714)     10661.4  Rx     0011EFFE  5  01 00 00 FE EF 
   715)     10666.3  Rx     00018AAB  7  01 00 00 0F 03 AB 8A 
   716)     10666.4  Rx     00118AAB  5  01 00 00 AB 8A 
   717)     10671.3  Rx     0001A399  7  01 00 00 0F 03 99 A3 
   718)     10671.4  Rx     0011A399  5  01 00 00 99 A3 
   719)     10676.3  Rx     000113E0  7  01 00 00 0F 03 E0 13 
   720)     10676.5  Rx     001113E0  5  01 00 00 E0 13 
   721)     10681.3  Rx     000186B0  7  01 00 00 0F 03 B0 86 
   722)     10681.4  Rx     001186B0  5  01 00 00 B0 86 
   723)     10686.3  Rx     0001537D  7  01 00 00 0F 03 7D 53 
   724)     10686.4  Rx     0011537D  5  01 00 00 7D 53 
   725)     10691.3  Rx     00018163  7  01 00 00 0F 03 63 81 
   726)     10691.4  Rx     00118163  5  01 00 00 63 81 
   727)     10696.3  Rx     00018A46  7  01 00 00 0F 03 46 8A 
   728)     10696.4  Rx     00118A46  5  01 00 00 46 8A 
   729)     10701.3  Rx     0001E29E  7  01 00 00 0F 03 9E E2 
   730)     10701.5  Rx     0011E29E  5  01 00 00 9E E2 
   731)     10706.3  Rx     00014AC9  7  01 00 00 0F 03 C9 4A 
   732)     10706.4  Rx     00114AC9  5  01 00 00 C9 4A 
   733)     10711.3  Rx     0001E7B9  7  01 00 00 0F 03 B9 E7 
   734)     10711.4  Rx     0011E7B9  5  01 00 00 B9 E7 
   735)     10716.3  Rx     0001CBAB  7  01 00 00 0F 03 AB CB 
   736)     10716.4  Rx     0011CBAB  5  01 00 00 AB CB 
   737)     10721.3  Rx     00016A58  7  01 00 00 0F 03 58 6A 
   738)     10721.4  Rx     00116A58  5  01 00 00 58 6A 
   739)     10726.3  Rx     0001B29E  7  01 00 00 0F 03 9E B2 
   740)     10726.5  Rx     0011B29E  5  01 00 00 9E B2 
   741)     10731.3  Rx     00019A12  7  01 00 00 0F 03 12 9A 
   742)     10731.5  Rx     00119A12  5  01 00 00 12 9A 
   743)     10736.3  Rx     00017691  7  01 00 00 0F 03 91 76 
   744)     10736.4  Rx     00117691  5  01 00 00 91 76 
   745)     10741.3  Rx     0001EBFC  7  01 00 00 0F 03 FC EB 
   746)     10741.4  Rx     0011EBFC  5  01 00 00 FC EB 
   747)     10746.3  Rx     00014760  7  01 00 00 0F 03 60 47 
   748)     10746.4  Rx     00114760  5  01 00 00 60 47 
   749)     10751.3  Rx     000160F1  7  01 00 00 0F 03 F1 60 
   750)     10751.4  Rx     001160F1  5  01 00 00 F1 60 
   751)     10756.3  Rx     0001E70E  7  01 00 00 0F 03 0E E7 
   752)     10756.5  Rx     0011E70E  5  01 00 00 0E E7 
   753)     10761.3  Rx     00017060  7  01 00 00 0F 03 60 70 
   754)     10761.4  Rx     00117060  5  01 00 00 60 70 
   755)     10766.3  Rx     00015442  7  01 00 00 0F 03 42 54 
   756)     10766.4  Rx     00115442  5  01 00 00 42 54 
   757)     10771.3  Rx     000153E5  7  01 00 00 0F 03 E5 53 
   758)     10771.4  Rx     001153E5  5  01 00 00 E5 53 
   759)     10776.3  Rx     00019FAB  7  01 00 00 0F 03 AB 9F 
   760)     10776.4  Rx     00119FAB  5  01 00 00 AB 9F 
   761)     10781.3  Rx     000124F0  7  01 00 00 0F 03 F0 24 
   762)     10781.5  Rx     001124F0  5  01 00 00 F0 24 
   763)     10786.3  Rx     0001BD75  7  01 00 00 0F 03 75 BD 
   764)     10786.4  Rx     0011BD75  5  01 00 00 75 BD 
   765)     10791.3  Rx     00010451  7  01 00 00 0F 03 51 04 
   766)     10791.4  Rx     00110451  5  01 00 00 51 04 
   767)     10796.3  Rx     0001E1EF  7  01 00 00 0F 03 EF E1 
   768)     10796.4  Rx     0011E1EF  5  01 00 00 EF E1 
   769)     10801.3  Rx     0001FC58  7  01 00 00 0F 03 58 FC 
   770)     10801.4  Rx     0011FC58  5  01 00 00 58 FC 
   771)     10806.3  Rx     00010C1C  7  01 00 00 0F 03 1C 0C 
   772)     10806.4  Rx     00110C1C  5  01 00 00 1C 0C 
   773)     10811.3  Rx     000114F0  7  01 00 00 0F 03 F0 14 
   774)     10811.4  Rx     001114F0  5  01 00 00 F0 14 
   775)     10816.3  Rx     00014EB9  7  01 00 00 0F 03 B9 4E 
   776)     10816.4  Rx     00114EB9  5  01 00 00 B9 4E 
   777)     10821.3  Rx     0001ADE1  7  01 00 00 0F 03 E1 AD 
   778)     10821.4  Rx     0011ADE1  5  01 00 00 E1 AD 
   779)     10826.3  Rx     00019005  7  01 00 00 0F 03 05 90 
   780)     10826.4  Rx     00119005  5  01 00 00 05 90 
   781)     10831.3  Rx     00013A15  7  01 00 00 0F 03 15 3A 
   782)     10831.4  Rx     00113A15  5  01 00 00 15 3A 
   783)     10836.3  Rx     00016251  7  01 00 00 0F 03 51 62 
   784)     10836.4  Rx     00116251  5  01 00 00 51 62 
   785)     10841.3  Rx     00015B9B  7  01 00 00 0F 03 9B 5B 
   786)     10841.4  Rx     00115B9B  5  01 00 00 9B 5B 
   787)     10846.3  Rx     00015F18  7  01 00 00 0F 03 18 5F 
   788)     10846.4  Rx     00115F18  5  01 00 00 18 5F 
   789)     10851.3  Rx     0001BEB5  7  01 00 00 0F 03 B5 BE 
   790)     10851.4  Rx     0011BEB5  5  01 00 00 B5 BE 
   791)     10856.3  Rx     0001043C  7  01 00 00 0F 03 3C 04 
   792)     10856.4  Rx     0011043C  5  01 00 00 3C 04 
   793)     10861.3  Rx     0001873E  7  01 00 00 0F 03 3E 87 
   794)     10861.4  Rx     0011873E  5  01 00 00 3E 87 
   795)     10866.3  Rx     00015E8E  7  01 00 00 0F 03 8E 5E 
   796)     10866.4  Rx     00115E8E  5  01 00 00 8E 5E 
   797)     10871.3  Rx     0001C626  7  01 00 00 0F 03 26 C6 
   798)     10871.4  Rx     0011C626  5  01 00 00 26 C6 
   799)     10876.3  Rx     000132D2  7  01 00 00 0F 03 D2 32 
   800)     10876.4  Rx     001132D2  5  01 00 00 D2 32 
   801)     10881.3  Rx     0001C9D0  7  01 00 00 0F 03 D0 C9 
   802)     10881.4  Rx     0011C9D0  5  01 00 00 D0 C9 
   803)     10886.3  Rx     000171E1  7  01 00 00 0F 03 E1 71 
   804)     10886.4  Rx     001171E1  5  01 00 00 E1 71 
   805)     10891.3  Rx     00019AA4  7  01 00 00 0F 03 A4 9A 
   806)     10891.4  Rx     00119AA4  5  01 00 00 A4 9A 
   807)     10896.3  Rx     00016E90  7  01 00 00 0F 03 90 6E 
   808)     10896.4  Rx     00116E90  5  01 00 00 90 6E 
   809)     10901.3  Rx     0001AA06  7  01 00 00 0F 03 06 AA 
   810)     10901.4  Rx     0011AA06  5  01 00 00 06 AA 
   811)     10906.3  Rx     00016F86  7  01 00 00 0F 03 86 6F 
   812)     10906.4  Rx     00116F86  5  01 00 00 86 6F 
   813)     10911.3  Rx     0001F497  7  01 00 00 0F 03 97 F4 
   814)     10911.4  Rx     0011F497  5  01 00 00 97 F4 
   815)     10916.3  Rx     0001612D  7  01 00 00 0F 03 2D 61 
   816)     10916.4  Rx     0011612D  5  01 00 00 2D 61 
   817)     10921.3  Rx     0001756A  7  01 00 00 0F 03 6A 75 
   818)     10921.4  Rx     0011756A  5  01 00 00 6A 75 
   819)     10926.3  Rx     0001335C  7  01 00 00 0F 03 5C 33 
   820)     10926.4  Rx     0011335C  5  01 00 00 5C 33 
   821)     10931.3  Rx     00015E95  7  01 00 00 0F 03 95 5E 
   822)     10931.4  Rx     00115E95  5  01 00 00 95 5E 
   823)     10936.3  Rx     0001646D  7  01 00 00 0F 03 6D 64 
   824)     10936.4  Rx     0011646D  5  01 00 00 6D 64 
   825)     10941.3  Rx     0001FC41  7  01 00 00 0F 03 41 FC 
   826)     10941.4  Rx     0011FC41  5  01 00 00 41 FC 
   827)     10946.3  Rx     0001B6E2  7  01 00 00 0F 03 E2 B6 
   828)     10946.4  Rx     0011B6E2  5  01 00 00 E2 B6 
   829)     10951.3  Rx     00017628  7  01 00 00 0F 03 28 76 
   830)     10951.4  Rx     00117628  5  01 00 00 28 76 
   831)     10956.3  Rx     00011CB8  7  01 00 00 0F 03 B8 1C 
   832)     10956.4  Rx     00111CB8  5  01 00 00 B8 1C 
   833)     10961.3  Rx     00017C29  7  01 00 00 0F 03 29 7C 
   834)     10961.4  Rx     00117C29  5  01 00 00 29 7C 
   835)     10966.3  Rx     0001272B  7  01 00 00 0F 03 2B 27 
   836)     10966.4  Rx     0011272B  5  01 00 00 2B 27 
   837)     10971.3  Rx     00013950  7  01 00 00 0F 03 50 39 
   838)     10971.4  Rx     00113950  5  01 00 00 50 39 
   839)     10976.3  Rx     0001FB69  7  01 00 00 0F 03 69 FB 
   840)     10976.4  Rx     0011FB69  5  01 00 00 69 FB 
   841)     10981.3  Rx     00015584  7  01 00 00 0F 03 84 55 
   842)     10981.4  Rx     00115584  5  01 00 00 84 55 
   843)     10986.3  Rx     0001DC91  7  01 00 00 0F 03 91 DC 
   844)     10986.4  Rx     0011DC91  5  01 00 00 91 DC 
   845)     10991.3  Rx     000168C6  7  01 00 00 0F 03 C6 68 
   846)     10991.4  Rx     001168C6  5  01 00 00 C6 68 
   847)     10996.3  Rx     0001CCE7  7  01 00 00 0F 03 E7 CC 
   848)     10996.4  Rx     0011CCE7  5  01 00 00 E7 CC 
   849)     11001.3  Rx     0001F398  7  01 00 00 0F 03 98 F3 
   850)     11001.4  Rx     0011F398  5  01 00 00 98 F3 
   851)     11006.3  Rx     0001902A  7  01 00 00 0F 03 2A 90 
   852)     11006.4  Rx     0011902A  5  01 00 00 2A 90 
   853)     11011.3  Rx     0001C705  7  01 00 00 0F 03 05 C7 
   854)     11011.4  Rx     0011C705  5  01 00 00 05 C7 
   855)     11016.3  Rx     00016275  7  01 00 00 0F 03 75 62 
   856)     11016.4  Rx     00116275  5  01 00 00 75 62 
   857)     11021.3  Rx     00017F71  7  01 00 00 0F 03 71 7F 
   858)     11021.4  Rx     00117F71  5  01 00 00 71 7F 
   859)     11026.3  Rx     000142FE  7  01 00 00 0F 03 FE 42 
   860)     11026.4  Rx     001142FE  5  01 00 00 FE 42 
   861)     11031.3  Rx     00016809  7  01 00 00 0F 03 09 68 
   862)     11031.4  Rx     00116809  5  01 00 00 09 68 
   863)     11036.3  Rx     000107C8  7  01 00 00 0F 03 C8 07 
   864)     11036.4  Rx     001107C8  5  01 00 00 C8 07 
   865)     11041.3  Rx     0001CD8D  7  01 00 00 0F 03 8D CD 
   866)     11041.4  Rx     0011CD8D  5  01 00 00 8D CD 
   867)     11046.3  Rx     000166F5  7  01 00 00 0F 03 F5 66 
   868)     11046.4  Rx     001166F5  5  01 00 00 F5 66 
   869)     11051.3  Rx     00010DD4  7  01 00 00 0F 03 D4 0D 
   870)     11051.4  Rx     00110DD4  5  01 00 00 D4 0D 
   871)     11056.3  Rx     0001105C  7  01 00 00 0F 03 5C 10 
   872)     11056.4  Rx     0011105C  5  01 00 00 5C 10 
   873)     11061.3  Rx     00012635  7  01 00 00 0F 03 35 26 
   874)     11061.4  Rx     00112635  5  01 00 00 35 26 
   875)     11066.3  Rx     0001E992  7  01 00 00 0F 03 92 E9 
   876)     11066.4  Rx     0011E992  5  01 00 00 92 E9 
   877)     11071.3  Rx     000171B5  7  01 00 00 0F 03 B5 71 
   878)     11071.4  Rx     001171B5  5  01 00 00 B5 71 
   879)     11076.3  Rx     00018885  7  01 00 00 0F 03 85 88 
   880)     11076.4  Rx     00118885  5  01 00 00 85 88 
   881)     11081.3  Rx     000104AC  7  01 00 00 0F 03 AC 04 
   882)     11081.4  Rx     001104AC  5  01 00 00 AC 04 
   883)     11086.3  Rx     00014460  7  01 00 00 0F 03 60 44 
   884)     11086.4  Rx     00114460  5  01 00 00 60 44 
   885)     11091.3  Rx     00018E47  7  01 00 00 0F 03 47 8E 
   886)     11091.4  Rx     00118E47  5  01 00 00 47 8E 
   887)     11096.3  Rx     00019E47  7  01 00 00 0F 03 47 9E 
   888)     11096.4  Rx     00119E47  5  01 00 00 47 9E 
   889)     11101.3  Rx     0001F909  7  01 00 00 0F 03 09 F9 
   890)     11101.4  Rx     0011F909  5  01 00 00 09 F9 
   891)     11106.3  Rx     00018B2F  7  01 00 00 0F 03 2F 8B 
   892)     11106.4  Rx     00118B2F  5  01 00 00 2F 8B 
   893)     11111.3  Rx     0001F639  7  01 00 00 0F 03 39 F6 
   894)     11111.4  Rx     0011F639  5  01 00 00 39 F6 
   895)     11116.3  Rx     00014DE5  7  01 00 00 0F 03 E5 4D 
   896)     11116.4  Rx     00114DE5  5  01 00 00 E5 4D 
   897)     11121.3  Rx     000170E3  7  01 00 00 0F 03 E3 70 
   898)     11121.4  Rx     001170E3  5  01 00 00 E3 70 
   899)     11126.3  Rx     00017FFE  7  01 00 00 0F 03 FE 7F 
   900)     11126.4  Rx     00117FFE  5  01 00 00 FE 7F 
   901)     11131.3  Rx     00012BD3  7  01 00 00 0F 03 D3 2B 
   902)     11131.4  Rx     00112BD3  5  01 00 00 D3 2B 
   903)     11136.3  Rx     0001DA3B  7  01 00 00 0F 03 3B DA 
   904)     11136.4  Rx     0011DA3B  5  01 00 00 3B DA 
   905)     11141.3  Rx     00018AB2  7  01 00 00 0F 03 B2 8A 
   906)     11141.4  Rx     00118AB2  5  01 00 00 B2 8A 
   907)     11146.3  Rx     000190B6  7  01 00 00 0F 03 B6 90 
   908)     11146.4  Rx     001190B6  5  01 00 00 B6 90 
   909)     11151.3  Rx     0001D933  7  01 00 00 0F 03 33 D9 
   910)     11151.4  Rx     0011D933  5  01 00 00 33 D9 
   911)     11156.3  Rx     000174CB  7  01 00 00 0F 03 CB 74 
   912)     11156.4  Rx     001174CB  5  01 00 00 CB 74 
   913)     11161.3  Rx     0001E3EF  7  01 00 00 0F 03 EF E3 
   914)     11161.4  Rx     0011E3EF  5  01 00 00 EF E3 
   915)     11166.3  Rx     00010E9B  7  01 00 00 0F 03 9B 0E 
   916)     11166.4  Rx     00110E9B  5  01 00 00 9B 0E 
   917)     11171.3  Rx     0001415A  7  01 00 00 0F 03 5A 41 
   918)     11171.4  Rx     0011415A  5  01 00 00 5A 41 
   919)     11176.3  Rx     0001C199  7  01 00 00 0F 03 99 C1 
   920)     11176.4  Rx     0011C199  5  01 00 00 99 C1 
   921)     11181.3  Rx     00016601  7  01 00 00 0F 03 01 66 
   922)     11181.4  Rx     00116601  5  01 00 00 01 66 
   923)     11186.3  Rx     00011382  7  01 00 00 0F 03 82 13 
   924)     11186.4  Rx     00111382  5  01 00 00 82 13 
   925)     11191.3  Rx     000171EA  7  01 00 00 0F 03 EA 71 
   926)     11191.4  Rx     001171EA  5  01 00 00 EA 71 
   927)     11196.3  Rx     00015EB6  7  01 00 00 0F 03 B6 5E 
   928)     11196.4  Rx     00115EB6  5  01 00 00 B6 5E 
   929)     11201.3  Rx     000119D6  7  01 00 00 0F 03 D6 19 
   930)     11201.4  Rx     001119D6  5  01 00 00 D6 19 
   931)     11206.3  Rx     0001A8C1  7  01 00 00 0F 03 C1 A8 
   932)     11206.4  Rx     0011A8C1  5  01 00 00 C1 A8 
   933)     11211.3  Rx     00019DAC  7  01 00 00 0F 03 AC 9D 
   934)     11211.4  Rx     00119DAC  5  01 00 00 AC 9D 
   935)     11216.3  Rx     00017F9C  7  01 00 00 0F 03 9C 7F 
   936)     11216.4  Rx     00117F9C  5  01 00 00 9C 7F 
   937)     11221.3  Rx     0001FA53  7  01 00 00 0F 03 53 FA 
   938)     11221.4  Rx     0011FA53  5  01 00 00 53 FA 
   939)     11226.3  Rx     0001DBEA  7  01 00 00 0F 03 EA DB 
   940)     11226.4  Rx     0011DBEA  5  01 00 00 EA DB 
   941)     11231.3  Rx     00017BD3  7  01 00 00 0F 03 D3 7B 
   942)     11231.4  Rx     00117BD3  5  01 00 00 D3 7B 
   943)     11236.3  Rx     00017C3F  7  01 00 00 0F 03 3F 7C 
   944)     11236.4  Rx     00117C3F  5  01 00 00 3F 7C 
   945)     11241.3  Rx     0001C16C  7  01 00 00 0F 03 6C C1 
   946)     11241.4  Rx     0011C16C  5  01 00 00 6C C1 
   947)     11246.3  Rx     0001B137  7  01 00 00 0F 03 37 B1 
   948)     11246.4  Rx     0011B137  5  01 00 00 37 B1 
   949)     11251.3  Rx     00017801  7  01 00 00 0F 03 01 78 
   950)     11251.4  Rx     00117801  5  01 00 00 01 78 
   951)     11256.3  Rx     00016FDF  7  01 00 00 0F 03 DF 6F 
   952)     11256.4  Rx     00116FDF  5  01 00 00 DF 6F 
   953)     11261.3  Rx     0001B411  7  01 00 00 0F 03 11 B4 
   954)     11261.4  Rx     0011B411  5  01 00 00 11 B4 
   955)     11266.3  Rx     00015FC3  7  01 00 00 0F 03 C3 5F 
   956)     11266.4  Rx     00115FC3  5  01 00 00 C3 5F 
   957)     11271.3  Rx     00012B0D  7  01 00 00 0F 03 0D 2B 
   958)     11271.4  Rx     00112B0D  5  01 00 00 0D 2B 
   959)     11276.3  Rx     0001979E  7  01 00 00 0F 03 9E 97 
   960)     11276.4  Rx     0011979E  5  01 00 00 9E 97 
   961)     11281.3  Rx     000178CE  7  01 00 00 0F 03 CE 78 
   962)     11281.4  Rx     001178CE  5  01 00 00 CE 78 
   963)     11286.3  Rx     0001377D  7  01 00 00 0F 03 7D 37 
   964)     11286.4  Rx     0011377D  5  01 00 00 7D 37 
   965)     11291.3  Rx     00018081  7  01 00 00 0F 03 81 80 
   966)     11291.4  Rx     00118081  5  01 00 00 81 80 
   967)     11296.3  Rx     000118D5  7  01 00 00 0F 03 D5 18 
   968)     11296.4  Rx     001118D5  5  01 00 00 D5 18 
   969)     11301.3  Rx     0001E931  7  01 00 00 0F 03 31 E9 
   970)     11301.4  Rx     0011E931  5  01 00 00 31 E9 
   971)     11306.2  Rx     0001C8DC  7  01 00 00 0F 03 DC C8 
   972)     11306.4  Rx     0011C8DC  5  01 00 00 DC C8 
   973)     11311.3  Rx     000124E4  7  01 00 00 0F 03 E4 24 
   974)     11311.4  Rx     001124E4  5  01 00 00 E4 24 
   975)     11316.3  Rx     00018326  7  01 00 00 0F 03 26 83 
   976)     11316.4  Rx     00118326  5  01 00 00 26 83 
   977)     11321.3  Rx     0001D1EA  7  01 00 00 0F 03 EA D1 
   978)     11321.4  Rx     0011D1EA  5  01 00 00 EA D1 
   979)     11326.3  Rx     0001F652  7  01 00 00 0F 03 52 F6 
   980)     11326.4  Rx     0011F652  5  01 00 00 52 F6 
   981)     11331.2  Rx     0001C8BD  7  01 00 00 0F 03 BD C8 
   982)     11331.4  Rx     0011C8BD  5  01 00 00 BD C8 
   983)     11336.3  Rx     0001424F  7  01 00 00 0F 03 4F 42 
   984)     11336.4  Rx     0011424F  5  01 00 00 4F 42 
   985)     11341.3  Rx     0001DDB3  7  01 00 00 0F 03 B3 DD 
   986)     11341.4  Rx     0011DDB3  5  01 00 00 B3 DD 
   987)     11346.3  Rx     0001F381  7  01 00 00 0F 03 81 F3 
   988)     11346.4  Rx     0011F381  5  01 00 00 81 F3 
   989)     11351.3  Rx     00017852  7  01 00 00 0F 03 52 78 
   990)     11351.4  Rx     00117852  5  01 00 00 52 78 
   991)     11356.3  Rx     00015BC4  7  01 00 00 0F 03 C4 5B 
   992)     11356.4  Rx     00115BC4  5  01 00 00 C4 5B 
   993)     11361.2  Rx     00014AF5  7  01 00 00 0F 03 F5 4A 
   994)     11361.4  Rx     00114AF5  5  01 00 00 F5 4A 
   995)     11366.3  Rx     0001622E  7  01 00 00 0F 03 2E 62 
   996)     11366.4  Rx     0011622E  5  01 00 00 2E 62 
   997)     11371.3  Rx     0001E433  7  01 00 00 0F 03 33 E4 
   998)     11371.4  Rx     0011E433  5  01 00 00 33 E4 
   999)     11376.3  Rx     0001D7FA  7  01 00 00 0F 03 FA D7 
  1000)     11376.4  Rx     0011D7FA  5  01 00 00 FA D7 
  1001)     11381.3  Rx     0001C825  7  01 00 00 0F 03 25 C8 
  1002)     11381.4  Rx     0011C825  5  01 00 00 25 C8 
  1003)     11386.2  Rx     000160F8  7  01 00 00 0F 03 F8 60 
  1004)     11386.4  Rx     001160F8  5  01 00 00 F8 60 
  1005)     11391.2  Rx     0001AE79  7  01 00 00 0F 03 79 AE 
  1006)     11391.4  Rx     0011AE79  5  01 00 00 79 AE 
  1007)     11396.3  Rx     00016784  7  01 00 00 0F 03 84 67 
  1008)     11396.4  Rx     00116784  5  01 00 00 84 67 
  1009)     11401.3  Rx     00014EF2  7  01 00 00 0F 03 F2 4E 
  1010)     11401.4  Rx     00114EF2  5  01 00 00 F2 4E 
  1011)     11406.3  Rx     00019BC8  7  01 00 00 0F 03 C8 9B 
  1012)     11406.4  Rx     00119BC8  5  01 00 00 C8 9B 
  1013)     11411.2  Rx     0001C4CD  7  01 00 00 0F 03 CD C4 
  1014)     11411.4  Rx     0011C4CD  5  01 00 00 CD C4 
  1015)     11416.2  Rx     0001EBDE  7  01 00 00 0F 03 DE EB 
  1016)     11416.4  Rx     0011EBDE  5  01 00 00 DE EB 
  1017)     11421.3  Rx     0001D221  7  01 00 00 0F 03 21 D2 
  1018)     11421.4  Rx     0011D221  5  01 00 00 21 D2 
  1019)     11426.3  Rx     00014E07  7  01 00 00 0F 03 07 4E 
  1020)     11426.4  Rx     00114E07  5  01 00 00 07 4E 
  1021)     11431.3  Rx     0001B32A  7  01 00 00 0F 03 2A B3 
  1022)     11431.4  Rx     0011B32A  5  01 00 00 2A B3 
  1023)     11436.3  Rx     0001100B  7  01 00 00 0F 03 0B 10 
  1024)     11436.4  Rx     0011100B  5  01 00 00 0B 10 
  1025)     11441.2  Rx     00013A32  7  01 00 00 0F 03 32 3A 
  1026)     11441.4  Rx     00113A32  5  01 00 00 32 3A 
  1027)     11446.2  Rx     00016E91  7  01 00 00 0F 03 91 6E 
  1028)     11446.4  Rx     00116E91  5  01 00 00 91 6E 
  1029)     11451.3  Rx     0001DF62  7  01 00 00 0F 03 62 DF 
  1030)     11451.4  Rx     0011DF62  5  01 00 00 62 DF 
  1031)     11456.3  Rx     0001D0E1  7  01 00 00 0F 03 E1 D0 
  1032)     11456.3  Rx     0011D0E1  5  01 00 00 E1 D0 
  1033)     11461.3  Rx     000110CA  7  01 00 00 0F 03 CA 10 
  1034)     11461.4  Rx     001110CA  5  01 00 00 CA 10 
  1035)     11466.2  Rx     0001A56C  7  01 00 00 0F 03 6C A5 
  1036)     11466.4  Rx     0011A56C  5  01 00 00 6C A5 
  1037)     11471.2  Rx     0001E962  7  01 00 00 0F 03 62 E9 
  1038)     11471.4  Rx     0011E962  5  01 00 00 62 E9 
  1039)     11476.3  Rx     0001091E  7  01 00 00 0F 03 1E 09 
  1040)     11476.4  Rx     0011091E  5  01 00 00 1E 09 
  1041)     11481.3  Rx     000162CF  7  01 00 00 0F 03 CF 62 
  1042)     11481.3  Rx     001162CF  5  01 00 00 CF 62 
  1043)     11486.3  Rx     00016337  7  01 00 00 0F 03 37 63 
  1044)     11486.3  Rx     00116337  5  01 00 00 37 63 
  1045)     11491.2  Rx     00010434  7  01 00 00 0F 03 34 04 
  1046)     11491.4  Rx     00110434  5  01 00 00 34 04 
  1047)     11496.2  Rx     00010941  7  01 00 00 0F 03 41 09 
  1048)     11496.4  Rx     00110941  5  01 00 00 41 09 
  1049)     11501.2  Rx     00018952  7  01 00 00 0F 03 52 89 
  1050)     11501.4  Rx     00118952  5  01 00 00 52 89 
  1051)     11506.3  Rx     0001FA63  7  01 00 00 0F 03 63 FA 
  1052)     11506.4  Rx     0011FA63  5  01 00 00 63 FA 
  1053)     11511.3  Rx     00012BC8  7  01 00 00 0F 03 C8 2B 
  1054)     11511.3  Rx     00112BC8  5  01 00 00 C8 2B 
  1055)     11516.2  Rx     0001231A  7  01 00 00 0F 03 1A 23 
  1056)     11516.4  Rx     0011231A  5  01 00 00 1A 23 
  1057)     11521.2  Rx     00010130  7  01 00 00 0F 03 30 01 
  1058)     11521.4  Rx     00110130  5  01 00 00 30 01 
  1059)     11526.2  Rx     0001A623  7  01 00 00 0F 03 23 A6 
  1060)     11526.4  Rx     0011A623  5  01 00 00 23 A6 
  1061)     11531.3  Rx     00018371  7  01 00 00 0F 03 71 83 
  1062)     11531.4  Rx     00118371  5  01 00 00 71 83 
  1063)     11536.3  Rx     0001351D  7  01 00 00 0F 03 1D 35 
  1064)     11536.3  Rx     0011351D  5  01 00 00 1D 35 
  1065)     11541.3  Rx     00013176  7  01 00 00 0F 03 76 31 
  1066)     11541.3  Rx     00113176  5  01 00 00 76 31 
  1067)     11546.2  Rx     00019B24  7  01 00 00 0F 03 24 9B 
  1068)     11546.3  Rx     00119B24  5  01 00 00 24 9B 
  1069)     11551.2  Rx     0001AD30  7  01 00 00 0F 03 30 AD 
  1070)     11551.3  Rx     0011AD30  5  01 00 00 30 AD 
  1071)     11556.2  Rx     0001597A  7  01 00 00 0F 03 7A 59 
  1072)     11556.3  Rx     0011597A  5  01 00 00 7A 59 
  1073)     11561.2  Rx     00014488  7  01 00 00 0F 03 88 44 
  1074)     11561.3  Rx     00114488  5  01 00 00 88 44 
  1075)     11566.2  Rx     000119FC  7  01 00 00 0F 03 FC 19 
  1076)     11566.3  Rx     001119FC  5  01 00 00 FC 19 
  1077)     11571.2  Rx     000115B2  7  01 00 00 0F 03 B2 15 
  1078)     11571.3  Rx     001115B2  5  01 00 00 B2 15 
  1079)     11576.2  Rx     00013CED  7  01 00 00 0F 03 ED 3C 
  1080)     11576.3  Rx     00113CED  5  01 00 00 ED 3C 
  1081)     11581.2  Rx     0001F000  7  01 00 00 0F 03 00 F0 
  1082)     11581.3  Rx     0011F000  5  01 00 00 00 F0 
  1083)     11586.2  Rx     00017B62  7  01 00 00 0F 04 62 7B 
  1084)     11586.3  Rx     00117B62  5  01 00 00 62 7B 
  1085)     11591.2  Rx     0001311A  7  01 00 00 0F 03 1A 31 
  1086)     11591.3  Rx     0011311A  5  01 00 00 1A 31 
  1087)     11596.2  Rx     0001E554  7  01 00 00 0F 03 54 E5 
  1088)     11596.3  Rx     0011E554  5  01 00 00 54 E5 
  1089)     11601.2  Rx     00015356  7  01 00 00 0F 03 56 53 
  1090)     11601.3  Rx     00115356  5  01 00 00 56 53 
  1091)     11606.2  Rx     00014A22  7  01 00 00 0F 03 22 4A 
  1092)     11606.3  Rx     00114A22  5  01 00 00 22 4A 
  1093)     11611.2  Rx     0001E47F  7  01 00 00 0F 03 7F E4 
  1094)     11611.3  Rx     0011E47F  5  01 00 00 7F E4 
  1095)     11616.2  Rx     00012405  7  01 00 00 0F 03 05 24 
  1096)     11616.3  Rx     00112405  5  01 00 00 05 24 
  1097)     11621.2  Rx     0001A144  7  01 00 00 0F 03 44 A1 
  1098)     11621.3  Rx     0011A144  5  01 00 00 44 A1 
  1099)     11626.2  Rx     000146CD  7  01 00 00 0F 03 CD 46 
  1100)     11626.3  Rx     001146CD  5  01 00 00 CD 46 
  1101)     11631.2  Rx     0001CC34  7  01 00 00 0F 03 34 CC 
  1102)     11631.3  Rx     0011CC34  5  01 00 00 34 CC 
  1103)     11636.2  Rx     000133DC  7  01 00 00 0F 03 DC 33 
  1104)     11636.3  Rx     001133DC  5  01 00 00 DC 33 
  1105)     11641.2  Rx     00012FE7  7  01 00 00 0F 03 E7 2F 
  1106)     11641.3  Rx     00112FE7  5  01 00 00 E7 2F 
  1107)     11646.2  Rx     00017933  7  01 00 00 0F 03 33 79 
  1108)     11646.3  Rx     00117933  5  01 00 00 33 79 
  1109)     11651.2  Rx     00018EC9  7  01 00 00 0F 03 C9 8E 
  1110)     11651.3  Rx     00118EC9  5  01 00 00 C9 8E 
  1111)     11656.2  Rx     00013316  7  01 00 00 0F 03 16 33 
  1112)     11656.3  Rx     00113316  5  01 00 00 16 33 
  1113)     11661.2  Rx     000107A4  7  01 00 00 0F 03 A4 07 
  1114)     11661.3  Rx     001107A4  5  01 00 00 A4 07 
  1115)     11666.2  Rx     00015391  7  01 00 00 0F 03 91 53 
  1116)     11666.3  Rx     00115391  5  01 00 00 91 53 
  1117)     11671.2  Rx     000118D4  7  01 00 00 0F 03 D4 18 
  1118)     11671.3  Rx     001118D4  5  01 00 00 D4 18 
  1119)     11676.2  Rx     0001CCE0  7  01 00 00 0F 03 E0 CC 
  1120)     11676.3  Rx     0011CCE0  5  01 00 00 E0 CC 
  1121)     11681.2  Rx     0001DCCF  7  01 00 00 0F 03 CF DC 
  1122)     11681.3  Rx     0011DCCF  5  01 00 00 CF DC 
  1123)     11686.2  Rx     00019F89  7  01 00 00 0F 03 89 9F 
  1124)     11686.3  Rx     00119F89  5  01 00 00 89 9F 
  1125)     11691.2  Rx     0001196E  7  01 00 00 0F 03 6E 19 
  1126)     11691.3  Rx     0011196E  5  01 00 00 6E 19 
  1127)     11696.2  Rx     0001C6AD  7  01 00 00 0F 03 AD C6 
  1128)     11696.3  Rx     0011C6AD  5  01 00 00 AD C6 
  1129)     11701.2  Rx     0001D40C  7  01 00 00 0F 03 0C D4 
  1130)     11701.3  Rx     0011D40C  5  01 00 00 0C D4 
  1131)     11706.2  Rx     0001A8D5  7  01 00 00 0F 03 D5 A8 
  1132)     11706.3  Rx     0011A8D5  5  01 00 00 D5 A8 
  1133)     11711.2  Rx     00011B7E  7  01 00 00 0F 03 7E 1B 
  1134)     11711.3  Rx     00111B7E  5  01 00 00 7E 1B 
  1135)     11716.2  Rx     0001794A  7  01 00 00 0F 03 4A 79 
  1136)     11716.3  Rx     0011794A  5  01 00 00 4A 79 
  1137)     11721.2  Rx     00014D74  7  01 00 00 0F 03 74 4D 
  1138)     11721.3  Rx     00114D74  5  01 00 00 74 4D 
  1139)     11726.2  Rx     000151BA  7  01 00 00 0F 03 BA 51 
  1140)     11726.3  Rx     001151BA  5  01 00 00 BA 51 
  1141)     11731.2  Rx     000103B9  7  01 00 00 0F 03 B9 03 
  1142)     11731.3  Rx     001103B9  5  01 00 00 B9 03 
  1143)     11736.2  Rx     000181B2  7  01 00 00 0F 03 B2 81 
  1144)     11736.3  Rx     001181B2  5  01 00 00 B2 81 
  1145)     11741.2  Rx     0001B677  7  01 00 00 0F 03 77 B6 
  1146)     11741.3  Rx     0011B677  5  01 00 00 77 B6 
  1147)     11746.2  Rx     0001053D  7  01 00 00 0F 03 3D 05 
  1148)     11746.3  Rx     0011053D  5  01 00 00 3D 05 
  1149)     11751.2  Rx     00014364  7  01 00 00 0F 03 64 43 
  1150)     11751.3  Rx     00114364  5  01 00 00 64 43 
  1151)     11756.2  Rx     000131A1  7  01 00 00 0F 03 A1 31 
  1152)     11756.3  Rx     001131A1  5  01 00 00 A1 31 
  1153)     11761.2  Rx     00015A83  7  01 00 00 0F 03 83 5A 
  1154)     11761.3  Rx     00115A83  5  01 00 00 83 5A 
  1155)     11766.2  Rx     0001E716  7  01 00 00 0F 03 16 E7 
  1156)     11766.3  Rx     0011E716  5  01 00 00 16 E7 
  1157)     11771.2  Rx     000133DF  7  01 00 00 0F 03 DF 33 
  1158)     11771.3  Rx     001133DF  5  01 00 00 DF 33 
  1159)     11776.2  Rx     000137EA  7  01 00 00 0F 03 EA 37 
  1160)     11776.3  Rx     001137EA  5  01 00 00 EA 37 
  1161)     11781.2  Rx     00013E68  7  01 00 00 0F 03 68 3E 
  1162)     11781.3  Rx     00113E68  5  01 00 00 68 3E 
  1163)     11786.2  Rx     0001C968  7  01 00 00 0F 03 68 C9 
  1164)     11786.3  Rx     0011C968  5  01 00 00 68 C9 
  1165)     11791.2  Rx     00016EE1  7  01 00 00 0F 03 E1 6E 
  1166)     11791.3  Rx     00116EE1  5  01 00 00 E1 6E 
  1167)     11796.2  Rx     00011888  7  01 00 00 0F 03 88 18 
  1168)     11796.3  Rx     00111888  5  01 00 00 88 18 
  1169)     11801.2  Rx     0001D679  7  01 00 00 0F 03 79 D6 
  1170)     11801.3  Rx     0011D679  5  01 00 00 79 D6 
  1171)     11806.2  Rx     0001582D  7  01 00 00 0F 03 2D 58 
  1172)     11806.3  Rx     0011582D  5  01 00 00 2D 58 
  1173)     11811.2  Rx     00010783  7  01 00 00 0F 03 83 07 
  1174)     11811.3  Rx     00110783  5  01 00 00 83 07 
  1175)     11816.2  Rx     0001D876  7  01 00 00 0F 04 76 D8 
  1176)     11816.3  Rx     0011D876  5  01 00 00 76 D8 
  1177)     11821.2  Rx     0001F772  7  01 00 00 0F 03 72 F7 
  1178)     11821.3  Rx     0011F772  5  01 00 00 72 F7 
  1179)     11826.2  Rx     00011672  7  01 00 00 0F 03 72 16 
  1180)     11826.3  Rx     00111672  5  01 00 00 72 16 
  1181)     11831.2  Rx     0001F3FE  7  01 00 00 0F 03 FE F3 
  1182)     11831.3  Rx     0011F3FE  5  01 00 00 FE F3 
  1183)     11836.2  Rx     00017D3E  7  01 00 00 0F 03 3E 7D 
  1184)     11836.3  Rx     00117D3E  5  01 00 00 3E 7D 
  1185)     11841.2  Rx     00017E1C  7  01 00 00 0F 04 1C 7E 
  1186)     11841.3  Rx     00117E1C  5  01 00 00 1C 7E 
  1187)     11846.2  Rx     00016547  7  01 00 00 0F 03 47 65 
  1188)     11846.3  Rx     00116547  5  01 00 00 47 65 
  1189)     11851.2  Rx     00014433  7  01 00 00 0F 03 33 44 
  1190)     11851.3  Rx     00114433  5  01 00 00 33 44 
  1191)     11856.2  Rx     00019C51  7  01 00 00 0F 03 51 9C 
  1192)     11856.3  Rx     00119C51  5  01 00 00 51 9C 
  1193)     11861.2  Rx     000151B0  7  01 00 00 0F 03 B0 51 
  1194)     11861.3  Rx     001151B0  5  01 00 00 B0 51 
  1195)     11866.2  Rx     0001AC73  7  01 00 00 0F 03 73 AC 
  1196)     11866.3  Rx     0011AC73  5  01 00 00 73 AC 
  1197)     11871.2  Rx     000190ED  7  01 00 00 0F 03 ED 90 
  1198)     11871.3  Rx     001190ED  5  01 00 00 ED 90 
  1199)     11876.2  Rx     0001EE1C  7  01 00 00 0F 03 1C EE 
  1200)     11876.3  Rx     0011EE1C  5  01 00 00 1C EE 
  1201)     11881.2  Rx     000100FF  7  01 00 00 0F 03 FF 00 
  1202)     11881.3  Rx     001100FF  5  01 00 00 FF 00 
  1203)     11886.2  Rx     000160EA  7  01 00 00 0F 03 EA 60 
  1204)     11886.3  Rx     001160EA  5  01 00 00 EA 60 
  1205)     11891.2  Rx     00012FE8  7  01 00 00 0F 03 E8 2F 
  1206)     11891.3  Rx     00112FE8  5  01 00 00 E8 2F 
  1207)     11896.2  Rx     0001D8D6  7  01 00 00 0F 03 D6 D8 
  1208)     11896.3  Rx     0011D8D6  5  01 00 00 D6 D8 
  1209)     11901.2  Rx     0001BA4E  7  01 00 00 0F 03 4E BA 
  1210)     11901.3  Rx     0011BA4E  5  01 00 00 4E BA 
  1211)     11906.2  Rx     000108FF  7  01 00 00 0F 03 FF 08 
  1212)     11906.3  Rx     001108FF  5  01 00 00 FF 08 
  1213)     11911.2  Rx     00018490  7  01 00 00 0F 03 90 84 
  1214)     11911.3  Rx     00118490  5  01 00 00 90 84 
  1215)     11916.2  Rx     0001171A  7  01 00 00 0F 03 1A 17 
  1216)     11916.3  Rx     0011171A  5  01 00 00 1A 17 
  1217)     11921.2  Rx     0001FE01  7  01 00 00 0F 03 01 FE 
  1218)     11921.3  Rx     0011FE01  5  01 00 00 01 FE 
  1219)     11926.2  Rx     00016258  7  01 00 00 0F 03 58 62 
  1220)     11926.3  Rx     00116258  5  01 00 00 58 62 
  1221)     11931.2  Rx     0001698A  7  01 00 00 0F 03 8A 69 
  1222)     11931.3  Rx     0011698A  5  01 00 00 8A 69 
  1223)     11936.2  Rx     00011E38  7  01 00 00 0F 03 38 1E 
  1224)     11936.3  Rx     00111E38  5  01 00 00 38 1E 
  1225)     11941.2  Rx     000183FE  7  01 00 00 0F 03 FE 83 
  1226)     11941.3  Rx     001183FE  5  01 00 00 FE 83 
  1227)     11946.2  Rx     000155A4  7  01 00 00 0F 03 A4 55 
  1228)     11946.3  Rx     001155A4  5  01 00 00 A4 55 
  1229)     11951.2  Rx     000166F3  7  01 00 00 0F 03 F3 66 
  1230)     11951.3  Rx     001166F3  5  01 00 00 F3 66 
  1231)     11956.2  Rx     0001DC4A  7  01 00 00 0F 03 4A DC 
  1232)     11956.3  Rx     0011DC4A  5  01 00 00 4A DC 
  1233)     11961.2  Rx     0001FFCE  7  01 00 00 0F 03 CE FF 
  1234)     11961.3  Rx     0011FFCE  5  01 00 00 CE FF 
  1235)     11966.2  Rx     0001240E  7  01 00 00 0F 03 0E 24 
  1236)     11966.3  Rx     0011240E  5  01 00 00 0E 24 
  1237)     11971.2  Rx     00010D6A  7  01 00 00 0F 03 6A 0D 
  1238)     11971.3  Rx     00110D6A  5  01 00 00 6A 0D 
  1239)     11976.2  Rx     00012608  7  01 00 00 0F 03 08 26 
  1240)     11976.3  Rx     00112608  5  01 00 00 08 26 
  1241)     11981.2  Rx     0001F783  7  01 00 00 0F 03 83 F7 
  1242)     11981.3  Rx     0011F783  5  01 00 00 83 F7 
  1243)     11986.2  Rx     0001666F  7  01 00 00 0F 03 6F 66 
  1244)     11986.3  Rx     0011666F  5  01 00 00 6F 66 
  1245)     11991.2  Rx     000149CE  7  01 00 00 0F 03 CE 49 
  1246)     11991.3  Rx     001149CE  5  01 00 00 CE 49 
  1247)     11996.2  Rx     0001585B  7  01 00 00 0F 03 5B 58 
  1248)     11996.3  Rx     0011585B  5  01 00 00 5B 58 
  1249)     12001.2  Rx     0001855D  7  01 00 00 0F 03 5D 85 
  1250)     12001.3  Rx     0011855D  5  01 00 00 5D 85 
  1251)     12006.1  Rx     00011E46  7  01 00 00 0F 03 46 1E 
  1252)     12006.3  Rx     00111E46  5  01 00 00 46 1E 
  1253)     12011.2  Rx     0001ADC6  7  01 00 00 0F 03 C6 AD 
  1254)     12011.3  Rx     0011ADC6  5  01 00 00 C6 AD 
  1255)     12016.2  Rx     0001E1B3  7  01 00 00 0F 03 B3 E1 
  1256)     12016.3  Rx     0011E1B3  5  01 00 00 B3 E1 
  1257)     12021.2  Rx     0001442A  7  01 00 00 0F 03 2A 44 
  1258)     12021.3  Rx     0011442A  5  01 00 00 2A 44 
  1259)     12026.2  Rx     0001C467  7  01 00 00 0F 03 67 C4 
  1260)     12026.3  Rx     0011C467  5  01 00 00 67 C4 
  1261)     12031.2  Rx     0001B504  7  01 00 00 0F 03 04 B5 
  1262)     12031.3  Rx     0011B504  5  01 00 00 04 B5 
  1263)     12036.1  Rx     0001CF18  7  01 00 00 0F 03 18 CF 
  1264)     12036.3  Rx     0011CF18  5  01 00 00 18 CF 
  1265)     12041.2  Rx     00010270  7  01 00 00 0F 03 70 02 
  1266)     12041.3  Rx     00110270  5  01 00 00 70 02 
  1267)     12046.2  Rx     00016975  7  01 00 00 0F 03 75 69 
  1268)     12046.3  Rx     00116975  5  01 00 00 75 69 
  1269)     12051.2  Rx     00013B49  7  01 00 00 0F 03 49 3B 
  1270)     12051.3  Rx     00113B49  5  01 00 00 49 3B 
  1271)     12056.2  Rx     00016501  7  01 00 00 0F 03 01 65 
  1272)     12056.3  Rx     00116501  5  01 00 00 01 65 
  1273)     12061.1  Rx     00019C4C  7  01 00 00 0F 03 4C 9C 
  1274)     12061.3  Rx     00119C4C  5  01 00 00 4C 9C 
  1275)     12066.2  Rx     0001AC10  7  01 00 00 0F 03 10 AC 
  1276)     12066.3  Rx     0011AC10  5  01 00 00 10 AC 
  1277)     12071.2  Rx     00019B27  7  01 00 00 0F 03 27 9B 
  1278)     12071.3  Rx     00119B27  5  01 00 00 27 9B 
  1279)     12076.2  Rx     0001AFE7  7  01 00 00 0F 03 E7 AF 
  1280)     12076.3  Rx     0011AFE7  5  01 00 00 E7 AF 
  1281)     12081.2  Rx     0001D018  7  01 00 00 0F 03 18 D0 
  1282)     12081.3  Rx     0011D018  5  01 00 00 18 D0 
  1283)     12086.1  Rx     0001DCCD  7  01 00 00 0F 03 CD DC 
  1284)     12086.3  Rx     0011DCCD  5  01 00 00 CD DC 
  1285)     12091.1  Rx     00012588  7  01 00 00 0F 03 88 25 
  1286)     12091.3  Rx     00112588  5  01 00 00 88 25 
  1287)     12096.2  Rx     00010097  7  01 00 00 0F 03 97 00 
  1288)     12096.3  Rx     00110097  5  01 00 00 97 00 
  1289)     12101.2  Rx     000111CE  7  01 00 00 0F 03 CE 11 
  1290)     12101.3  Rx     001111CE  5  01 00 00 CE 11 
  1291)     12106.2  Rx     000103EA  7  01 00 00 0F 03 EA 03 
  1292)     12106.3  Rx     001103EA  5  01 00 00 EA 03 
  1293)     12111.1  Rx     000159F1  7  01 00 00 0F 04 F1 59 
  1294)     12111.3  Rx     001159F1  5  01 00 00 F1 59 
  1295)     12116.1  Rx     0001A04A  7  01 00 00 0F 03 4A A0 
  1296)     12116.3  Rx     0011A04A  5  01 00 00 4A A0 
  1297)     12121.2  Rx     0001412E  7  01 00 00 0F 03 2E 41 
  1298)     12121.3  Rx     0011412E  5  01 00 00 2E 41 
  1299)     12126.2  Rx     0001F4BD  7  01 00 00 0F 03 BD F4 
  1300)     12126.3  Rx     0011F4BD  5  01 00 00 BD F4 
  1301)     12131.2  Rx     00014786  7  01 00 00 0F 03 86 47 
  1302)     12131.3  Rx     00114786  5  01 00 00 86 47 
  1303)     12136.2  Rx     00013476  7  01 00 00 0F 03 76 34 
  1304)     12136.3  Rx     00113476  5  01 00 00 76 34 
  1305)     12141.1  Rx     0001A6A1  7  01 00 00 0F 03 A1 A6 
  1306)     12141.3  Rx     0011A6A1  5  01 00 00 A1 A6 
  1307)     12146.1  Rx     000162EF  7  01 00 00 0F 03 EF 62 
  1308)     12146.3  Rx     001162EF  5  01 00 00 EF 62 
  1309)     12151.2  Rx     0001CACC  7  01 00 00 0F 03 CC CA 
  1310)     12151.3  Rx     0011CACC  5  01 00 00 CC CA 
  1311)     12156.2  Rx     00017A61  7  01 00 00 0F 03 61 7A 
  1312)     12156.2  Rx     00117A61  5  01 00 00 61 7A 
  1313)     12161.2  Rx     000196DA  7  01 00 00 0F 03 DA 96 
  1314)     12161.3  Rx     001196DA  5  01 00 00 DA 96 
  1315)     12166.1  Rx     0001E56C  7  01 00 00 0F 03 6C E5 
  1316)     12166.3  Rx     0011E56C  5  01 00 00 6C E5 
  1317)     12171.1  Rx     0001E831  7  01 00 00 0F 03 31 E8 
  1318)     12171.3  Rx     0011E831  5  01 00 00 31 E8 
  1319)     12176.1  Rx     0001AE7A  7  01 00 00 0F 03 7A AE 
  1320)     12176.3  Rx     0011AE7A  5  01 00 00 7A AE 
  1321)     12181.2  Rx     00015542  7  01 00 00 0F 03 42 55 
  1322)     12181.2  Rx     00115542  5  01 00 00 42 55 
  1323)     12186.2  Rx     00011318  7  01 00 00 0F 03 18 13 
  1324)     12186.3  Rx     00111318  5  01 00 00 18 13 
  1325)     12191.1  Rx     0001274C  7  01 00 00 0F 03 4C 27 
  1326)     12191.3  Rx     0011274C  5  01 00 00 4C 27 
  1327)     12196.1  Rx     00013F66  7  01 00 00 0F 03 66 3F 
  1328)     12196.3  Rx     00113F66  5  01 00 00 66 3F 
  1329)     12201.1  Rx     0001F110  7  01 00 00 0F 03 10 F1 
  1330)     12201.3  Rx     0011F110  5  01 00 00 10 F1 
  1331)     12206.1  Rx     00018D42  7  01 00 00 0F 03 42 8D 
  1332)     12206.3  Rx     00118D42  5  01 00 00 42 8D 
  1333)     12211.2  Rx     0001C6E3  7  01 00 00 0F 03 E3 C6 
  1334)     12211.2  Rx     0011C6E3  5  01 00 00 E3 C6 
  1335)     12216.1  Rx     000140DB  7  01 00 00 0F 03 DB 40 
  1336)     12216.3  Rx     001140DB  5  01 00 00 DB 40 
  1337)     12221.1  Rx     0001053A  7  01 00 00 0F 03 3A 05 
  1338)     12221.3  Rx     0011053A  5  01 00 00 3A 05 
  1339)     12226.1  Rx     00010FD9  7  01 00 00 0F 03 D9 0F 
  1340)     12226.3  Rx     00110FD9  5  01 00 00 D9 0F 
  1341)     12231.1  Rx     000125AF  7  01 00 00 0F 03 AF 25 
  1342)     12231.3  Rx     001125AF  5  01 00 00 AF 25 
  1343)     12236.2  Rx     00011E2F  7  01 00 00 0F 03 2F 1E 
  1344)     12236.2  Rx     00111E2F  5  01 00 00 2F 1E 
  1345)     12241.2  Rx     00017F0F  7  01 00 00 0F 03 0F 7F 
  1346)     12241.2  Rx     00117F0F  5  01 00 00 0F 7F 
  1347)     12246.1  Rx     00017B60  7  01 00 00 0F 03 60 7B 
  1348)     12246.3  Rx     00117B60  5  01 00 00 60 7B 
  1349)     12251.1  Rx     00010BE2  7  01 00 00 0F 03 E2 0B 
  1350)     12251.3  Rx     00110BE2  5  01 00 00 E2 0B 
  1351)     12256.1  Rx     000100AF  7  01 00 00 0F 03 AF 00 
  1352)     12256.3  Rx     001100AF  5  01 00 00 AF 00 
  1353)     12261.2  Rx     00018B9F  7  01 00 00 0F 03 9F 8B 
  1354)     12261.2  Rx     00118B9F  5  01 00 00 9F 8B 
  1355)     12266.2  Rx     0001F4A1  7  01 00 00 0F 03 A1 F4 
  1356)     12266.2  Rx     0011F4A1  5  01 00 00 A1 F4 
  1357)     12271.1  Rx     0001ED64  7  01 00 00 0F 03 64 ED 
  1358)     12271.2  Rx     0011ED64  5  01 00 00 64 ED 
  1359)     12276.1  Rx     000181B0  7  01 00 00 0F 03 B0 81 
  1360)     12276.3  Rx     001181B0  5  01 00 00 B0 81 
  1361)     12281.1  Rx     000147E0  7  01 00 00 0F 03 E0 47 
  1362)     12281.3  Rx     001147E0  5  01 00 00 E0 47 
  1363)     12286.1  Rx     0001F222  7  01 00 00 0F 03 22 F2 
  1364)     12286.3  Rx     0011F222  5  01 00 00 22 F2 
  1365)     12291.2  Rx     00014CE0  7  01 00 00 0F 03 E0 4C 
  1366)     12291.2  Rx     00114CE0  5  01 00 00 E0 4C 
  1367)     12296.1  Rx     00012866  7  01 00 00 0F 03 66 28 
  1368)     12296.2  Rx     00112866  5  01 00 00 66 28 
  1369)     12301.1  Rx     0001AB91  7  01 00 00 0F 03 91 AB 
  1370)     12301.3  Rx     0011AB91  5  01 00 00 91 AB 
  1371)     12306.1  Rx     00012F5B  7  01 00 00 0F 03 5B 2F 
  1372)     12306.3  Rx     00112F5B  5  01 00 00 5B 2F 
  1373)     12311.1  Rx     00010B81  7  01 00 00 0F 03 81 0B 
  1374)     12311.3  Rx     00110B81  5  01 00 00 81 0B 
  1375)     12316.1  Rx     00010377  7  01 00 00 0F 03 77 03 
  1376)     12316.2  Rx     00110377  5  01 00 00 77 03 
  1377)     12321.2  Rx     000146DD  7  01 00 00 0F 03 DD 46 
  1378)     12321.2  Rx     001146DD  5  01 00 00 DD 46 
  1379)     12326.1  Rx     0001DDA4  7  01 00 00 0F 03 A4 DD 
  1380)     12326.2  Rx     0011DDA4  5  01 00 00 A4 DD 
  1381)     12331.1  Rx     00019D7B  7  01 00 00 0F 03 7B 9D 
  1382)     12331.3  Rx     00119D7B  5  01 00 00 7B 9D 
  1383)     12336.1  Rx     0001264D  7  01 00 00 0F 03 4D 26 
  1384)     12336.3  Rx     0011264D  5  01 00 00 4D 26 
  1385)     12341.1  Rx     00011EBF  7  01 00 00 0F 03 BF 1E 
  1386)     12341.2  Rx     00111EBF  5  01 00 00 BF 1E 
  1387)     12346.1  Rx     0001B6EF  7  01 00 00 0F 03 EF B6 
  1388)     12346.2  Rx     0011B6EF  5  01 00 00 EF B6 
  1389)     12351.1  Rx     0001834B  7  01 00 00 0F 03 4B 83 
  1390)     12351.2  Rx     0011834B  5  01 00 00 4B 83 
  1391)     12356.1  Rx     00015A2E  7  01 00 00 0F 03 2E 5A 
  1392)     12356.3  Rx     00115A2E  5  01 00 00 2E 5A 
  1393)     12361.1  Rx     00017027  7  01 00 00 0F 03 27 70 
  1394)     12361.3  Rx     00117027  5  01 00 00 27 70 
  1395)     12366.1  Rx     0001E63A  7  01 00 00 0F 03 3A E6 
  1396)     12366.2  Rx     0011E63A  5  01 00 00 3A E6 
  1397)     12371.1  Rx     000173BE  7  01 00 00 0F 03 BE 73 
  1398)     12371.2  Rx     001173BE  5  01 00 00 BE 73 
  1399)     12376.1  Rx     0001930C  7  01 00 00 0F 03 0C 93 
  1400)     12376.2  Rx     0011930C  5  01 00 00 0C 93 
  1401)     12381.1  Rx     00018DE0  7  01 00 00 0F 03 E0 8D 
  1402)     12381.2  Rx     00118DE0  5  01 00 00 E0 8D 
  1403)     12386.1  Rx     000149C1  7  01 00 00 0F 03 C1 49 
  1404)     12386.3  Rx     001149C1  5  01 00 00 C1 49 
  1405)     12391.1  Rx     0001C6B2  7  01 00 00 0F 03 B2 C6 
  1406)     12391.3  Rx     0011C6B2  5  01 00 00 B2 C6 
  1407)     12396.1  Rx     0001841C  7  01 00 00 0F 03 1C 84 
  1408)     12396.2  Rx     0011841C  5  01 00 00 1C 84 
  1409)     12401.1  Rx     0001A12E  7  01 00 00 0F 03 2E A1 
  1410)     12401.2  Rx     0011A12E  5  01 00 00 2E A1 
  1411)     12406.1  Rx     00015AF6  7  01 00 00 0F 03 F6 5A 
  1412)     12406.2  Rx     00115AF6  5  01 00 00 F6 5A 
  1413)     12411.1  Rx     0001B49E  7  01 00 00 0F 03 9E B4 
  1414)     12411.2  Rx     0011B49E  5  01 00 00 9E B4 
  1415)     12416.1  Rx     00013C28  7  01 00 00 0F 03 28 3C 
  1416)     12416.3  Rx     00113C28  5  01 00 00 28 3C 
  1417)     12421.1  Rx     0001893A  7  01 00 00 0F 03 3A 89 
  1418)     12421.2  Rx     0011893A  5  01 00 00 3A 89 
  1419)     12426.1  Rx     00014C31  7  01 00 00 0F 03 31 4C 
  1420)     12426.2  Rx     00114C31  5  01 00 00 31 4C 
  1421)     12431.1  Rx     0001BAD2  7  01 00 00 0F 03 D2 BA 
  1422)     12431.2  Rx     0011BAD2  5  01 00 00 D2 BA 
  1423)     12436.1  Rx     0001A5A4  7  01 00 00 0F 03 A4 A5 
  1424)     12436.2  Rx     0011A5A4  5  01 00 00 A4 A5 
  1425)     12441.1  Rx     0001A52E  7  01 00 00 0F 03 2E A5 
  1426)     12441.3  Rx     0011A52E  5  01 00 00 2E A5 
  1427)     12446.1  Rx     00013026  7  01 00 00 0F 03 26 30 
  1428)     12446.2  Rx     00113026  5  01 00 00 26 30 
  1429)     12451.1  Rx     0001C47E  7  01 00 00 0F 03 7E C4 
  1430)     12451.2  Rx     0011C47E  5  01 00 00 7E C4 
  1431)     12456.1  Rx     00011E82  7  01 00 00 0F 03 82 1E 
  1432)     12456.2  Rx     00111E82  5  01 00 00 82 1E 
  1433)     12461.1  Rx     0001A11E  7  01 00 00 0F 03 1E A1 
  1434)     12461.2  Rx     0011A11E  5  01 00 00 1E A1 
  1435)     12466.1  Rx     0001E31A  7  01 00 00 0F 03 1A E3 
  1436)     12466.2  Rx     0011E31A  5  01 00 00 1A E3 
  1437)     12471.1  Rx     0001AC74  7  01 00 00 0F 03 74 AC 
  1438)     12471.2  Rx     0011AC74  5  01 00 00 74 AC 
  1439)     12476.1  Rx     00010FC4  7  01 00 00 0F 03 C4 0F 
  1440)     12476.2  Rx     00110FC4  5  01 00 00 C4 0F 
  1441)     12481.1  Rx     000141AC  7  01 00 00 0F 03 AC 41 
  1442)     12481.2  Rx     001141AC  5  01 00 00 AC 41 
  1443)     12486.1  Rx     000129D4  7  01 00 00 0F 03 D4 29 
  1444)     12486.2  Rx     001129D4  5  01 00 00 D4 29 
  1445)     12491.1  Rx     00016BAC  7  01 00 00 0F 03 AC 6B 
  1446)     12491.2  Rx     00116BAC  5  01 00 00 AC 6B 
  1447)     12496.1  Rx     000168D5  7  01 00 00 0F 03 D5 68 
  1448)     12496.2  Rx     001168D5  5  01 00 00 D5 68 
  1449)     12501.1  Rx     00014269  7  01 00 00 0F 03 69 42 
  1450)     12501.2  Rx     00114269  5  01 00 00 69 42 
  1451)     12506.1  Rx     0001CA53  7  01 00 00 0F 03 53 CA 
  1452)     12506.2  Rx     0011CA53  5  01 00 00 53 CA 
  1453)     12511.1  Rx     0001688B  7  01 00 00 0F 03 8B 68 
  1454)     12511.2  Rx     0011688B  5  01 00 00 8B 68 
  1455)     12516.1  Rx     00014698  7  01 00 00 0F 03 98 46 
  1456)     12516.2  Rx     00114698  5  01 00 00 98 46 
  1457)     12521.1  Rx     00011EFD  7  01 00 00 0F 03 FD 1E 
  1458)     12521.2  Rx     00111EFD  5  01 00 00 FD 1E 
  1459)     12526.1  Rx     00019A44  7  01 00 00 0F 03 44 9A 
  1460)     12526.2  Rx     00119A44  5  01 00 00 44 9A 
  1461)     12531.1  Rx     0001DEE2  7  01 00 00 0F 03 E2 DE 
  1462)     12531.2  Rx     0011DEE2  5  01 00 00 E2 DE 
  1463)     12536.1  Rx     0001763C  7  01 00 00 0F 03 3C 76 
  1464)     12536.2  Rx     0011763C  5  01 00 00 3C 76 
  1465)     12541.1  Rx     0001D705  7  01 00 00 0F 03 05 D7 
  1466)     12541.2  Rx     0011D705  5  01 00 00 05 D7 
  1467)     12546.1  Rx     00018331  7  01 00 00 0F 03 31 83 
  1468)     12546.2  Rx     00118331  5  01 00 00 31 83 
  1469)     12551.1  Rx     000118B7  7  01 00 00 0F 03 B7 18 
  1470)     12551.2  Rx     001118B7  5  01 00 00 B7 18 
  1471)     12556.1  Rx     000103D5  7  01 00 00 0F 03 D5 03 
  1472)     12556.2  Rx     001103D5  5  01 00 00 D5 03 
  1473)     12561.1  Rx     0001D8BF  7  01 00 00 0F 03 BF D8 
  1474)     12561.2  Rx     0011D8BF  5  01 00 00 BF D8 
  1475)     12566.1  Rx     00019479  7  01 00 00 0F 03 79 94 
  1476)     12566.2  Rx     00119479  5  01 00 00 79 94 
  1477)     12571.1  Rx     0001CFC6  7  01 00 00 0F 03 C6 CF 
  1478)     12571.2  Rx     0011CFC6  5  01 00 00 C6 CF 
  1479)     12576.1  Rx     0001D0AA  7  01 00 00 0F 03 AA D0 
  1480)     12576.2  Rx     0011D0AA  5  01 00 00 AA D0 
  1481)     12581.1  Rx     0001B666  7  01 00 00 0F 03 66 B6 
  1482)     12581.2  Rx     0011B666  5  01 00 00 66 B6 
  1483)     12586.1  Rx     00012F03  7  01 00 00 0F 03 03 2F 
  1484)     12586.2  Rx     00112F03  5  01 00 00 03 2F 
  1485)     12591.1  Rx     000163C5  7  01 00 00 0F 03 C5 63 
  1486)     12591.2  Rx     001163C5  5  01 00 00 C5 63 
  1487)     12596.1  Rx     0001254E  7  01 00 00 0F 03 4E 25 
  1488)     12596.2  Rx     0011254E  5  01 00 00 4E 25 
  1489)     12601.2  Rx     0001065E  7  01 00 00 0F 03 5E 06 
  1490)     12601.2  Rx     0011065E  5  01 00 00 5E 06 
  1491)     12606.1  Rx     0001DEB1  7  01 00 00 0F 03 B1 DE 
  1492)     12606.2  Rx     0011DEB1  5  01 00 00 B1 DE 
  1493)     12611.1  Rx     00014D6A  7  01 00 00 0F 03 6A 4D 
  1494)     12611.3  Rx     00114D6A  5  01 00 00 6A 4D 
  1495)     12616.1  Rx     00013770  7  01 00 00 0F 03 70 37 
  1496)     12616.3  Rx     00113770  5  01 00 00 70 37 
  1497)     12621.1  Rx     0001260E  7  01 00 00 0F 03 0E 26 
  1498)     12621.2  Rx     0011260E  5  01 00 00 0E 26 
  1499)     12626.1  Rx     0001A594  7  01 00 00 0F 03 94 A5 
  1500)     12626.2  Rx     0011A594  5  01 00 00 94 A5 
  1501)     12631.1  Rx     00015A2D  7  01 00 00 0F 03 2D 5A 
  1502)     12631.2  Rx     00115A2D  5  01 00 00 2D 5A 
  1503)     12636.1  Rx     0001C372  7  01 00 00 0F 03 72 C3 
  1504)     12636.2  Rx     0011C372  5  01 00 00 72 C3 
  1505)     12641.1  Rx     00011F90  7  01 00 00 0F 03 90 1F 
  1506)     12641.3  Rx     00111F90  5  01 00 00 90 1F 
  1507)     12646.1  Rx     0001E4E4  7  01 00 00 0F 03 E4 E4 
  1508)     12646.2  Rx     0011E4E4  5  01 00 00 E4 E4 
  1509)     12651.1  Rx     0001ECCC  7  01 00 00 0F 03 CC EC 
  1510)     12651.2  Rx     0011ECCC  5  01 00 00 CC EC 
  1511)     12656.1  Rx     000195BB  7  01 00 00 0F 03 BB 95 
  1512)     12656.2  Rx     001195BB  5  01 00 00 BB 95 
  1513)     12661.1  Rx     00015E0A  7  01 00 00 0F 03 0A 5E 
  1514)     12661.2  Rx     00115E0A  5  01 00 00 0A 5E 
  1515)     12666.1  Rx     000177AD  7  01 00 00 0F 03 AD 77 
  1516)     12666.2  Rx     001177AD  5  01 00 00 AD 77 
  1517)     12671.1  Rx     00017A93  7  01 00 00 0F 03 93 7A 
  1518)     12671.3  Rx     00117A93  5  01 00 00 93 7A 
  1519)     12676.1  Rx     000123CC  7  01 00 00 0F 03 CC 23 
  1520)     12676.2  Rx     001123CC  5  01 00 00 CC 23 
  1521)     12681.1  Rx     000194D9  7  01 00 00 0F 03 D9 94 
  1522)     12681.2  Rx     001194D9  5  01 00 00 D9 94 
  1523)     12686.1  Rx     0001C749  7  01 00 00 0F 03 49 C7 
  1524)     12686.2  Rx     0011C749  5  01 00 00 49 C7 
  1525)     12691.1  Rx     0001A957  7  01 00 00 0F 03 57 A9 
  1526)     12691.2  Rx     0011A957  5  01 00 00 57 A9 
  1527)     12696.1  Rx     00010913  7  01 00 00 0F 03 13 09 
  1528)     12696.3  Rx     00110913  5  01 00 00 13 09 
  1529)     12701.1  Rx     00018172  7  01 00 00 0F 03 72 81 
  1530)     12701.2  Rx     00118172  5  01 00 00 72 81 
  1531)     12706.1  Rx     0001D590  7  01 00 00 0F 03 90 D5 
  1532)     12706.2  Rx     0011D590  5  01 00 00 90 D5 
  1533)     12711.1  Rx     0001BE46  7  01 00 00 0F 03 46 BE 
  1534)     12711.2  Rx     0011BE46  5  01 00 00 46 BE 
  1535)     12716.1  Rx     0001B781  7  01 00 00 0F 03 81 B7 
  1536)     12716.2  Rx     0011B781  5  01 00 00 81 B7 
  1537)     12721.1  Rx     0001C408  7  01 00 00 0F 03 08 C4 
  1538)     12721.3  Rx     0011C408  5  01 00 00 08 C4 
  1539)     12726.1  Rx     000154D1  7  01 00 00 0F 03 D1 54 
  1540)     12726.2  Rx     001154D1  5  01 00 00 D1 54 
  1541)     12731.1  Rx     0001E961  7  01 00 00 0F 03 61 E9 
  1542)     12731.2  Rx     0011E961  5  01 00 00 61 E9 
  1543)     12736.1  Rx     0001DFDD  7  01 00 00 0F 03 DD DF 
  1544)     12736.2  Rx     0011DFDD  5  01 00 00 DD DF 
  1545)     12741.1  Rx     0001AEED  7  01 00 00 0F 03 ED AE 
  1546)     12741.2  Rx     0011AEED  5  01 00 00 ED AE 
  1547)     12746.1  Rx     0001AD7E  7  01 00 00 0F 03 7E AD 
  1548)     12746.2  Rx     0011AD7E  5  01 00 00 7E AD 
  1549)     12751.1  Rx     000185C4  7  01 00 00 0F 03 C4 85 
  1550)     12751.2  Rx     001185C4  5  01 00 00 C4 85 
  1551)     12756.1  Rx     000121D6  7  01 00 00 0F 03 D6 21 
  1552)     12756.2  Rx     001121D6  5  01 00 00 D6 21 
  1553)     12761.1  Rx     000100B8  7  01 00 00 0F 03 B8 00 
  1554)     12761.2  Rx     001100B8  5  01 00 00 B8 00 
  1555)     12766.1  Rx     000115A9  7  01 00 00 0F 03 A9 15 
  1556)     12766.2  Rx     001115A9  5  01 00 00 A9 15 
  1557)     12771.1  Rx     000186AB  7  01 00 00 0F 03 AB 86 
  1558)     12771.2  Rx     001186AB  5  01 00 00 AB 86 
  1559)     12776.1  Rx     000193D9  7  01 00 00 0F 03 D9 93 
  1560)     12776.2  Rx     001193D9  5  01 00 00 D9 93 
  1561)     12781.1  Rx     0001E12A  7  01 00 00 0F 03 2A E1 
  1562)     12781.2  Rx     0011E12A  5  01 00 00 2A E1 
  1563)     12786.1  Rx     00019632  7  01 00 00 0F 03 32 96 
  1564)     12786.2  Rx     00119632  5  01 00 00 32 96 
  1565)     12791.1  Rx     0001A534  7  01 00 00 0F 03 34 A5 
  1566)     12791.2  Rx     0011A534  5  01 00 00 34 A5 
  1567)     12796.1  Rx     00013EA7  7  01 00 00 0F 03 A7 3E 
  1568)     12796.2  Rx     00113EA7  5  01 00 00 A7 3E 
  1569)     12801.1  Rx     000184D0  7  01 00 00 0F 03 D0 84 
  1570)     12801.2  Rx     001184D0  5  01 00 00 D0 84 
  1571)     12806.1  Rx     000131BD  7  01 00 00 0F 03 BD 31 
  1572)     12806.2  Rx     001131BD  5  01 00 00 BD 31 
  1573)     12811.1  Rx     0001CAE4  7  01 00 00 0F 03 E4 CA 
  1574)     12811.2  Rx     0011CAE4  5  01 00 00 E4 CA 
  1575)     12816.1  Rx     0001CCA5  7  01 00 00 0F 03 A5 CC 
  1576)     12816.2  Rx     0011CCA5  5  01 00 00 A5 CC 
  1577)     12821.1  Rx     00011768  7  01 00 00 0F 03 68 17 
  1578)     12821.2  Rx     00111768  5  01 00 00 68 17 
  1579)     12826.1  Rx     0001D564  7  01 00 00 0F 03 64 D5 
  1580)     12826.2  Rx     0011D564  5  01 00 00 64 D5 
  1581)     12831.1  Rx     000158EB  7  01 00 00 0F 03 EB 58 
  1582)     12831.2  Rx     001158EB  5  01 00 00 EB 58 
  1583)     12836.1  Rx     00010CF1  7  01 00 00 0F 03 F1 0C 
  1584)     12836.2  Rx     00110CF1  5  01 00 00 F1 0C 
  1585)     12841.1  Rx     00017D04  7  01 00 00 0F 03 04 7D 
  1586)     12841.2  Rx     00117D04  5  01 00 00 04 7D 
  1587)     12846.1  Rx     00018F30  7  01 00 00 0F 03 30 8F 
  1588)     12846.2  Rx     00118F30  5  01 00 00 30 8F 
  1589)     12851.1  Rx     00017426  7  01 00 00 0F 03 26 74 
  1590)     12851.2  Rx     00117426  5  01 00 00 26 74 
  1591)     12856.1  Rx     00017239  7  01 00 00 0F 03 39 72 
  1592)     12856.2  Rx     00117239  5  01 00 00 39 72 
  1593)     12861.1  Rx     000131EF  7  01 00 00 0F 03 EF 31 
  1594)     12861.2  Rx     001131EF  5  01 00 00 EF 31 
  1595)     12866.1  Rx     00016A47  7  01 00 00 0F 03 47 6A 
  1596)     12866.2  Rx     00116A47  5  01 00 00 47 6A 
  1597)     12871.1  Rx     000159E8  7  01 00 00 0F 03 E8 59 
  1598)     12871.2  Rx     001159E8  5  01 00 00 E8 59 
  1599)     12876.1  Rx     0001C14A  7  01 00 00 0F 03 4A C1 
  1600)     12876.2  Rx     0011C14A  5  01 00 00 4A C1 
  1601)     12881.1  Rx     00010952  7  01 00 00 0F 03 52 09 
  1602)     12881.2  Rx     00110952  5  01 00 00 52 09 
  1603)     12886.1  Rx     0001B4E5  7  01 00 00 0F 03 E5 B4 
  1604)     12886.2  Rx     0011B4E5  5  01 00 00 E5 B4 
  1605)     12891.1  Rx     0001AD77  7  01 00 00 0F 03 77 AD 
  1606)     12891.2  Rx     0011AD77  5  01 00 00 77 AD 
  1607)     12896.1  Rx     00018B69  7  01 00 00 0F 03 69 8B 
  1608)     12896.2  Rx     00118B69  5  01 00 00 69 8B 
  1609)     12901.1  Rx     00010E95  7  01 00 00 0F 03 95 0E 
  1610)     12901.2  Rx     00110E95  5  01 00 00 95 0E 
  1611)     12906.1  Rx     0001F40B  7  01 00 00 0F 03 0B F4 
  1612)     12906.2  Rx     0011F40B  5  01 00 00 0B F4 
  1613)     12911.1  Rx     0001C657  7  01 00 00 0F 03 57 C6 
  1614)     12911.2  Rx     0011C657  5  01 00 00 57 C6 
  1615)     12916.1  Rx     0001C063  7  01 00 00 0F 03 63 C0 
  1616)     12916.2  Rx     0011C063  5  01 00 00 63 C0 
  1617)     12921.1  Rx     00013985  7  01 00 00 0F 03 85 39 
  1618)     12921.2  Rx     00113985  5  01 00 00 85 39 
  1619)     12926.1  Rx     0001F0F9  7  01 00 00 0F 03 F9 F0 
  1620)     12926.2  Rx     0011F0F9  5  01 00 00 F9 F0 
  1621)     12931.1  Rx     00010F49  7  01 00 00 0F 03 49 0F 
  1622)     12931.2  Rx     00110F49  5  01 00 00 49 0F 
  1623)     12936.1  Rx     00014C66  7  01 00 00 0F 03 66 4C 
  1624)     12936.2  Rx     00114C66  5  01 00 00 66 4C 
  1625)     12941.1  Rx     0001693A  7  01 00 00 0F 03 3A 69 
  1626)     12941.2  Rx     0011693A  5  01 00 00 3A 69 
  1627)     12946.1  Rx     0001D05C  7  01 00 00 0F 03 5C D0 
  1628)     12946.2  Rx     0011D05C  5  01 00 00 5C D0 
  1629)     12951.1  Rx     00013611  7  01 00 00 0F 03 11 36 
  1630)     12951.2  Rx     00113611  5  01 00 00 11 36 
  1631)     12956.1  Rx     0001A18D  7  01 00 00 0F 03 8D A1 
