;$FILEVERSION=1.1
;$STARTTIME=46290.6137342708
;
;   Start time: 25/09/2026 14:43:46.641.0
;   Generated by PCAN-View v5.3.3.958
;
;   Message Number
;   |         Time Offset (ms)
;   |         |        Type
;   |         |        |        ID (hex)
;   |         |        |        |     Data Length
;   |         |        |        |     |   Data Bytes (hex) ...
;   |         |        |        |     |   |
;---+--   ----+----  --+--  ----+---  +  -+ -- -- -- -- -- -- --
     1)      9853.8  Rx     0001804B  7  01 00 00 0F 00 4B 80 
     2)      9854.0  Rx     0011804B  5  01 00 00 4B 80 
     3)      9858.8  Rx     0001EB2F  7  01 00 00 0F 03 2F EB 
     4)      9858.9  Rx     0011EB2F  5  01 00 00 2F EB 
     5)      9863.9  Rx     00012621  7  01 00 00 0F 03 21 26 
     6)      9863.9  Rx     00112621  5  01 00 00 21 26 
     7)      9868.8  Rx     000136CD  7  01 00 00 0F 03 CD 36 
     8)      9868.9  Rx     001136CD  5  01 00 00 CD 36 
     9)      9873.8  Rx     00015486  7  01 00 00 0F 03 86 54 
    10)      9874.0  Rx     00115486  5  01 00 00 86 54 
    11)      9878.8  Rx     0001E93A  7  01 00 00 0F 03 3A E9 
    12)      9879.0  Rx     0011E93A  5  01 00 00 3A E9 
    13)      9883.8  Rx     0001038D  7  01 00 00 0F 03 8D 03 
    14)      9883.9  Rx     0011038D  5  01 00 00 8D 03 
    15)      9888.9  Rx     0001B282  7  01 00 00 0F 03 82 B2 
    16)      9888.9  Rx     0011B282  5  01 00 00 82 B2 
    17)      9893.8  Rx     00016268  7  01 00 00 0F 03 68 62 
    18)      9893.9  Rx     00116268  5  01 00 00 68 62 
    19)      9898.8  Rx     00013A39  7  01 00 00 0F 03 39 3A 
    20)      9898.9  Rx     00113A39  5  01 00 00 39 3A 
    21)      9903.8  Rx     0001189A  7  01 00 00 0F 03 9A 18 
    22)      9904.0  Rx     0011189A  5  01 00 00 9A 18 
    23)      9908.8  Rx     000103E4  7  01 00 00 0F 03 E4 03 
    24)      9909.0  Rx     001103E4  5  01 00 00 E4 03 
    25)      9913.8  Rx     00015C83  7  01 00 00 0F 03 83 5C 
    26)      9913.9  Rx     00115C83  5  01 00 00 83 5C 
    27)      9918.8  Rx     0001AF0F  7  01 00 00 0F 03 0F AF 
    28)      9918.9  Rx     0011AF0F  5  01 00 00 0F AF 
    29)      9923.8  Rx     000114A3  7  01 00 00 0F 03 A3 14 
    30)      9923.9  Rx     001114A3  5  01 00 00 A3 14 
    31)      9928.8  Rx     0001D9A4  7  01 00 00 0F 03 A4 D9 
    32)      9929.0  Rx     0011D9A4  5  01 00 00 A4 D9 
    33)      9933.8  Rx     000169BD  7  01 00 00 0F 03 BD 69 
    34)      9934.0  Rx     001169BD  5  01 00 00 BD 69 
    35)      9938.8  Rx     000192B4  7  01 00 00 0F 03 B4 92 
    36)      9938.9  Rx     001192B4  5  01 00 00 B4 92 
    37)      9943.8  Rx     000186CD  7  01 00 00 0F 03 CD 86 
    38)      9943.9  Rx     001186CD  5  01 00 00 CD 86 
    39)      9948.8  Rx     0001A1D0  7  01 00 00 0F 03 D0 A1 
    40)      9948.9  Rx     0011A1D0  5  01 00 00 D0 A1 
    41)      9953.8  Rx     0001E46C  7  01 00 00 0F 03 6C E4 
    42)      9953.9  Rx     0011E46C  5  01 00 00 6C E4 
    43)      9958.8  Rx     0001C2AE  7  01 00 00 0F 03 AE C2 
    44)      9959.0  Rx     0011C2AE  5  01 00 00 AE C2 
    45)      9963.8  Rx     0001480E  7  01 00 00 0F 03 0E 48 
    46)      9963.9  Rx     0011480E  5  01 00 00 0E 48 
    47)      9968.8  Rx     0001EAA3  7  01 00 00 0F 03 A3 EA 
    48)      9968.9  Rx     0011EAA3  5  01 00 00 A3 EA 
    49)      9973.8  Rx     00014444  7  01 00 00 0F 03 44 44 
    50)      9973.9  Rx     00114444  5  01 00 00 44 44 
    51)      9978.8  Rx     0001AD42  7  01 00 00 0F 03 42 AD 
    52)      9978.9  Rx     0011AD42  5  01 00 00 42 AD 
    53)      9983.8  Rx     0001D5EC  7  01 00 00 0F 03 EC D5 
    54)      9984.0  Rx     0011D5EC  5  01 00 00 EC D5 
    55)      9988.8  Rx     00010B1A  7  01 00 00 0F 03 1A 0B 
    56)      9989.0  Rx     00110B1A  5  01 00 00 1A 0B 
    57)      9993.8  Rx     0001CEF0  7  01 00 00 0F 03 F0 CE 
    58)      9993.9  Rx     0011CEF0  5  01 00 00 F0 CE 
    59)      9998.8  Rx     00017569  7  01 00 00 0F 03 69 75 
    60)      9998.9  Rx     00117569  5  01 00 00 69 75 
    61)     10003.8  Rx     00018204  7  01 00 00 0F 03 04 82 
    62)     10003.9  Rx     00118204  5  01 00 00 04 82 
    63)     10008.8  Rx     0001AF46  7  01 00 00 0F 03 46 AF 
    64)     10008.9  Rx     0011AF46  5  01 00 00 46 AF 
    65)     10013.8  Rx     00018781  7  01 00 00 0F 03 81 87 
    66)     10014.0  Rx     00118781  5  01 00 00 81 87 
    67)     10018.8  Rx     0001F484  7  01 00 00 0F 03 84 F4 
    68)     10018.9  Rx     0011F484  5  01 00 00 84 F4 
    69)     10023.8  Rx     0001EA51  7  01 00 00 0F 03 51 EA 
    70)     10023.9  Rx     0011EA51  5  01 00 00 51 EA 
    71)     10028.8  Rx     00016063  7  01 00 00 0F 03 63 60 
    72)     10028.9  Rx     00116063  5  01 00 00 63 60 
    73)     10033.8  Rx     0001E48A  7  01 00 00 0F 03 8A E4 
    74)     10033.9  Rx     0011E48A  5  01 00 00 8A E4 
    75)     10038.8  Rx     0001D1CE  7  01 00 00 0F 03 CE D1 
    76)     10038.9  Rx     0011D1CE  5  01 00 00 CE D1 
    77)     10043.8  Rx     00012229  7  01 00 00 0F 03 29 22 
    78)     10043.9  Rx     00112229  5  01 00 00 29 22 
    79)     10048.8  Rx     000124AC  7  01 00 00 0F 03 AC 24 
    80)     10048.9  Rx     001124AC  5  01 00 00 AC 24 
    81)     10053.8  Rx     0001B507  7  01 00 00 0F 03 07 B5 
    82)     10053.9  Rx     0011B507  5  01 00 00 07 B5 
    83)     10058.8  Rx     00018395  7  01 00 00 0F 03 95 83 
    84)     10058.9  Rx     00118395  5  01 00 00 95 83 
    85)     10063.8  Rx     00011806  7  01 00 00 0F 03 06 18 
    86)     10063.9  Rx     00111806  5  01 00 00 06 18 
    87)     10068.8  Rx     0001FEEB  7  01 00 00 0F 03 EB FE 
    88)     10068.9  Rx     0011FEEB  5  01 00 00 EB FE 
    89)     10073.8  Rx     0001E402  7  01 00 00 0F 03 02 E4 
    90)     10073.9  Rx     0011E402  5  01 00 00 02 E4 
    91)     10078.8  Rx     00017A27  7  01 00 00 0F 03 27 7A 
    92)     10078.9  Rx     00117A27  5  01 00 00 27 7A 
    93)     10083.8  Rx     0001E809  7  01 00 00 0F 03 09 E8 
    94)     10083.9  Rx     0011E809  5  01 00 00 09 E8 
    95)     10088.8  Rx     000179D2  7  01 00 00 0F 03 D2 79 
    96)     10088.9  Rx     001179D2  5  01 00 00 D2 79 
    97)     10093.8  Rx     00014EF3  7  01 00 00 0F 03 F3 4E 
    98)     10093.9  Rx     00114EF3  5  01 00 00 F3 4E 
    99)     10098.8  Rx     00011C8C  7  01 00 00 0F 03 8C 1C 
   100)     10098.9  Rx     00111C8C  5  01 00 00 8C 1C 
   101)     10103.8  Rx     0001273E  7  01 00 00 0F 03 3E 27 
   102)     10103.9  Rx     0011273E  5  01 00 00 3E 27 
   103)     10108.8  Rx     00015B0C  7  01 00 00 0F 03 0C 5B 
   104)     10108.9  Rx     00115B0C  5  01 00 00 0C 5B 
   105)     10113.8  Rx     000182E9  7  01 00 00 0F 03 E9 82 
   106)     10113.9  Rx     001182E9  5  01 00 00 E9 82 
   107)     10118.8  Rx     0001DAF8  7  01 00 00 0F 03 F8 DA 
   108)     10118.9  Rx     0011DAF8  5  01 00 00 F8 DA 
   109)     10123.8  Rx     00011F9F  7  01 00 00 0F 03 9F 1F 
   110)     10123.9  Rx     00111F9F  5  01 00 00 9F 1F 
   111)     10128.8  Rx     00010A12  7  01 00 00 0F 03 12 0A 
   112)     10128.9  Rx     00110A12  5  01 00 00 12 0A 
   113)     10133.8  Rx     0001AC6C  7  01 00 00 0F 03 6C AC 
   114)     10133.9  Rx     0011AC6C  5  01 00 00 6C AC 
   115)     10138.8  Rx     00013EFE  7  01 00 00 0F 03 FE 3E 
   116)     10138.9  Rx     00113EFE  5  01 00 00 FE 3E 
   117)     10143.8  Rx     000140DA  7  01 00 00 0F 03 DA 40 
   118)     10143.9  Rx     001140DA  5  01 00 00 DA 40 
   119)     10148.8  Rx     000136BD  7  01 00 00 0F 03 BD 36 
   120)     10148.9  Rx     001136BD  5  01 00 00 BD 36 
   121)     10153.8  Rx     00015A20  7  01 00 00 0F 03 20 5A 
   122)     10153.9  Rx     00115A20  5  01 00 00 20 5A 
   123)     10158.8  Rx     0001F985  7  01 00 00 0F 03 85 F9 
   124)     10158.9  Rx     0011F985  5  01 00 00 85 F9 
   125)     10163.8  Rx     000161D1  7  01 00 00 0F 03 D1 61 
   126)     10163.9  Rx     001161D1  5  01 00 00 D1 61 
   127)     10168.8  Rx     0001639E  7  01 00 00 0F 03 9E 63 
   128)     10168.9  Rx     0011639E  5  01 00 00 9E 63 
   129)     10173.8  Rx     00013229  7  01 00 00 0F 03 29 32 
   130)     10173.9  Rx     00113229  5  01 00 00 29 32 
   131)     10178.8  Rx     00010A7A  7  01 00 00 0F 03 7A 0A 
   132)     10178.9  Rx     00110A7A  5  01 00 00 7A 0A 
   133)     10183.8  Rx     00010AE5  7  01 00 00 0F 03 E5 0A 
   134)     10183.9  Rx     00110AE5  5  01 00 00 E5 0A 
   135)     10188.8  Rx     00017010  7  01 00 00 0F 03 10 70 
   136)     10188.9  Rx     00117010  5  01 00 00 10 70 
   137)     10193.8  Rx     0001F652  7  01 00 00 0F 03 52 F6 
   138)     10193.9  Rx     0011F652  5  01 00 00 52 F6 
   139)     10198.8  Rx     0001A249  7  01 00 00 0F 03 49 A2 
   140)     10198.9  Rx     0011A249  5  01 00 00 49 A2 
   141)     10203.8  Rx     0001D0F2  7  01 00 00 0F 03 F2 D0 
   142)     10203.9  Rx     0011D0F2  5  01 00 00 F2 D0 
   143)     10208.8  Rx     00013A09  7  01 00 00 0F 03 09 3A 
   144)     10208.9  Rx     00113A09  5  01 00 00 09 3A 
   145)     10213.8  Rx     000122EB  7  01 00 00 0F 03 EB 22 
   146)     10213.9  Rx     001122EB  5  01 00 00 EB 22 
   147)     10218.8  Rx     00015D0C  7  01 00 00 0F 03 0C 5D 
   148)     10218.9  Rx     00115D0C  5  01 00 00 0C 5D 
   149)     10223.8  Rx     00019918  7  01 00 00 0F 03 18 99 
   150)     10223.9  Rx     00119918  5  01 00 00 18 99 
   151)     10228.8  Rx     00011FB3  7  01 00 00 0F 03 B3 1F 
   152)     10228.9  Rx     00111FB3  5  01 00 00 B3 1F 
   153)     10233.8  Rx     0001D475  7  01 00 00 0F 03 75 D4 
   154)     10233.9  Rx     0011D475  5  01 00 00 75 D4 
   155)     10238.8  Rx     00013B7F  7  01 00 00 0F 03 7F 3B 
   156)     10238.9  Rx     00113B7F  5  01 00 00 7F 3B 
   157)     10243.8  Rx     0001F93F  7  01 00 00 0F 03 3F F9 
   158)     10243.9  Rx     0011F93F  5  01 00 00 3F F9 
   159)     10248.8  Rx     000184BE  7  01 00 00 0F 03 BE 84 
   160)     10248.9  Rx     001184BE  5  01 00 00 BE 84 
   161)     10253.8  Rx     0001ABFE  7  01 00 00 0F 03 FE AB 
   162)     10253.9  Rx     0011ABFE  5  01 00 00 FE AB 
   163)     10258.8  Rx     0001BDBA  7  01 00 00 0F 03 BA BD 
   164)     10258.9  Rx     0011BDBA  5  01 00 00 BA BD 
   165)     10263.8  Rx     00017157  7  01 00 00 0F 03 57 71 
   166)     10263.9  Rx     00117157  5  01 00 00 57 71 
   167)     10268.8  Rx     00018772  7  01 00 00 0F 03 72 87 
   168)     10268.9  Rx     00118772  5  01 00 00 72 87 
   169)     10273.8  Rx     00016E4D  7  01 00 00 0F 03 4D 6E 
   170)     10273.9  Rx     00116E4D  5  01 00 00 4D 6E 
   171)     10278.8  Rx     0001EB9D  7  01 00 00 0F 03 9D EB 
   172)     10278.9  Rx     0011EB9D  5  01 00 00 9D EB 
   173)     10283.8  Rx     0001D162  7  01 00 00 0F 03 62 D1 
   174)     10283.9  Rx     0011D162  5  01 00 00 62 D1 
   175)     10288.8  Rx     00015D87  7  01 00 00 0F 03 87 5D 
   176)     10288.9  Rx     00115D87  5  01 00 00 87 5D 
   177)     10293.8  Rx     0001FDBD  7  01 00 00 0F 03 BD FD 
   178)     10293.9  Rx     0011FDBD  5  01 00 00 BD FD 
   179)     10298.8  Rx     0001670A  7  01 00 00 0F 03 0A 67 
   180)     10298.9  Rx     0011670A  5  01 00 00 0A 67 
   181)     10303.8  Rx     00017C32  7  01 00 00 0F 03 32 7C 
   182)     10303.9  Rx     00117C32  5  01 00 00 32 7C 
   183)     10308.8  Rx     000114B4  7  01 00 00 0F 03 B4 14 
   184)     10308.9  Rx     001114B4  5  01 00 00 B4 14 
   185)     10313.8  Rx     000116E8  7  01 00 00 0F 03 E8 16 
   186)     10313.9  Rx     001116E8  5  01 00 00 E8 16 
   187)     10318.8  Rx     000183D4  7  01 00 00 0F 03 D4 83 
   188)     10318.9  Rx     001183D4  5  01 00 00 D4 83 
   189)     10323.8  Rx     0001C6F2  7  01 00 00 0F 03 F2 C6 
   190)     10323.9  Rx     0011C6F2  5  01 00 00 F2 C6 
   191)     10328.8  Rx     00010F07  7  01 00 00 0F 03 07 0F 
   192)     10328.9  Rx     00110F07  5  01 00 00 07 0F 
   193)     10333.8  Rx     0001280B  7  01 00 00 0F 03 0B 28 
   194)     10333.9  Rx     0011280B  5  01 00 00 0B 28 
   195)     10338.8  Rx     0001417A  7  01 00 00 0F 03 7A 41 
   196)     10338.9  Rx     0011417A  5  01 00 00 7A 41 
   197)     10343.8  Rx     00012965  7  01 00 00 0F 03 65 29 
   198)     10343.9  Rx     00112965  5  01 00 00 65 29 
   199)     10348.8  Rx     00017AFA  7  01 00 00 0F 03 FA 7A 
   200)     10348.9  Rx     00117AFA  5  01 00 00 FA 7A 
   201)     10353.8  Rx     00012323  7  01 00 00 0F 03 23 23 
   202)     10353.9  Rx     00112323  5  01 00 00 23 23 
   203)     10358.8  Rx     00017A92  7  01 00 00 0F 03 92 7A 
   204)     10358.9  Rx     00117A92  5  01 00 00 92 7A 
   205)     10363.8  Rx     0001B2F0  7  01 00 00 0F 03 F0 B2 
   206)     10363.9  Rx     0011B2F0  5  01 00 00 F0 B2 
   207)     10368.8  Rx     00011340  7  01 00 00 0F 03 40 13 
   208)     10368.9  Rx     00111340  5  01 00 00 40 13 
   209)     10373.8  Rx     00013ADA  7  01 00 00 0F 03 DA 3A 
   210)     10373.9  Rx     00113ADA  5  01 00 00 DA 3A 
   211)     10378.8  Rx     0001E206  7  01 00 00 0F 03 06 E2 
   212)     10378.9  Rx     0011E206  5  01 00 00 06 E2 
   213)     10383.8  Rx     00014059  7  01 00 00 0F 03 59 40 
   214)     10383.9  Rx     00114059  5  01 00 00 59 40 
   215)     10388.8  Rx     00018663  7  01 00 00 0F 03 63 86 
   216)     10388.9  Rx     00118663  5  01 00 00 63 86 
   217)     10393.8  Rx     0001CE24  7  01 00 00 0F 03 24 CE 
   218)     10393.9  Rx     0011CE24  5  01 00 00 24 CE 
   219)     10398.8  Rx     00010E00  7  01 00 00 0F 03 00 0E 
   220)     10398.9  Rx     00110E00  5  01 00 00 00 0E 
   221)     10403.8  Rx     0001DE4B  7  01 00 00 0F 03 4B DE 
   222)     10403.9  Rx     0011DE4B  5  01 00 00 4B DE 
   223)     10408.8  Rx     00011A0F  7  01 00 00 0F 03 0F 1A 
   224)     10408.9  Rx     00111A0F  5  01 00 00 0F 1A 
   225)     10413.8  Rx     000122A8  7  01 00 00 0F 03 A8 22 
   226)     10413.9  Rx     001122A8  5  01 00 00 A8 22 
   227)     10418.8  Rx     000190A5  7  01 00 00 0F 03 A5 90 
   228)     10418.9  Rx     001190A5  5  01 00 00 A5 90 
   229)     10423.8  Rx     000108A0  7  01 00 00 0F 03 A0 08 
   230)     10423.9  Rx     001108A0  5  01 00 00 A0 08 
   231)     10428.8  Rx     00013A2A  7  01 00 00 0F 03 2A 3A 
   232)     10428.9  Rx     00113A2A  5  01 00 00 2A 3A 
   233)     10433.8  Rx     000145DF  7  01 00 00 0F 03 DF 45 
   234)     10433.9  Rx     001145DF  5  01 00 00 DF 45 
   235)     10438.8  Rx     00011685  7  01 00 00 0F 03 85 16 
   236)     10438.9  Rx     00111685  5  01 00 00 85 16 
   237)     10443.8  Rx     0001065E  7  01 00 00 0F 03 5E 06 
   238)     10443.9  Rx     0011065E  5  01 00 00 5E 06 
   239)     10448.8  Rx     000103AB  7  01 00 00 0F 03 AB 03 
   240)     10448.9  Rx     001103AB  5  01 00 00 AB 03 
   241)     10453.8  Rx     0001C8FD  7  01 00 00 0F 03 FD C8 
   242)     10453.9  Rx     0011C8FD  5  01 00 00 FD C8 
   243)     10458.8  Rx     00014ECD  7  01 00 00 0F 03 CD 4E 
   244)     10458.9  Rx     00114ECD  5  01 00 00 CD 4E 
   245)     10463.8  Rx     0001327D  7  01 00 00 0F 03 7D 32 
   246)     10463.9  Rx     0011327D  5  01 00 00 7D 32 
   247)     10468.8  Rx     0001CF26  7  01 00 00 0F 03 26 CF 
   248)     10468.9  Rx     0011CF26  5  01 00 00 26 CF 
   249)     10473.8  Rx     0001AB92  7  01 00 00 0F 03 92 AB 
   250)     10473.9  Rx     0011AB92  5  01 00 00 92 AB 
   251)     10478.8  Rx     00012540  7  01 00 00 0F 03 40 25 
   252)     10478.9  Rx     00112540  5  01 00 00 40 25 
   253)     10483.7  Rx     0001516D  7  01 00 00 0F 03 6D 51 
   254)     10483.8  Rx     0011516D  5  01 00 00 6D 51 
   255)     10488.7  Rx     0001D729  7  01 00 00 0F 03 29 D7 
   256)     10488.8  Rx     0011D729  5  01 00 00 29 D7 
   257)     10493.7  Rx     000108EE  7  01 00 00 0F 03 EE 08 
   258)     10493.8  Rx     001108EE  5  01 00 00 EE 08 
   259)     10498.7  Rx     0001B9EB  7  01 00 00 0F 03 EB B9 
   260)     10498.8  Rx     0011B9EB  5  01 00 00 EB B9 
   261)     10503.7  Rx     0001E35A  7  01 00 00 0F 03 5A E3 
   262)     10503.8  Rx     0011E35A  5  01 00 00 5A E3 
   263)     10508.7  Rx     0001A649  7  01 00 00 0F 03 49 A6 
   264)     10508.8  Rx     0011A649  5  01 00 00 49 A6 
   265)     10513.7  Rx     00010C48  7  01 00 00 0F 03 48 0C 
   266)     10513.8  Rx     00110C48  5  01 00 00 48 0C 
   267)     10518.7  Rx     00017E92  7  01 00 00 0F 03 92 7E 
   268)     10518.8  Rx     00117E92  5  01 00 00 92 7E 
   269)     10523.7  Rx     0001632C  7  01 00 00 0F 03 2C 63 
   270)     10523.8  Rx     0011632C  5  01 00 00 2C 63 
   271)     10528.7  Rx     0001CCFB  7  01 00 00 0F 03 FB CC 
   272)     10528.8  Rx     0011CCFB  5  01 00 00 FB CC 
   273)     10533.7  Rx     0001A79D  7  01 00 00 0F 03 9D A7 
   274)     10533.8  Rx     0011A79D  5  01 00 00 9D A7 
   275)     10538.7  Rx     000131EB  7  01 00 00 0F 03 EB 31 
   276)     10538.8  Rx     001131EB  5  01 00 00 EB 31 
   277)     10543.7  Rx     0001AA4F  7  01 00 00 0F 03 4F AA 
   278)     10543.8  Rx     0011AA4F  5  01 00 00 4F AA 
   279)     10548.7  Rx     00015723  7  01 00 00 0F 03 23 57 
   280)     10548.8  Rx     00115723  5  01 00 00 23 57 
   281)     10553.7  Rx     00016959  7  01 00 00 0F 03 59 69 
   282)     10553.8  Rx     00116959  5  01 00 00 59 69 
   283)     10558.7  Rx     00010C92  7  01 00 00 0F 03 92 0C 
   284)     10558.8  Rx     00110C92  5  01 00 00 92 0C 
   285)     10563.7  Rx     00013937  7  01 00 00 0F 03 37 39 
   286)     10563.8  Rx     00113937  5  01 00 00 37 39 
   287)     10568.7  Rx     0001596C  7  01 00 00 0F 03 6C 59 
   288)     10568.8  Rx     0011596C  5  01 00 00 6C 59 
   289)     10573.7  Rx     000154B7  7  01 00 00 0F 03 B7 54 
   290)     10573.8  Rx     001154B7  5  01 00 00 B7 54 
   291)     10578.7  Rx     0001BFB6  7  01 00 00 0F 03 B6 BF 
   292)     10578.8  Rx     0011BFB6  5  01 00 00 B6 BF 
   293)     10583.7  Rx     000188A2  7  01 00 00 0F 03 A2 88 
   294)     10583.8  Rx     001188A2  5  01 00 00 A2 88 
   295)     10588.7  Rx     0001A25C  7  01 00 00 0F 03 5C A2 
   296)     10588.8  Rx     0011A25C  5  01 00 00 5C A2 
   297)     10593.7  Rx     0001A8E8  7  01 00 00 0F 03 E8 A8 
   298)     10593.8  Rx     0011A8E8  5  01 00 00 E8 A8 
   299)     10598.7  Rx     00017996  7  01 00 00 0F 03 96 79 
   300)     10598.8  Rx     00117996  5  01 00 00 96 79 
   301)     10603.7  Rx     00015B9B  7  01 00 00 0F 03 9B 5B 
   302)     10603.8  Rx     00115B9B  5  01 00 00 9B 5B 
   303)     10608.7  Rx     00011B26  7  01 00 00 0F 03 26 1B 
   304)     10608.8  Rx     00111B26  5  01 00 00 26 1B 
   305)     10613.7  Rx     0001BEF4  7  01 00 00 0F 03 F4 BE 
   306)     10613.8  Rx     0011BEF4  5  01 00 00 F4 BE 
   307)     10618.7  Rx     000113AF  7  01 00 00 0F 03 AF 13 
   308)     10618.8  Rx     001113AF  5  01 00 00 AF 13 
   309)     10623.7  Rx     0001FA41  7  01 00 00 0F 03 41 FA 
   310)     10623.8  Rx     0011FA41  5  01 00 00 41 FA 
   311)     10628.7  Rx     00017C3D  7  01 00 00 0F 03 3D 7C 
   312)     10628.8  Rx     00117C3D  5  01 00 00 3D 7C 
   313)     10633.7  Rx     0001B663  7  01 00 00 0F 03 63 B6 
   314)     10633.8  Rx     0011B663  5  01 00 00 63 B6 
   315)     10638.7  Rx     00010AB1  7  01 00 00 0F 03 B1 0A 
   316)     10638.8  Rx     00110AB1  5  01 00 00 B1 0A 
   317)     10643.7  Rx     0001A94C  7  01 00 00 0F 03 4C A9 
   318)     10643.8  Rx     0011A94C  5  01 00 00 4C A9 
   319)     10648.7  Rx     0001D5AC  7  01 00 00 0F 03 AC D5 
   320)     10648.8  Rx     0011D5AC  5  01 00 00 AC D5 
   321)     10653.7  Rx     0001749B  7  01 00 00 0F 03 9B 74 
   322)     10653.8  Rx     0011749B  5  01 00 00 9B 74 
   323)     10658.7  Rx     00019C35  7  01 00 00 0F 03 35 9C 
   324)     10658.8  Rx     00119C35  5  01 00 00 35 9C 
   325)     10663.7  Rx     0001D64A  7  01 00 00 0F 03 4A D6 
   326)     10663.8  Rx     0011D64A  5  01 00 00 4A D6 
   327)     10668.7  Rx     00010F27  7  01 00 00 0F 03 27 0F 
   328)     10668.8  Rx     00110F27  5  01 00 00 27 0F 
   329)     10673.7  Rx     00015707  7  01 00 00 0F 03 07 57 
   330)     10673.8  Rx     00115707  5  01 00 00 07 57 
   331)     10678.7  Rx     0001CA30  7  01 00 00 0F 03 30 CA 
   332)     10678.8  Rx     0011CA30  5  01 00 00 30 CA 
   333)     10683.7  Rx     000180AC  7  01 00 00 0F 03 AC 80 
   334)     10683.8  Rx     001180AC  5  01 00 00 AC 80 
   335)     10688.7  Rx     00018BE0  7  01 00 00 0F 03 E0 8B 
   336)     10688.8  Rx     00118BE0  5  01 00 00 E0 8B 
   337)     10693.7  Rx     000103FC  7  01 00 00 0F 03 FC 03 
   338)     10693.8  Rx     001103FC  5  01 00 00 FC 03 
   339)     10698.7  Rx     00017024  7  01 00 00 0F 03 24 70 
   340)     10698.8  Rx     00117024  5  01 00 00 24 70 
   341)     10703.7  Rx     00017784  7  01 00 00 0F 03 84 77 
   342)     10703.8  Rx     00117784  5  01 00 00 84 77 
   343)     10708.7  Rx     0001AA1A  7  01 00 00 0F 03 1A AA 
   344)     10708.8  Rx     0011AA1A  5  01 00 00 1A AA 
   345)     10713.7  Rx     00014A5A  7  01 00 00 0F 03 5A 4A 
   346)     10713.8  Rx     00114A5A  5  01 00 00 5A 4A 
   347)     10718.7  Rx     0001621B  7  01 00 00 0F 03 1B 62 
   348)     10718.8  Rx     0011621B  5  01 00 00 1B 62 
   349)     10723.7  Rx     0001AC0B  7  01 00 00 0F 03 0B AC 
   350)     10723.8  Rx     0011AC0B  5  01 00 00 0B AC 
   351)     10728.7  Rx     0001667E  7  01 00 00 0F 03 7E 66 
   352)     10728.8  Rx     0011667E  5  01 00 00 7E 66 
   353)     10733.7  Rx     0001DFF4  7  01 00 00 0F 03 F4 DF 
   354)     10733.8  Rx     0011DFF4  5  01 00 00 F4 DF 
   355)     10738.7  Rx     00015D54  7  01 00 00 0F 03 54 5D 
   356)     10738.8  Rx     00115D54  5  01 00 00 54 5D 
   357)     10743.7  Rx     000198E3  7  01 00 00 0F 03 E3 98 
   358)     10743.8  Rx     001198E3  5  01 00 00 E3 98 
   359)     10748.7  Rx     0001D730  7  01 00 00 0F 03 30 D7 
   360)     10748.8  Rx     0011D730  5  01 00 00 30 D7 
   361)     10753.7  Rx     00013EAF  7  01 00 00 0F 03 AF 3E 
   362)     10753.8  Rx     00113EAF  5  01 00 00 AF 3E 
   363)     10758.7  Rx     000132BA  7  01 00 00 0F 03 BA 32 
   364)     10758.8  Rx     001132BA  5  01 00 00 BA 32 
   365)     10763.7  Rx     00016E21  7  01 00 00 0F 03 21 6E 
   366)     10763.8  Rx     00116E21  5  01 00 00 21 6E 
   367)     10768.7  Rx     0001C69F  7  01 00 00 0F 03 9F C6 
   368)     10768.8  Rx     0011C69F  5  01 00 00 9F C6 
   369)     10773.7  Rx     00016C6C  7  01 00 00 0F 03 6C 6C 
   370)     10773.8  Rx     00116C6C  5  01 00 00 6C 6C 
   371)     10778.7  Rx     0001D319  7  01 00 00 0F 03 19 D3 
   372)     10778.8  Rx     0011D319  5  01 00 00 19 D3 
   373)     10783.7  Rx     00017608  7  01 00 00 0F 03 08 76 
   374)     10783.8  Rx     00117608  5  01 00 00 08 76 
   375)     10788.7  Rx     0001421F  7  01 00 00 0F 03 1F 42 
   376)     10788.8  Rx     0011421F  5  01 00 00 1F 42 
   377)     10793.7  Rx     0001D5A6  7  01 00 00 0F 03 A6 D5 
   378)     10793.8  Rx     0011D5A6  5  01 00 00 A6 D5 
   379)     10798.7  Rx     0001510E  7  01 00 00 0F 03 0E 51 
   380)     10798.8  Rx     0011510E  5  01 00 00 0E 51 
   381)     10803.7  Rx     00016695  7  01 00 00 0F 03 95 66 
   382)     10803.8  Rx     00116695  5  01 00 00 95 66 
   383)     10808.7  Rx     00013038  7  01 00 00 0F 03 38 30 
   384)     10808.8  Rx     00113038  5  01 00 00 38 30 
   385)     10813.7  Rx     00010ADA  7  01 00 00 0F 03 DA 0A 
   386)     10813.8  Rx     00110ADA  5  01 00 00 DA 0A 
   387)     10818.7  Rx     000100C1  7  01 00 00 0F 03 C1 00 
   388)     10818.8  Rx     001100C1  5  01 00 00 C1 00 
   389)     10823.7  Rx     0001ABBF  7  01 00 00 0F 03 BF AB 
   390)     10823.8  Rx     0011ABBF  5  01 00 00 BF AB 
   391)     10828.7  Rx     0001D6BB  7  01 00 00 0F 03 BB D6 
   392)     10828.8  Rx     0011D6BB  5  01 00 00 BB D6 
   393)     10833.7  Rx     00019CA9  7  01 00 00 0F 03 A9 9C 
   394)     10833.8  Rx     00119CA9  5  01 00 00 A9 9C 
   395)     10838.7  Rx     00017D54  7  01 00 00 0F 03 54 7D 
   396)     10838.8  Rx     00117D54  5  01 00 00 54 7D 
   397)     10843.7  Rx     0001B27A  7  01 00 00 0F 03 7A B2 
   398)     10843.8  Rx     0011B27A  5  01 00 00 7A B2 
   399)     10848.7  Rx     00016899  7  01 00 00 0F 03 99 68 
   400)     10848.8  Rx     00116899  5  01 00 00 99 68 
   401)     10853.7  Rx     0001F2BE  7  01 00 00 0F 03 BE F2 
   402)     10853.8  Rx     0011F2BE  5  01 00 00 BE F2 
   403)     10858.7  Rx     0001BC19  7  01 00 00 0F 03 19 BC 
   404)     10858.8  Rx     0011BC19  5  01 00 00 19 BC 
   405)     10863.7  Rx     0001447F  7  01 00 00 0F 03 7F 44 
   406)     10863.8  Rx     0011447F  5  01 00 00 7F 44 
   407)     10868.7  Rx     0001AB72  7  01 00 00 0F 03 72 AB 
   408)     10868.8  Rx     0011AB72  5  01 00 00 72 AB 
   409)     10873.7  Rx     00010D70  7  01 00 00 0F 03 70 0D 
   410)     10873.8  Rx     00110D70  5  01 00 00 70 0D 
   411)     10878.7  Rx     00012586  7  01 00 00 0F 03 86 25 
   412)     10878.8  Rx     00112586  5  01 00 00 86 25 
   413)     10883.7  Rx     0001DCCD  7  01 00 00 0F 03 CD DC 
   414)     10883.8  Rx     0011DCCD  5  01 00 00 CD DC 
   415)     10888.7  Rx     00015CEE  7  01 00 00 0F 03 EE 5C 
   416)     10888.8  Rx     00115CEE  5  01 00 00 EE 5C 
   417)     10893.7  Rx     00016626  7  01 00 00 0F 03 26 66 
   418)     10893.8  Rx     00116626  5  01 00 00 26 66 
   419)     10898.7  Rx     00018FE8  7  01 00 00 0F 03 E8 8F 
   420)     10898.8  Rx     00118FE8  5  01 00 00 E8 8F 
   421)     10903.7  Rx     0001D4ED  7  01 00 00 0F 03 ED D4 
   422)     10903.8  Rx     0011D4ED  5  01 00 00 ED D4 
   423)     10908.7  Rx     0001FBCE  7  01 00 00 0F 03 CE FB 
   424)     10908.8  Rx     0011FBCE  5  01 00 00 CE FB 
   425)     10913.7  Rx     0001A27D  7  01 00 00 0F 03 7D A2 
   426)     10913.8  Rx     0011A27D  5  01 00 00 7D A2 
   427)     10918.7  Rx     00016BD9  7  01 00 00 0F 03 D9 6B 
   428)     10918.8  Rx     00116BD9  5  01 00 00 D9 6B 
   429)     10923.7  Rx     0001E2F8  7  01 00 00 0F 03 F8 E2 
   430)     10923.8  Rx     0011E2F8  5  01 00 00 F8 E2 
   431)     10928.7  Rx     000120C0  7  01 00 00 0F 03 C0 20 
   432)     10928.8  Rx     001120C0  5  01 00 00 C0 20 
   433)     10933.7  Rx     0001822B  7  01 00 00 0F 03 2B 82 
   434)     10933.8  Rx     0011822B  5  01 00 00 2B 82 
   435)     10938.7  Rx     0001B272  7  01 00 00 0F 03 72 B2 
   436)     10938.8  Rx     0011B272  5  01 00 00 72 B2 
   437)     10943.7  Rx     00014059  7  01 00 00 0F 03 59 40 
   438)     10943.8  Rx     00114059  5  01 00 00 59 40 
   439)     10948.7  Rx     00013EF6  7  01 00 00 0F 03 F6 3E 
   440)     10948.8  Rx     00113EF6  5  01 00 00 F6 3E 
   441)     10953.7  Rx     0001ABA1  7  01 00 00 0F 03 A1 AB 
   442)     10953.8  Rx     0011ABA1  5  01 00 00 A1 AB 
   443)     10958.7  Rx     0001193F  7  01 00 00 0F 03 3F 19 
   444)     10958.8  Rx     0011193F  5  01 00 00 3F 19 
   445)     10963.7  Rx     00012952  7  01 00 00 0F 03 52 29 
   446)     10963.8  Rx     00112952  5  01 00 00 52 29 
   447)     10968.7  Rx     00010875  7  01 00 00 0F 03 75 08 
   448)     10968.8  Rx     00110875  5  01 00 00 75 08 
   449)     10973.7  Rx     00016772  7  01 00 00 0F 03 72 67 
   450)     10973.8  Rx     00116772  5  01 00 00 72 67 
   451)     10978.7  Rx     00010BF6  7  01 00 00 0F 03 F6 0B 
   452)     10978.8  Rx     00110BF6  5  01 00 00 F6 0B 
   453)     10983.7  Rx     0001F540  7  01 00 00 0F 03 40 F5 
   454)     10983.8  Rx     0011F540  5  01 00 00 40 F5 
   455)     10988.7  Rx     00011E2D  7  01 00 00 0F 03 2D 1E 
   456)     10988.8  Rx     00111E2D  5  01 00 00 2D 1E 
   457)     10993.7  Rx     00018275  7  01 00 00 0F 03 75 82 
   458)     10993.8  Rx     00118275  5  01 00 00 75 82 
   459)     10998.7  Rx     0001BBE7  7  01 00 00 0F 03 E7 BB 
   460)     10998.8  Rx     0011BBE7  5  01 00 00 E7 BB 
   461)     11003.7  Rx     0001939D  7  01 00 00 0F 03 9D 93 
   462)     11003.8  Rx     0011939D  5  01 00 00 9D 93 
   463)     11008.7  Rx     00018FCC  7  01 00 00 0F 03 CC 8F 
   464)     11008.8  Rx     00118FCC  5  01 00 00 CC 8F 
   465)     11013.7  Rx     000116AC  7  01 00 00 0F 03 AC 16 
   466)     11013.8  Rx     001116AC  5  01 00 00 AC 16 
   467)     11018.7  Rx     00013531  7  01 00 00 0F 03 31 35 
   468)     11018.8  Rx     00113531  5  01 00 00 31 35 
   469)     11023.7  Rx     0001BDC8  7  01 00 00 0F 03 C8 BD 
   470)     11023.8  Rx     0011BDC8  5  01 00 00 C8 BD 
   471)     11028.7  Rx     00016B51  7  01 00 00 0F 03 51 6B 
   472)     11028.8  Rx     00116B51  5  01 00 00 51 6B 
   473)     11033.7  Rx     00015EE2  7  01 00 00 0F 03 E2 5E 
   474)     11033.8  Rx     00115EE2  5  01 00 00 E2 5E 
   475)     11038.6  Rx     000175B8  7  01 00 00 0F 03 B8 75 
   476)     11038.8  Rx     001175B8  5  01 00 00 B8 75 
   477)     11043.7  Rx     00016187  7  01 00 00 0F 03 87 61 
   478)     11043.8  Rx     00116187  5  01 00 00 87 61 
   479)     11048.7  Rx     00015C62  7  01 00 00 0F 03 62 5C 
   480)     11048.8  Rx     00115C62  5  01 00 00 62 5C 
   481)     11053.7  Rx     00018116  7  01 00 00 0F 03 16 81 
   482)     11053.8  Rx     00118116  5  01 00 00 16 81 
   483)     11058.7  Rx     000175D9  7  01 00 00 0F 03 D9 75 
   484)     11058.8  Rx     001175D9  5  01 00 00 D9 75 
   485)     11063.7  Rx     0001D847  7  01 00 00 0F 03 47 D8 
   486)     11063.8  Rx     0011D847  5  01 00 00 47 D8 
   487)     11068.6  Rx     00012B5D  7  01 00 00 0F 03 5D 2B 
   488)     11068.8  Rx     00112B5D  5  01 00 00 5D 2B 
   489)     11073.7  Rx     00016F9A  7  01 00 00 0F 03 9A 6F 
   490)     11073.8  Rx     00116F9A  5  01 00 00 9A 6F 
   491)     11078.7  Rx     000136DA  7  01 00 00 0F 03 DA 36 
   492)     11078.8  Rx     001136DA  5  01 00 00 DA 36 
   493)     11083.7  Rx     00015729  7  01 00 00 0F 03 29 57 
   494)     11083.8  Rx     00115729  5  01 00 00 29 57 
   495)     11088.7  Rx     00015030  7  01 00 00 0F 03 30 50 
   496)     11088.8  Rx     00115030  5  01 00 00 30 50 
   497)     11093.6  Rx     000198FA  7  01 00 00 0F 03 FA 98 
   498)     11093.8  Rx     001198FA  5  01 00 00 FA 98 
   499)     11098.7  Rx     0001CB23  7  01 00 00 0F 03 23 CB 
   500)     11098.8  Rx     0011CB23  5  01 00 00 23 CB 
   501)     11103.7  Rx     000107BD  7  01 00 00 0F 03 BD 07 
   502)     11103.8  Rx     001107BD  5  01 00 00 BD 07 
   503)     11108.7  Rx     000190E8  7  01 00 00 0F 03 E8 90 
   504)     11108.8  Rx     001190E8  5  01 00 00 E8 90 
   505)     11113.7  Rx     0001D69D  7  01 00 00 0F 03 9D D6 
   506)     11113.8  Rx     0011D69D  5  01 00 00 9D D6 
   507)     11118.6  Rx     0001802D  7  01 00 00 0F 03 2D 80 
   508)     11118.8  Rx     0011802D  5  01 00 00 2D 80 
   509)     11123.6  Rx     0001958B  7  01 00 00 0F 03 8B 95 
   510)     11123.8  Rx     0011958B  5  01 00 00 8B 95 
   511)     11128.7  Rx     0001780B  7  01 00 00 0F 03 0B 78 
   512)     11128.8  Rx     0011780B  5  01 00 00 0B 78 
   513)     11133.7  Rx     00012E2C  7  01 00 00 0F 03 2C 2E 
   514)     11133.8  Rx     00112E2C  5  01 00 00 2C 2E 
   515)     11138.7  Rx     0001DA3D  7  01 00 00 0F 03 3D DA 
   516)     11138.8  Rx     0011DA3D  5  01 00 00 3D DA 
   517)     11143.6  Rx     00015C55  7  01 00 00 0F 03 55 5C 
   518)     11143.8  Rx     00115C55  5  01 00 00 55 5C 
   519)     11148.6  Rx     000102A5  7  01 00 00 0F 03 A5 02 
   520)     11148.8  Rx     001102A5  5  01 00 00 A5 02 
   521)     11153.6  Rx     0001A1B5  7  01 00 00 0F 03 B5 A1 
   522)     11153.8  Rx     0011A1B5  5  01 00 00 B5 A1 
   523)     11158.7  Rx     00019DD0  7  01 00 00 0F 03 D0 9D 
   524)     11158.8  Rx     00119DD0  5  01 00 00 D0 9D 
   525)     11163.7  Rx     0001BF1D  7  01 00 00 0F 03 1D BF 
   526)     11163.8  Rx     0011BF1D  5  01 00 00 1D BF 
   527)     11168.7  Rx     00011222  7  01 00 00 0F 03 22 12 
   528)     11168.8  Rx     00111222  5  01 00 00 22 12 
   529)     11173.6  Rx     0001068E  7  01 00 00 0F 03 8E 06 
   530)     11173.8  Rx     0011068E  5  01 00 00 8E 06 
   531)     11178.6  Rx     0001FAD4  7  01 00 00 0F 03 D4 FA 
   532)     11178.8  Rx     0011FAD4  5  01 00 00 D4 FA 
   533)     11183.7  Rx     000177E8  7  01 00 00 0F 03 E8 77 
   534)     11183.8  Rx     001177E8  5  01 00 00 E8 77 
   535)     11188.7  Rx     000115E1  7  01 00 00 0F 03 E1 15 
   536)     11188.7  Rx     001115E1  5  01 00 00 E1 15 
   537)     11193.7  Rx     0001CEF9  7  01 00 00 0F 03 F9 CE 
   538)     11193.8  Rx     0011CEF9  5  01 00 00 F9 CE 
   539)     11198.6  Rx     00017D9B  7  01 00 00 0F 03 9B 7D 
   540)     11198.8  Rx     00117D9B  5  01 00 00 9B 7D 
   541)     11203.6  Rx     0001DC3F  7  01 00 00 0F 03 3F DC 
   542)     11203.8  Rx     0011DC3F  5  01 00 00 3F DC 
   543)     11208.6  Rx     00018883  7  01 00 00 0F 03 83 88 
   544)     11208.8  Rx     00118883  5  01 00 00 83 88 
   545)     11213.7  Rx     0001DA8C  7  01 00 00 0F 03 8C DA 
   546)     11213.7  Rx     0011DA8C  5  01 00 00 8C DA 
   547)     11218.7  Rx     0001358F  7  01 00 00 0F 03 8F 35 
   548)     11218.7  Rx     0011358F  5  01 00 00 8F 35 
   549)     11223.6  Rx     00014E7A  7  01 00 00 0F 03 7A 4E 
   550)     11223.8  Rx     00114E7A  5  01 00 00 7A 4E 
   551)     11228.6  Rx     00018D07  7  01 00 00 0F 03 07 8D 
   552)     11228.8  Rx     00118D07  5  01 00 00 07 8D 
   553)     11233.6  Rx     00014D4E  7  01 00 00 0F 03 4E 4D 
   554)     11233.8  Rx     00114D4E  5  01 00 00 4E 4D 
   555)     11238.7  Rx     0001B9A6  7  01 00 00 0F 03 A6 B9 
   556)     11238.8  Rx     0011B9A6  5  01 00 00 A6 B9 
   557)     11243.7  Rx     000167BB  7  01 00 00 0F 03 BB 67 
   558)     11243.7  Rx     001167BB  5  01 00 00 BB 67 
   559)     11248.7  Rx     00017797  7  01 00 00 0F 03 97 77 
   560)     11248.7  Rx     00117797  5  01 00 00 97 77 
   561)     11253.6  Rx     000151A0  7  01 00 00 0F 03 A0 51 
   562)     11253.8  Rx     001151A0  5  01 00 00 A0 51 
   563)     11258.6  Rx     00014293  7  01 00 00 0F 03 93 42 
   564)     11258.8  Rx     00114293  5  01 00 00 93 42 
   565)     11263.6  Rx     00015EBA  7  01 00 00 0F 03 BA 5E 
   566)     11263.8  Rx     00115EBA  5  01 00 00 BA 5E 
   567)     11268.7  Rx     00015A1F  7  01 00 00 0F 03 1F 5A 
   568)     11268.7  Rx     00115A1F  5  01 00 00 1F 5A 
   569)     11273.7  Rx     0001F8E1  7  01 00 00 0F 03 E1 F8 
   570)     11273.8  Rx     0011F8E1  5  01 00 00 E1 F8 
   571)     11278.6  Rx     0001AAC0  7  01 00 00 0F 03 C0 AA 
   572)     11278.8  Rx     0011AAC0  5  01 00 00 C0 AA 
   573)     11283.6  Rx     00014B46  7  01 00 00 0F 03 46 4B 
   574)     11283.8  Rx     00114B46  5  01 00 00 46 4B 
   575)     11288.6  Rx     0001A4A1  7  01 00 00 0F 03 A1 A4 
   576)     11288.8  Rx     0011A4A1  5  01 00 00 A1 A4 
   577)     11293.7  Rx     0001FED0  7  01 00 00 0F 03 D0 FE 
   578)     11293.7  Rx     0011FED0  5  01 00 00 D0 FE 
   579)     11298.7  Rx     00018FFD  7  01 00 00 0F 03 FD 8F 
   580)     11298.7  Rx     00118FFD  5  01 00 00 FD 8F 
   581)     11303.6  Rx     00018286  7  01 00 00 0F 03 86 82 
   582)     11303.8  Rx     00118286  5  01 00 00 86 82 
   583)     11308.6  Rx     0001A94A  7  01 00 00 0F 03 4A A9 
   584)     11308.8  Rx     0011A94A  5  01 00 00 4A A9 
   585)     11313.6  Rx     0001A3AF  7  01 00 00 0F 03 AF A3 
   586)     11313.8  Rx     0011A3AF  5  01 00 00 AF A3 
   587)     11318.6  Rx     00014EF8  7  01 00 00 0F 03 F8 4E 
   588)     11318.8  Rx     00114EF8  5  01 00 00 F8 4E 
   589)     11323.7  Rx     0001DC03  7  01 00 00 0F 03 03 DC 
   590)     11323.7  Rx     0011DC03  5  01 00 00 03 DC 
   591)     11328.6  Rx     00011843  7  01 00 00 0F 03 43 18 
   592)     11328.7  Rx     00111843  5  01 00 00 43 18 
   593)     11333.6  Rx     0001692B  7  01 00 00 0F 03 2B 69 
   594)     11333.7  Rx     0011692B  5  01 00 00 2B 69 
   595)     11338.6  Rx     0001286B  7  01 00 00 0F 03 6B 28 
   596)     11338.8  Rx     0011286B  5  01 00 00 6B 28 
   597)     11343.6  Rx     00011365  7  01 00 00 0F 03 65 13 
   598)     11343.8  Rx     00111365  5  01 00 00 65 13 
   599)     11348.6  Rx     0001C748  7  01 00 00 0F 03 48 C7 
   600)     11348.7  Rx     0011C748  5  01 00 00 48 C7 
   601)     11353.7  Rx     000105FD  7  01 00 00 0F 03 FD 05 
   602)     11353.7  Rx     001105FD  5  01 00 00 FD 05 
   603)     11358.6  Rx     00015017  7  01 00 00 0F 03 17 50 
   604)     11358.7  Rx     00115017  5  01 00 00 17 50 
   605)     11363.6  Rx     0001F2FF  7  01 00 00 0F 03 FF F2 
   606)     11363.8  Rx     0011F2FF  5  01 00 00 FF F2 
   607)     11368.6  Rx     0001FCF9  7  01 00 00 0F 03 F9 FC 
   608)     11368.8  Rx     0011FCF9  5  01 00 00 F9 FC 
   609)     11373.6  Rx     00010C50  7  01 00 00 0F 03 50 0C 
   610)     11373.7  Rx     00110C50  5  01 00 00 50 0C 
   611)     11378.6  Rx     0001E573  7  01 00 00 0F 03 73 E5 
   612)     11378.7  Rx     0011E573  5  01 00 00 73 E5 
   613)     11383.6  Rx     0001CF0C  7  01 00 00 0F 03 0C CF 
   614)     11383.7  Rx     0011CF0C  5  01 00 00 0C CF 
   615)     11388.6  Rx     00013BF3  7  01 00 00 0F 03 F3 3B 
   616)     11388.8  Rx     00113BF3  5  01 00 00 F3 3B 
   617)     11393.6  Rx     0001D6E0  7  01 00 00 0F 03 E0 D6 
   618)     11393.8  Rx     0011D6E0  5  01 00 00 E0 D6 
   619)     11398.6  Rx     00011A23  7  01 00 00 0F 03 23 1A 
   620)     11398.7  Rx     00111A23  5  01 00 00 23 1A 
   621)     11403.6  Rx     0001B9B6  7  01 00 00 0F 03 B6 B9 
   622)     11403.7  Rx     0011B9B6  5  01 00 00 B6 B9 
   623)     11408.6  Rx     0001A99C  7  01 00 00 0F 03 9C A9 
   624)     11408.7  Rx     0011A99C  5  01 00 00 9C A9 
   625)     11413.6  Rx     000148E6  7  01 00 00 0F 03 E6 48 
   626)     11413.7  Rx     001148E6  5  01 00 00 E6 48 
   627)     11418.6  Rx     0001362A  7  01 00 00 0F 03 2A 36 
   628)     11418.8  Rx     0011362A  5  01 00 00 2A 36 
   629)     11423.6  Rx     0001E7DA  7  01 00 00 0F 03 DA E7 
   630)     11423.8  Rx     0011E7DA  5  01 00 00 DA E7 
   631)     11428.6  Rx     0001B8C1  7  01 00 00 0F 03 C1 B8 
   632)     11428.7  Rx     0011B8C1  5  01 00 00 C1 B8 
   633)     11433.6  Rx     0001ACB6  7  01 00 00 0F 03 B6 AC 
   634)     11433.7  Rx     0011ACB6  5  01 00 00 B6 AC 
   635)     11438.6  Rx     0001B5DE  7  01 00 00 0F 03 DE B5 
   636)     11438.7  Rx     0011B5DE  5  01 00 00 DE B5 
   637)     11443.6  Rx     0001E68C  7  01 00 00 0F 03 8C E6 
   638)     11443.7  Rx     0011E68C  5  01 00 00 8C E6 
   639)     11448.6  Rx     0001AFE1  7  01 00 00 0F 03 E1 AF 
   640)     11448.8  Rx     0011AFE1  5  01 00 00 E1 AF 
   641)     11453.6  Rx     00017925  7  01 00 00 0F 03 25 79 
   642)     11453.7  Rx     00117925  5  01 00 00 25 79 
   643)     11458.6  Rx     0001459F  7  01 00 00 0F 03 9F 45 
   644)     11458.7  Rx     0011459F  5  01 00 00 9F 45 
   645)     11463.6  Rx     0001015C  7  01 00 00 0F 03 5C 01 
   646)     11463.7  Rx     0011015C  5  01 00 00 5C 01 
   647)     11468.6  Rx     00012B46  7  01 00 00 0F 03 46 2B 
   648)     11468.7  Rx     00112B46  5  01 00 00 46 2B 
   649)     11473.6  Rx     00011DAB  7  01 00 00 0F 03 AB 1D 
   650)     11473.7  Rx     00111DAB  5  01 00 00 AB 1D 
   651)     11478.6  Rx     0001E746  7  01 00 00 0F 03 46 E7 
   652)     11478.7  Rx     0011E746  5  01 00 00 46 E7 
   653)     11483.6  Rx     00018D55  7  01 00 00 0F 03 55 8D 
   654)     11483.7  Rx     00118D55  5  01 00 00 55 8D 
   655)     11488.6  Rx     0001C6D7  7  01 00 00 0F 03 D7 C6 
   656)     11488.7  Rx     0011C6D7  5  01 00 00 D7 C6 
   657)     11493.6  Rx     0001E14C  7  01 00 00 0F 03 4C E1 
   658)     11493.7  Rx     0011E14C  5  01 00 00 4C E1 
   659)     11498.6  Rx     0001E95D  7  01 00 00 0F 03 5D E9 
   660)     11498.7  Rx     0011E95D  5  01 00 00 5D E9 
   661)     11503.6  Rx     000130C9  7  01 00 00 0F 03 C9 30 
   662)     11503.8  Rx     001130C9  5  01 00 00 C9 30 
   663)     11508.6  Rx     00019FAF  7  01 00 00 0F 03 AF 9F 
   664)     11508.7  Rx     00119FAF  5  01 00 00 AF 9F 
   665)     11513.6  Rx     0001A436  7  01 00 00 0F 03 36 A4 
   666)     11513.7  Rx     0011A436  5  01 00 00 36 A4 
   667)     11518.6  Rx     00011813  7  01 00 00 0F 03 13 18 
   668)     11518.7  Rx     00111813  5  01 00 00 13 18 
   669)     11523.6  Rx     00013BCE  7  01 00 00 0F 03 CE 3B 
   670)     11523.7  Rx     00113BCE  5  01 00 00 CE 3B 
   671)     11528.6  Rx     0001DD6D  7  01 00 00 0F 03 6D DD 
   672)     11528.7  Rx     0011DD6D  5  01 00 00 6D DD 
   673)     11533.6  Rx     0001B829  7  01 00 00 0F 03 29 B8 
   674)     11533.8  Rx     0011B829  5  01 00 00 29 B8 
   675)     11538.6  Rx     0001AFED  7  01 00 00 0F 03 ED AF 
   676)     11538.8  Rx     0011AFED  5  01 00 00 ED AF 
   677)     11543.6  Rx     0001F586  7  01 00 00 0F 03 86 F5 
   678)     11543.8  Rx     0011F586  5  01 00 00 86 F5 
   679)     11548.7  Rx     00015B48  7  01 00 00 0F 03 48 5B 
   680)     11548.8  Rx     00115B48  5  01 00 00 48 5B 
   681)     11553.7  Rx     0001AF99  7  01 00 00 0F 03 99 AF 
   682)     11553.7  Rx     0011AF99  5  01 00 00 99 AF 
   683)     11558.6  Rx     0001723C  7  01 00 00 0F 03 3C 72 
   684)     11558.8  Rx     0011723C  5  01 00 00 3C 72 
   685)     11563.6  Rx     0001EE22  7  01 00 00 0F 03 22 EE 
   686)     11563.8  Rx     0011EE22  5  01 00 00 22 EE 
   687)     11568.6  Rx     000110E9  7  01 00 00 0F 03 E9 10 
   688)     11568.8  Rx     001110E9  5  01 00 00 E9 10 
   689)     11573.6  Rx     00012794  7  01 00 00 0F 03 94 27 
   690)     11573.8  Rx     00112794  5  01 00 00 94 27 
   691)     11578.7  Rx     0001C751  7  01 00 00 0F 03 51 C7 
   692)     11578.7  Rx     0011C751  5  01 00 00 51 C7 
   693)     11583.7  Rx     000141A4  7  01 00 00 0F 03 A4 41 
   694)     11583.8  Rx     001141A4  5  01 00 00 A4 41 
   695)     11588.6  Rx     0001D2F7  7  01 00 00 0F 03 F7 D2 
   696)     11588.8  Rx     0011D2F7  5  01 00 00 F7 D2 
   697)     11593.6  Rx     00019864  7  01 00 00 0F 03 64 98 
   698)     11593.8  Rx     00119864  5  01 00 00 64 98 
   699)     11598.6  Rx     0001BE72  7  01 00 00 0F 03 72 BE 
   700)     11598.8  Rx     0011BE72  5  01 00 00 72 BE 
   701)     11603.6  Rx     00010B66  7  01 00 00 0F 03 66 0B 
   702)     11603.7  Rx     00110B66  5  01 00 00 66 0B 
   703)     11608.7  Rx     0001B371  7  01 00 00 0F 03 71 B3 
   704)     11608.7  Rx     0011B371  5  01 00 00 71 B3 
   705)     11613.6  Rx     00013CF4  7  01 00 00 0F 03 F4 3C 
   706)     11613.7  Rx     00113CF4  5  01 00 00 F4 3C 
   707)     11618.6  Rx     0001238A  7  01 00 00 0F 03 8A 23 
   708)     11618.8  Rx     0011238A  5  01 00 00 8A 23 
   709)     11623.6  Rx     00017E5D  7  01 00 00 0F 03 5D 7E 
   710)     11623.8  Rx     00117E5D  5  01 00 00 5D 7E 
   711)     11628.6  Rx     0001ADBF  7  01 00 00 0F 03 BF AD 
   712)     11628.7  Rx     0011ADBF  5  01 00 00 BF AD 
   713)     11633.7  Rx     0001B8F3  7  01 00 00 0F 03 F3 B8 
   714)     11633.7  Rx     0011B8F3  5  01 00 00 F3 B8 
   715)     11638.6  Rx     000186A2  7  01 00 00 0F 03 A2 86 
   716)     11638.7  Rx     001186A2  5  01 00 00 A2 86 
   717)     11643.6  Rx     00016A1D  7  01 00 00 0F 03 1D 6A 
   718)     11643.8  Rx     00116A1D  5  01 00 00 1D 6A 
   719)     11648.6  Rx     00013686  7  01 00 00 0F 03 86 36 
   720)     11648.8  Rx     00113686  5  01 00 00 86 36 
   721)     11653.6  Rx     000109B9  7  01 00 00 0F 03 B9 09 
   722)     11653.8  Rx     001109B9  5  01 00 00 B9 09 
   723)     11658.6  Rx     00015513  7  01 00 00 0F 03 13 55 
   724)     11658.7  Rx     00115513  5  01 00 00 13 55 
   725)     11663.7  Rx     0001709B  7  01 00 00 0F 03 9B 70 
   726)     11663.7  Rx     0011709B  5  01 00 00 9B 70 
   727)     11668.6  Rx     0001BF3E  7  01 00 00 0F 03 3E BF 
   728)     11668.8  Rx     0011BF3E  5  01 00 00 3E BF 
   729)     11673.6  Rx     000149EB  7  01 00 00 0F 03 EB 49 
   730)     11673.8  Rx     001149EB  5  01 00 00 EB 49 
   731)     11678.6  Rx     0001EC77  7  01 00 00 0F 03 77 EC 
   732)     11678.8  Rx     0011EC77  5  01 00 00 77 EC 
   733)     11683.6  Rx     00015CB5  7  01 00 00 0F 03 B5 5C 
   734)     11683.7  Rx     00115CB5  5  01 00 00 B5 5C 
   735)     11688.6  Rx     00014985  7  01 00 00 0F 03 85 49 
   736)     11688.7  Rx     00114985  5  01 00 00 85 49 
   737)     11693.6  Rx     00017FE0  7  01 00 00 0F 03 E0 7F 
   738)     11693.8  Rx     00117FE0  5  01 00 00 E0 7F 
   739)     11698.6  Rx     0001AB64  7  01 00 00 0F 04 64 AB 
   740)     11698.8  Rx     0011AB64  5  01 00 00 64 AB 
   741)     11703.6  Rx     00016971  7  01 00 00 0F 03 71 69 
   742)     11703.8  Rx     00116971  5  01 00 00 71 69 
   743)     11708.6  Rx     00010630  7  01 00 00 0F 03 30 06 
   744)     11708.7  Rx     00110630  5  01 00 00 30 06 
   745)     11713.6  Rx     000176C1  7  01 00 00 0F 03 C1 76 
   746)     11713.7  Rx     001176C1  5  01 00 00 C1 76 
   747)     11718.6  Rx     0001E3D7  7  01 00 00 0F 03 D7 E3 
   748)     11718.7  Rx     0011E3D7  5  01 00 00 D7 E3 
   749)     11723.6  Rx     00019E07  7  01 00 00 0F 03 07 9E 
   750)     11723.7  Rx     00119E07  5  01 00 00 07 9E 
   751)     11728.6  Rx     0001CC25  7  01 00 00 0F 03 25 CC 
   752)     11728.8  Rx     0011CC25  5  01 00 00 25 CC 
   753)     11733.6  Rx     00018272  7  01 00 00 0F 03 72 82 
   754)     11733.8  Rx     00118272  5  01 00 00 72 82 
   755)     11738.6  Rx     00011770  7  01 00 00 0F 03 70 17 
   756)     11738.7  Rx     00111770  5  01 00 00 70 17 
   757)     11743.6  Rx     000116A0  7  01 00 00 0F 03 A0 16 
   758)     11743.7  Rx     001116A0  5  01 00 00 A0 16 
   759)     11748.6  Rx     0001C2EA  7  01 00 00 0F 03 EA C2 
   760)     11748.7  Rx     0011C2EA  5  01 00 00 EA C2 
   761)     11753.6  Rx     00015E33  7  01 00 00 0F 03 33 5E 
   762)     11753.7  Rx     00115E33  5  01 00 00 33 5E 
   763)     11758.6  Rx     0001E961  7  01 00 00 0F 03 61 E9 
   764)     11758.8  Rx     0011E961  5  01 00 00 61 E9 
   765)     11763.6  Rx     000151DB  7  01 00 00 0F 03 DB 51 
   766)     11763.7  Rx     001151DB  5  01 00 00 DB 51 
   767)     11768.6  Rx     0001CCFB  7  01 00 00 0F 03 FB CC 
   768)     11768.7  Rx     0011CCFB  5  01 00 00 FB CC 
   769)     11773.6  Rx     0001EE05  7  01 00 00 0F 03 05 EE 
   770)     11773.7  Rx     0011EE05  5  01 00 00 05 EE 
   771)     11778.6  Rx     00014226  7  01 00 00 0F 03 26 42 
   772)     11778.7  Rx     00114226  5  01 00 00 26 42 
   773)     11783.6  Rx     00019713  7  01 00 00 0F 03 13 97 
   774)     11783.7  Rx     00119713  5  01 00 00 13 97 
   775)     11788.6  Rx     00014DDF  7  01 00 00 0F 03 DF 4D 
   776)     11788.7  Rx     00114DDF  5  01 00 00 DF 4D 
   777)     11793.6  Rx     000112CD  7  01 00 00 0F 03 CD 12 
   778)     11793.7  Rx     001112CD  5  01 00 00 CD 12 
   779)     11798.6  Rx     00014CF5  7  01 00 00 0F 03 F5 4C 
   780)     11798.7  Rx     00114CF5  5  01 00 00 F5 4C 
   781)     11803.6  Rx     00011962  7  01 00 00 0F 03 62 19 
   782)     11803.7  Rx     00111962  5  01 00 00 62 19 
   783)     11808.6  Rx     000187F8  7  01 00 00 0F 03 F8 87 
   784)     11808.8  Rx     001187F8  5  01 00 00 F8 87 
   785)     11813.6  Rx     00018139  7  01 00 00 0F 03 39 81 
   786)     11813.7  Rx     00118139  5  01 00 00 39 81 
   787)     11818.6  Rx     00018EF4  7  01 00 00 0F 03 F4 8E 
   788)     11818.7  Rx     00118EF4  5  01 00 00 F4 8E 
   789)     11823.6  Rx     00017B63  7  01 00 00 0F 03 63 7B 
   790)     11823.7  Rx     00117B63  5  01 00 00 63 7B 
   791)     11828.6  Rx     0001421E  7  01 00 00 0F 03 1E 42 
   792)     11828.7  Rx     0011421E  5  01 00 00 1E 42 
   793)     11833.6  Rx     00019365  7  01 00 00 0F 03 65 93 
   794)     11833.7  Rx     00119365  5  01 00 00 65 93 
   795)     11838.6  Rx     0001F42C  7  01 00 00 0F 03 2C F4 
   796)     11838.8  Rx     0011F42C  5  01 00 00 2C F4 
   797)     11843.6  Rx     0001FBBA  7  01 00 00 0F 03 BA FB 
   798)     11843.7  Rx     0011FBBA  5  01 00 00 BA FB 
   799)     11848.6  Rx     000160EA  7  01 00 00 0F 03 EA 60 
   800)     11848.7  Rx     001160EA  5  01 00 00 EA 60 
   801)     11853.6  Rx     0001FD3C  7  01 00 00 0F 03 3C FD 
   802)     11853.7  Rx     0011FD3C  5  01 00 00 3C FD 
   803)     11858.6  Rx     0001FA40  7  01 00 00 0F 03 40 FA 
   804)     11858.7  Rx     0011FA40  5  01 00 00 40 FA 
   805)     11863.6  Rx     0001CE54  7  01 00 00 0F 03 54 CE 
   806)     11863.7  Rx     0011CE54  5  01 00 00 54 CE 
   807)     11868.6  Rx     000163D1  7  01 00 00 0F 03 D1 63 
   808)     11868.7  Rx     001163D1  5  01 00 00 D1 63 
   809)     11873.6  Rx     0001CB9F  7  01 00 00 0F 03 9F CB 
   810)     11873.7  Rx     0011CB9F  5  01 00 00 9F CB 
   811)     11878.6  Rx     000188DC  7  01 00 00 0F 03 DC 88 
   812)     11878.7  Rx     001188DC  5  01 00 00 DC 88 
   813)     11883.6  Rx     0001726E  7  01 00 00 0F 03 6E 72 
   814)     11883.7  Rx     0011726E  5  01 00 00 6E 72 
   815)     11888.6  Rx     0001FDF7  7  01 00 00 0F 03 F7 FD 
   816)     11888.7  Rx     0011FDF7  5  01 00 00 F7 FD 
   817)     11893.6  Rx     00010247  7  01 00 00 0F 03 47 02 
   818)     11893.7  Rx     00110247  5  01 00 00 47 02 
   819)     11898.6  Rx     00013FED  7  01 00 00 0F 03 ED 3F 
   820)     11898.7  Rx     00113FED  5  01 00 00 ED 3F 
   821)     11903.6  Rx     0001F956  7  01 00 00 0F 03 56 F9 
   822)     11903.7  Rx     0011F956  5  01 00 00 56 F9 
   823)     11908.6  Rx     0001A6C0  7  01 00 00 0F 03 C0 A6 
   824)     11908.7  Rx     0011A6C0  5  01 00 00 C0 A6 
   825)     11913.6  Rx     0001946A  7  01 00 00 0F 03 6A 94 
   826)     11913.7  Rx     0011946A  5  01 00 00 6A 94 
   827)     11918.6  Rx     00015795  7  01 00 00 0F 03 95 57 
   828)     11918.7  Rx     00115795  5  01 00 00 95 57 
   829)     11923.6  Rx     000165F3  7  01 00 00 0F 03 F3 65 
   830)     11923.7  Rx     001165F3  5  01 00 00 F3 65 
   831)     11928.6  Rx     00012625  7  01 00 00 0F 03 25 26 
   832)     11928.7  Rx     00112625  5  01 00 00 25 26 
   833)     11933.6  Rx     0001241F  7  01 00 00 0F 03 1F 24 
   834)     11933.7  Rx     0011241F  5  01 00 00 1F 24 
   835)     11938.6  Rx     0001C9DC  7  01 00 00 0F 03 DC C9 
   836)     11938.7  Rx     0011C9DC  5  01 00 00 DC C9 
   837)     11943.6  Rx     0001E505  7  01 00 00 0F 03 05 E5 
   838)     11943.7  Rx     0011E505  5  01 00 00 05 E5 
   839)     11948.6  Rx     00012CCC  7  01 00 00 0F 03 CC 2C 
   840)     11948.7  Rx     00112CCC  5  01 00 00 CC 2C 
   841)     11953.6  Rx     0001C881  7  01 00 00 0F 03 81 C8 
   842)     11953.7  Rx     0011C881  5  01 00 00 81 C8 
   843)     11958.6  Rx     00015E27  7  01 00 00 0F 03 27 5E 
   844)     11958.7  Rx     00115E27  5  01 00 00 27 5E 
   845)     11963.6  Rx     0001362C  7  01 00 00 0F 03 2C 36 
   846)     11963.7  Rx     0011362C  5  01 00 00 2C 36 
   847)     11968.6  Rx     0001DBD5  7  01 00 00 0F 03 D5 DB 
   848)     11968.7  Rx     0011DBD5  5  01 00 00 D5 DB 
   849)     11973.6  Rx     0001EE95  7  01 00 00 0F 03 95 EE 
   850)     11973.7  Rx     0011EE95  5  01 00 00 95 EE 
   851)     11978.6  Rx     0001B269  7  01 00 00 0F 03 69 B2 
   852)     11978.7  Rx     0011B269  5  01 00 00 69 B2 
   853)     11983.6  Rx     0001E5AA  7  01 00 00 0F 03 AA E5 
   854)     11983.7  Rx     0011E5AA  5  01 00 00 AA E5 
   855)     11988.6  Rx     00014C75  7  01 00 00 0F 03 75 4C 
   856)     11988.7  Rx     00114C75  5  01 00 00 75 4C 
   857)     11993.6  Rx     000120EC  7  01 00 00 0F 03 EC 20 
   858)     11993.7  Rx     001120EC  5  01 00 00 EC 20 
   859)     11998.6  Rx     00014E1A  7  01 00 00 0F 03 1A 4E 
   860)     11998.7  Rx     00114E1A  5  01 00 00 1A 4E 
   861)     12003.6  Rx     0001AEE7  7  01 00 00 0F 03 E7 AE 
   862)     12003.7  Rx     0011AEE7  5  01 00 00 E7 AE 
   863)     12008.6  Rx     00014343  7  01 00 00 0F 03 43 43 
   864)     12008.7  Rx     00114343  5  01 00 00 43 43 
   865)     12013.6  Rx     0001D606  7  01 00 00 0F 03 06 D6 
   866)     12013.7  Rx     0011D606  5  01 00 00 06 D6 
   867)     12018.6  Rx     0001BEE9  7  01 00 00 0F 03 E9 BE 
   868)     12018.7  Rx     0011BEE9  5  01 00 00 E9 BE 
   869)     12023.6  Rx     0001BBB7  7  01 00 00 0F 03 B7 BB 
   870)     12023.7  Rx     0011BBB7  5  01 00 00 B7 BB 
   871)     12028.6  Rx     00018F54  7  01 00 00 0F 03 54 8F 
   872)     12028.7  Rx     00118F54  5  01 00 00 54 8F 
   873)     12033.6  Rx     0001497C  7  01 00 00 0F 03 7C 49 
   874)     12033.7  Rx     0011497C  5  01 00 00 7C 49 
   875)     12038.6  Rx     00018B33  7  01 00 00 0F 03 33 8B 
   876)     12038.7  Rx     00118B33  5  01 00 00 33 8B 
   877)     12043.6  Rx     0001005E  7  01 00 00 0F 03 5E 00 
   878)     12043.7  Rx     0011005E  5  01 00 00 5E 00 
   879)     12048.6  Rx     0001BD08  7  01 00 00 0F 03 08 BD 
   880)     12048.7  Rx     0011BD08  5  01 00 00 08 BD 
   881)     12053.6  Rx     000143DC  7  01 00 00 0F 03 DC 43 
   882)     12053.7  Rx     001143DC  5  01 00 00 DC 43 
   883)     12058.6  Rx     00016633  7  01 00 00 0F 03 33 66 
   884)     12058.7  Rx     00116633  5  01 00 00 33 66 
   885)     12063.6  Rx     0001904F  7  01 00 00 0F 03 4F 90 
   886)     12063.7  Rx     0011904F  5  01 00 00 4F 90 
   887)     12068.6  Rx     0001A0A2  7  01 00 00 0F 03 A2 A0 
   888)     12068.7  Rx     0011A0A2  5  01 00 00 A2 A0 
   889)     12073.6  Rx     0001E552  7  01 00 00 0F 03 52 E5 
   890)     12073.7  Rx     0011E552  5  01 00 00 52 E5 
   891)     12078.6  Rx     000121F6  7  01 00 00 0F 03 F6 21 
   892)     12078.7  Rx     001121F6  5  01 00 00 F6 21 
   893)     12083.6  Rx     0001E3B6  7  01 00 00 0F 03 B6 E3 
   894)     12083.7  Rx     0011E3B6  5  01 00 00 B6 E3 
   895)     12088.6  Rx     0001D899  7  01 00 00 0F 03 99 D8 
   896)     12088.7  Rx     0011D899  5  01 00 00 99 D8 
   897)     12093.6  Rx     0001870B  7  01 00 00 0F 03 0B 87 
   898)     12093.7  Rx     0011870B  5  01 00 00 0B 87 
   899)     12098.6  Rx     0001D714  7  01 00 00 0F 03 14 D7 
   900)     12098.7  Rx     0011D714  5  01 00 00 14 D7 
   901)     12103.6  Rx     000115BB  7  01 00 00 0F 03 BB 15 
   902)     12103.7  Rx     001115BB  5  01 00 00 BB 15 
   903)     12108.6  Rx     00016BAF  7  01 00 00 0F 03 AF 6B 
   904)     12108.7  Rx     00116BAF  5  01 00 00 AF 6B 
   905)     12113.6  Rx     00017F59  7  01 00 00 0F 03 59 7F 
   906)     12113.7  Rx     00117F59  5  01 00 00 59 7F 
   907)     12118.6  Rx     0001D61F  7  01 00 00 0F 03 1F D6 
   908)     12118.7  Rx     0011D61F  5  01 00 00 1F D6 
   909)     12123.6  Rx     00016783  7  01 00 00 0F 03 83 67 
   910)     12123.7  Rx     00116783  5  01 00 00 83 67 
   911)     12128.6  Rx     00014EC5  7  01 00 00 0F 03 C5 4E 
   912)     12128.7  Rx     00114EC5  5  01 00 00 C5 4E 
   913)     12133.6  Rx     0001EC95  7  01 00 00 0F 03 95 EC 
   914)     12133.7  Rx     0011EC95  5  01 00 00 95 EC 
   915)     12138.6  Rx     0001E2D9  7  01 00 00 0F 03 D9 E2 
   916)     12138.7  Rx     0011E2D9  5  01 00 00 D9 E2 
   917)     12143.6  Rx     000157F6  7  01 00 00 0F 03 F6 57 
   918)     12143.7  Rx     001157F6  5  01 00 00 F6 57 
   919)     12148.6  Rx     0001026C  7  01 00 00 0F 03 6C 02 
   920)     12148.7  Rx     0011026C  5  01 00 00 6C 02 
   921)     12153.6  Rx     000196C7  7  01 00 00 0F 03 C7 96 
   922)     12153.7  Rx     001196C7  5  01 00 00 C7 96 
   923)     12158.6  Rx     00011927  7  01 00 00 0F 03 27 19 
   924)     12158.7  Rx     00111927  5  01 00 00 27 19 
   925)     12163.6  Rx     00011443  7  01 00 00 0F 03 43 14 
   926)     12163.7  Rx     00111443  5  01 00 00 43 14 
   927)     12168.6  Rx     00010C3A  7  01 00 00 0F 03 3A 0C 
   928)     12168.7  Rx     00110C3A  5  01 00 00 3A 0C 
   929)     12173.6  Rx     0001A806  7  01 00 00 0F 03 06 A8 
   930)     12173.7  Rx     0011A806  5  01 00 00 06 A8 
   931)     12178.6  Rx     000117C9  7  01 00 00 0F 03 C9 17 
   932)     12178.7  Rx     001117C9  5  01 00 00 C9 17 
   933)     12183.6  Rx     0001D123  7  01 00 00 0F 03 23 D1 
   934)     12183.7  Rx     0011D123  5  01 00 00 23 D1 
   935)     12188.6  Rx     0001A7E2  7  01 00 00 0F 03 E2 A7 
   936)     12188.7  Rx     0011A7E2  5  01 00 00 E2 A7 
   937)     12193.6  Rx     00019BA0  7  01 00 00 0F 03 A0 9B 
   938)     12193.7  Rx     00119BA0  5  01 00 00 A0 9B 
   939)     12198.6  Rx     000104C6  7  01 00 00 0F 03 C6 04 
   940)     12198.7  Rx     001104C6  5  01 00 00 C6 04 
   941)     12203.6  Rx     0001F0DE  7  01 00 00 0F 03 DE F0 
   942)     12203.7  Rx     0011F0DE  5  01 00 00 DE F0 
   943)     12208.6  Rx     00013001  7  01 00 00 0F 03 01 30 
   944)     12208.7  Rx     00113001  5  01 00 00 01 30 
   945)     12213.6  Rx     0001E3F9  7  01 00 00 0F 03 F9 E3 
   946)     12213.7  Rx     0011E3F9  5  01 00 00 F9 E3 
   947)     12218.6  Rx     0001ABA7  7  01 00 00 0F 03 A7 AB 
   948)     12218.7  Rx     0011ABA7  5  01 00 00 A7 AB 
   949)     12223.6  Rx     00017E11  7  01 00 00 0F 03 11 7E 
   950)     12223.7  Rx     00117E11  5  01 00 00 11 7E 
   951)     12228.6  Rx     0001D2B8  7  01 00 00 0F 03 B8 D2 
   952)     12228.7  Rx     0011D2B8  5  01 00 00 B8 D2 
   953)     12233.6  Rx     0001E733  7  01 00 00 0F 03 33 E7 
   954)     12233.7  Rx     0011E733  5  01 00 00 33 E7 
   955)     12238.6  Rx     0001716B  7  01 00 00 0F 03 6B 71 
   956)     12238.7  Rx     0011716B  5  01 00 00 6B 71 
   957)     12243.6  Rx     0001632D  7  01 00 00 0F 03 2D 63 
   958)     12243.7  Rx     0011632D  5  01 00 00 2D 63 
   959)     12248.6  Rx     000105FD  7  01 00 00 0F 03 FD 05 
   960)     12248.7  Rx     001105FD  5  01 00 00 FD 05 
   961)     12253.6  Rx     0001B291  7  01 00 00 0F 03 91 B2 
   962)     12253.7  Rx     0011B291  5  01 00 00 91 B2 
   963)     12258.6  Rx     00018635  7  01 00 00 0F 03 35 86 
   964)     12258.7  Rx     00118635  5  01 00 00 35 86 
   965)     12263.6  Rx     0001C2BE  7  01 00 00 0F 03 BE C2 
   966)     12263.7  Rx     0011C2BE  5  01 00 00 BE C2 
   967)     12268.6  Rx     000127B1  7  01 00 00 0F 03 B1 27 
   968)     12268.7  Rx     001127B1  5  01 00 00 B1 27 
   969)     12273.6  Rx     0001CC9B  7  01 00 00 0F 03 9B CC 
   970)     12273.7  Rx     0011CC9B  5  01 00 00 9B CC 
   971)     12278.6  Rx     0001D8C5  7  01 00 00 0F 03 C5 D8 
   972)     12278.7  Rx     0011D8C5  5  01 00 00 C5 D8 
   973)     12283.6  Rx     00014070  7  01 00 00 0F 03 70 40 
   974)     12283.7  Rx     00114070  5  01 00 00 70 40 
   975)     12288.6  Rx     00010570  7  01 00 00 0F 03 70 05 
   976)     12288.7  Rx     00110570  5  01 00 00 70 05 
   977)     12293.6  Rx     00011A00  7  01 00 00 0F 03 00 1A 
   978)     12293.7  Rx     00111A00  5  01 00 00 00 1A 
   979)     12298.6  Rx     000143AC  7  01 00 00 0F 03 AC 43 
   980)     12298.7  Rx     001143AC  5  01 00 00 AC 43 
   981)     12303.6  Rx     000166D1  7  01 00 00 0F 03 D1 66 
   982)     12303.7  Rx     001166D1  5  01 00 00 D1 66 
   983)     12308.6  Rx     0001782B  7  01 00 00 0F 03 2B 78 
   984)     12308.7  Rx     0011782B  5  01 00 00 2B 78 
   985)     12313.6  Rx     00018D3F  7  01 00 00 0F 03 3F 8D 
   986)     12313.7  Rx     00118D3F  5  01 00 00 3F 8D 
   987)     12318.6  Rx     0001703E  7  01 00 00 0F 03 3E 70 
   988)     12318.7  Rx     0011703E  5  01 00 00 3E 70 
   989)     12323.6  Rx     0001D9D6  7  01 00 00 0F 03 D6 D9 
   990)     12323.7  Rx     0011D9D6  5  01 00 00 D6 D9 
   991)     12328.6  Rx     0001E776  7  01 00 00 0F 03 76 E7 
   992)     12328.7  Rx     0011E776  5  01 00 00 76 E7 
   993)     12333.6  Rx     00011504  7  01 00 00 0F 03 04 15 
   994)     12333.7  Rx     00111504  5  01 00 00 04 15 
   995)     12338.6  Rx     00012745  7  01 00 00 0F 03 45 27 
   996)     12338.7  Rx     00112745  5  01 00 00 45 27 
   997)     12343.6  Rx     0001B61E  7  01 00 00 0F 03 1E B6 
   998)     12343.7  Rx     0011B61E  5  01 00 00 1E B6 
   999)     12348.6  Rx     0001CCA1  7  01 00 00 0F 03 A1 CC 
  1000)     12348.7  Rx     0011CCA1  5  01 00 00 A1 CC 
  1001)     12353.6  Rx     00015552  7  01 00 00 0F 03 52 55 
  1002)     12353.7  Rx     00115552  5  01 00 00 52 55 
  1003)     12358.6  Rx     00011B7A  7  01 00 00 0F 03 7A 1B 
  1004)     12358.7  Rx     00111B7A  5  01 00 00 7A 1B 
  1005)     12363.6  Rx     0001E4F9  7  01 00 00 0F 03 F9 E4 
  1006)     12363.7  Rx     0011E4F9  5  01 00 00 F9 E4 
  1007)     12368.6  Rx     00017588  7  01 00 00 0F 03 88 75 
  1008)     12368.7  Rx     00117588  5  01 00 00 88 75 
  1009)     12373.6  Rx     00018765  7  01 00 00 0F 03 65 87 
  1010)     12373.7  Rx     00118765  5  01 00 00 65 87 
  1011)     12378.6  Rx     000129B4  7  01 00 00 0F 03 B4 29 
  1012)     12378.7  Rx     001129B4  5  01 00 00 B4 29 
  1013)     12383.6  Rx     00016126  7  01 00 00 0F 03 26 61 
  1014)     12383.7  Rx     00116126  5  01 00 00 26 61 
  1015)     12388.5  Rx     00015B2A  7  01 00 00 0F 03 2A 5B 
  1016)     12388.7  Rx     00115B2A  5  01 00 00 2A 5B 
  1017)     12393.6  Rx     00014054  7  01 00 00 0F 03 54 40 
  1018)     12393.7  Rx     00114054  5  01 00 00 54 40 
  1019)     12398.6  Rx     00015EDC  7  01 00 00 0F 03 DC 5E 
  1020)     12398.7  Rx     00115EDC  5  01 00 00 DC 5E 
  1021)     12403.6  Rx     00018C5E  7  01 00 00 0F 03 5E 8C 
  1022)     12403.7  Rx     00118C5E  5  01 00 00 5E 8C 
  1023)     12408.6  Rx     0001CFFA  7  01 00 00 0F 03 FA CF 
  1024)     12408.7  Rx     0011CFFA  5  01 00 00 FA CF 
  1025)     12413.5  Rx     00014679  7  01 00 00 0F 03 79 46 
  1026)     12413.7  Rx     00114679  5  01 00 00 79 46 
  1027)     12418.6  Rx     0001FBA7  7  01 00 00 0F 03 A7 FB 
  1028)     12418.7  Rx     0011FBA7  5  01 00 00 A7 FB 
  1029)     12423.6  Rx     00018595  7  01 00 00 0F 03 95 85 
  1030)     12423.7  Rx     00118595  5  01 00 00 95 85 
  1031)     12428.6  Rx     000181F8  7  01 00 00 0F 03 F8 81 
  1032)     12428.7  Rx     001181F8  5  01 00 00 F8 81 
  1033)     12433.6  Rx     00015D90  7  01 00 00 0F 03 90 5D 
  1034)     12433.7  Rx     00115D90  5  01 00 00 90 5D 
  1035)     12438.5  Rx     00018602  7  01 00 00 0F 03 02 86 
  1036)     12438.7  Rx     00118602  5  01 00 00 02 86 
  1037)     12443.5  Rx     00016FFA  7  01 00 00 0F 03 FA 6F 
  1038)     12443.7  Rx     00116FFA  5  01 00 00 FA 6F 
  1039)     12448.6  Rx     0001207E  7  01 00 00 0F 03 7E 20 
  1040)     12448.7  Rx     0011207E  5  01 00 00 7E 20 
  1041)     12453.6  Rx     00011DA0  7  01 00 00 0F 03 A0 1D 
  1042)     12453.7  Rx     00111DA0  5  01 00 00 A0 1D 
  1043)     12458.6  Rx     0001E84B  7  01 00 00 0F 03 4B E8 
  1044)     12458.7  Rx     0011E84B  5  01 00 00 4B E8 
  1045)     12463.6  Rx     0001BEC2  7  01 00 00 0F 03 C2 BE 
  1046)     12463.7  Rx     0011BEC2  5  01 00 00 C2 BE 
  1047)     12468.5  Rx     0001D9DA  7  01 00 00 0F 03 DA D9 
  1048)     12468.7  Rx     0011D9DA  5  01 00 00 DA D9 
  1049)     12473.5  Rx     0001B09C  7  01 00 00 0F 03 9C B0 
  1050)     12473.7  Rx     0011B09C  5  01 00 00 9C B0 
  1051)     12478.6  Rx     00017E44  7  01 00 00 0F 03 44 7E 
  1052)     12478.7  Rx     00117E44  5  01 00 00 44 7E 
  1053)     12483.6  Rx     000191A8  7  01 00 00 0F 03 A8 91 
  1054)     12483.6  Rx     001191A8  5  01 00 00 A8 91 
  1055)     12488.6  Rx     0001E49F  7  01 00 00 0F 03 9F E4 
  1056)     12488.7  Rx     0011E49F  5  01 00 00 9F E4 
  1057)     12493.5  Rx     0001BEC7  7  01 00 00 0F 03 C7 BE 
  1058)     12493.7  Rx     0011BEC7  5  01 00 00 C7 BE 
  1059)     12498.5  Rx     000107C7  7  01 00 00 0F 03 C7 07 
  1060)     12498.7  Rx     001107C7  5  01 00 00 C7 07 
  1061)     12503.6  Rx     00010632  7  01 00 00 0F 03 32 06 
  1062)     12503.7  Rx     00110632  5  01 00 00 32 06 
  1063)     12508.6  Rx     000124BA  7  01 00 00 0F 03 BA 24 
  1064)     12508.7  Rx     001124BA  5  01 00 00 BA 24 
  1065)     12513.6  Rx     000121DB  7  01 00 00 0F 03 DB 21 
  1066)     12513.6  Rx     001121DB  5  01 00 00 DB 21 
  1067)     12518.5  Rx     0001E539  7  01 00 00 0F 03 39 E5 
  1068)     12518.7  Rx     0011E539  5  01 00 00 39 E5 
  1069)     12523.5  Rx     000175B4  7  01 00 00 0F 03 B4 75 
  1070)     12523.7  Rx     001175B4  5  01 00 00 B4 75 
  1071)     12528.5  Rx     0001B046  7  01 00 00 0F 03 46 B0 
  1072)     12528.7  Rx     0011B046  5  01 00 00 46 B0 
  1073)     12533.6  Rx     0001CEE9  7  01 00 00 0F 03 E9 CE 
  1074)     12533.7  Rx     0011CEE9  5  01 00 00 E9 CE 
  1075)     12538.6  Rx     000105BF  7  01 00 00 0F 03 BF 05 
  1076)     12538.7  Rx     001105BF  5  01 00 00 BF 05 
  1077)     12543.6  Rx     0001D415  7  01 00 00 0F 03 15 D4 
  1078)     12543.7  Rx     0011D415  5  01 00 00 15 D4 
  1079)     12548.5  Rx     00015820  7  01 00 00 0F 03 20 58 
  1080)     12548.7  Rx     00115820  5  01 00 00 20 58 
  1081)     12553.5  Rx     000192FE  7  01 00 00 0F 03 FE 92 
  1082)     12553.7  Rx     001192FE  5  01 00 00 FE 92 
  1083)     12558.6  Rx     00010F32  7  01 00 00 0F 03 32 0F 
  1084)     12558.7  Rx     00110F32  5  01 00 00 32 0F 
  1085)     12563.6  Rx     0001FF53  7  01 00 00 0F 03 53 FF 
  1086)     12563.6  Rx     0011FF53  5  01 00 00 53 FF 
  1087)     12568.6  Rx     00015038  7  01 00 00 0F 03 38 50 
  1088)     12568.7  Rx     00115038  5  01 00 00 38 50 
  1089)     12573.5  Rx     0001E68A  7  01 00 00 0F 03 8A E6 
  1090)     12573.7  Rx     0011E68A  5  01 00 00 8A E6 
  1091)     12578.5  Rx     000153D3  7  01 00 00 0F 03 D3 53 
  1092)     12578.7  Rx     001153D3  5  01 00 00 D3 53 
  1093)     12583.5  Rx     00010BC7  7  01 00 00 0F 03 C7 0B 
  1094)     12583.6  Rx     00110BC7  5  01 00 00 C7 0B 
  1095)     12588.5  Rx     00019FAD  7  01 00 00 0F 03 AD 9F 
  1096)     12588.6  Rx     00119FAD  5  01 00 00 AD 9F 
  1097)     12593.5  Rx     0001CF7F  7  01 00 00 0F 03 7F CF 
  1098)     12593.6  Rx     0011CF7F  5  01 00 00 7F CF 
  1099)     12598.5  Rx     0001F9BD  7  01 00 00 0F 03 BD F9 
  1100)     12598.6  Rx     0011F9BD  5  01 00 00 BD F9 
  1101)     12603.5  Rx     00018928  7  01 00 00 0F 03 28 89 
  1102)     12603.6  Rx     00118928  5  01 00 00 28 89 
  1103)     12608.5  Rx     0001C096  7  01 00 00 0F 03 96 C0 
  1104)     12608.6  Rx     0011C096  5  01 00 00 96 C0 
  1105)     12613.5  Rx     00018E3A  7  01 00 00 0F 03 3A 8E 
  1106)     12613.6  Rx     00118E3A  5  01 00 00 3A 8E 
  1107)     12618.5  Rx     0001001D  7  01 00 00 0F 03 1D 00 
  1108)     12618.6  Rx     0011001D  5  01 00 00 1D 00 
  1109)     12623.5  Rx     0001F451  7  01 00 00 0F 03 51 F4 
  1110)     12623.6  Rx     0011F451  5  01 00 00 51 F4 
  1111)     12628.5  Rx     000143A0  7  01 00 00 0F 03 A0 43 
  1112)     12628.6  Rx     001143A0  5  01 00 00 A0 43 
  1113)     12633.5  Rx     00019525  7  01 00 00 0F 03 25 95 
  1114)     12633.6  Rx     00119525  5  01 00 00 25 95 
  1115)     12638.5  Rx     00015A23  7  01 00 00 0F 03 23 5A 
  1116)     12638.6  Rx     00115A23  5  01 00 00 23 5A 
  1117)     12643.5  Rx     0001E5C1  7  01 00 00 0F 03 C1 E5 
  1118)     12643.6  Rx     0011E5C1  5  01 00 00 C1 E5 
  1119)     12648.5  Rx     0001335C  7  01 00 00 0F 03 5C 33 
  1120)     12648.6  Rx     0011335C  5  01 00 00 5C 33 
  1121)     12653.5  Rx     00013F18  7  01 00 00 0F 03 18 3F 
  1122)     12653.6  Rx     00113F18  5  01 00 00 18 3F 
  1123)     12658.5  Rx     0001DFB6  7  01 00 00 0F 03 B6 DF 
  1124)     12658.6  Rx     0011DFB6  5  01 00 00 B6 DF 
  1125)     12663.5  Rx     000160E6  7  01 00 00 0F 03 E6 60 
  1126)     12663.6  Rx     001160E6  5  01 00 00 E6 60 
  1127)     12668.5  Rx     0001CB55  7  01 00 00 0F 03 55 CB 
  1128)     12668.6  Rx     0011CB55  5  01 00 00 55 CB 
  1129)     12673.5  Rx     00019883  7  01 00 00 0F 03 83 98 
  1130)     12673.6  Rx     00119883  5  01 00 00 83 98 
  1131)     12678.5  Rx     00018BEA  7  01 00 00 0F 03 EA 8B 
  1132)     12678.6  Rx     00118BEA  5  01 00 00 EA 8B 
  1133)     12683.5  Rx     00014418  7  01 00 00 0F 03 18 44 
  1134)     12683.6  Rx     00114418  5  01 00 00 18 44 
  1135)     12688.5  Rx     0001FAE3  7  01 00 00 0F 03 E3 FA 
  1136)     12688.6  Rx     0011FAE3  5  01 00 00 E3 FA 
  1137)     12693.5  Rx     0001574D  7  01 00 00 0F 03 4D 57 
  1138)     12693.6  Rx     0011574D  5  01 00 00 4D 57 
  1139)     12698.5  Rx     00016132  7  01 00 00 0F 03 32 61 
  1140)     12698.6  Rx     00116132  5  01 00 00 32 61 
  1141)     12703.5  Rx     00017D66  7  01 00 00 0F 03 66 7D 
  1142)     12703.6  Rx     00117D66  5  01 00 00 66 7D 
  1143)     12708.5  Rx     0001F3C1  7  01 00 00 0F 03 C1 F3 
  1144)     12708.6  Rx     0011F3C1  5  01 00 00 C1 F3 
  1145)     12713.5  Rx     00017579  7  01 00 00 0F 03 79 75 
  1146)     12713.6  Rx     00117579  5  01 00 00 79 75 
  1147)     12718.5  Rx     00019F54  7  01 00 00 0F 03 54 9F 
  1148)     12718.6  Rx     00119F54  5  01 00 00 54 9F 
  1149)     12723.5  Rx     00015813  7  01 00 00 0F 03 13 58 
  1150)     12723.6  Rx     00115813  5  01 00 00 13 58 
  1151)     12728.5  Rx     0001AC60  7  01 00 00 0F 03 60 AC 
  1152)     12728.6  Rx     0011AC60  5  01 00 00 60 AC 
  1153)     12733.5  Rx     00012E8D  7  01 00 00 0F 03 8D 2E 
  1154)     12733.6  Rx     00112E8D  5  01 00 00 8D 2E 
  1155)     12738.5  Rx     0001B320  7  01 00 00 0F 03 20 B3 
  1156)     12738.6  Rx     0011B320  5  01 00 00 20 B3 
  1157)     12743.5  Rx     0001E6DE  7  01 00 00 0F 03 DE E6 
  1158)     12743.6  Rx     0011E6DE  5  01 00 00 DE E6 
  1159)     12748.5  Rx     000195F8  7  01 00 00 0F 03 F8 95 
  1160)     12748.6  Rx     001195F8  5  01 00 00 F8 95 
  1161)     12753.5  Rx     0001BBB1  7  01 00 00 0F 03 B1 BB 
  1162)     12753.6  Rx     0011BBB1  5  01 00 00 B1 BB 
  1163)     12758.5  Rx     000157DF  7  01 00 00 0F 03 DF 57 
  1164)     12758.6  Rx     001157DF  5  01 00 00 DF 57 
  1165)     12763.5  Rx     00013B05  7  01 00 00 0F 03 05 3B 
  1166)     12763.6  Rx     00113B05  5  01 00 00 05 3B 
  1167)     12768.5  Rx     00010262  7  01 00 00 0F 03 62 02 
  1168)     12768.6  Rx     00110262  5  01 00 00 62 02 
  1169)     12773.5  Rx     00011299  7  01 00 00 0F 03 99 12 
  1170)     12773.6  Rx     00111299  5  01 00 00 99 12 
  1171)     12778.5  Rx     0001A68B  7  01 00 00 0F 03 8B A6 
  1172)     12778.6  Rx     0011A68B  5  01 00 00 8B A6 
  1173)     12783.5  Rx     0001B406  7  01 00 00 0F 03 06 B4 
  1174)     12783.6  Rx     0011B406  5  01 00 00 06 B4 
  1175)     12788.5  Rx     0001CDA7  7  01 00 00 0F 03 A7 CD 
  1176)     12788.6  Rx     0011CDA7  5  01 00 00 A7 CD 
  1177)     12793.5  Rx     0001E323  7  01 00 00 0F 03 23 E3 
  1178)     12793.6  Rx     0011E323  5  01 00 00 23 E3 
  1179)     12798.5  Rx     000126C3  7  01 00 00 0F 03 C3 26 
  1180)     12798.6  Rx     001126C3  5  01 00 00 C3 26 
  1181)     12803.5  Rx     00016C2A  7  01 00 00 0F 03 2A 6C 
  1182)     12803.6  Rx     00116C2A  5  01 00 00 2A 6C 
  1183)     12808.5  Rx     0001EB57  7  01 00 00 0F 03 57 EB 
  1184)     12808.6  Rx     0011EB57  5  01 00 00 57 EB 
  1185)     12813.5  Rx     000137BF  7  01 00 00 0F 03 BF 37 
  1186)     12813.6  Rx     001137BF  5  01 00 00 BF 37 
  1187)     12818.5  Rx     0001CD7B  7  01 00 00 0F 03 7B CD 
  1188)     12818.6  Rx     0011CD7B  5  01 00 00 7B CD 
  1189)     12823.5  Rx     000169C2  7  01 00 00 0F 03 C2 69 
  1190)     12823.6  Rx     001169C2  5  01 00 00 C2 69 
  1191)     12828.5  Rx     0001E39A  7  01 00 00 0F 03 9A E3 
  1192)     12828.6  Rx     0011E39A  5  01 00 00 9A E3 
  1193)     12833.5  Rx     00015C92  7  01 00 00 0F 03 92 5C 
  1194)     12833.6  Rx     00115C92  5  01 00 00 92 5C 
  1195)     12838.5  Rx     00012576  7  01 00 00 0F 03 76 25 
  1196)     12838.6  Rx     00112576  5  01 00 00 76 25 
  1197)     12843.5  Rx     0001F52E  7  01 00 00 0F 03 2E F5 
  1198)     12843.6  Rx     0011F52E  5  01 00 00 2E F5 
  1199)     12848.5  Rx     00017807  7  01 00 00 0F 03 07 78 
  1200)     12848.6  Rx     00117807  5  01 00 00 07 78 
  1201)     12853.5  Rx     0001BD58  7  01 00 00 0F 03 58 BD 
  1202)     12853.6  Rx     0011BD58  5  01 00 00 58 BD 
  1203)     12858.5  Rx     00015975  7  01 00 00 0F 03 75 59 
  1204)     12858.6  Rx     00115975  5  01 00 00 75 59 
  1205)     12863.5  Rx     0001F7A2  7  01 00 00 0F 03 A2 F7 
  1206)     12863.6  Rx     0011F7A2  5  01 00 00 A2 F7 
  1207)     12868.5  Rx     00013C37  7  01 00 00 0F 03 37 3C 
  1208)     12868.6  Rx     00113C37  5  01 00 00 37 3C 
  1209)     12873.5  Rx     0001920C  7  01 00 00 0F 03 0C 92 
  1210)     12873.6  Rx     0011920C  5  01 00 00 0C 92 
  1211)     12878.5  Rx     00012C2B  7  01 00 00 0F 03 2B 2C 
  1212)     12878.6  Rx     00112C2B  5  01 00 00 2B 2C 
  1213)     12883.5  Rx     00013AA7  7  01 00 00 0F 03 A7 3A 
  1214)     12883.6  Rx     00113AA7  5  01 00 00 A7 3A 
  1215)     12888.5  Rx     00010618  7  01 00 00 0F 03 18 06 
  1216)     12888.6  Rx     00110618  5  01 00 00 18 06 
  1217)     12893.5  Rx     0001C249  7  01 00 00 0F 03 49 C2 
  1218)     12893.6  Rx     0011C249  5  01 00 00 49 C2 
  1219)     12898.5  Rx     000135F6  7  01 00 00 0F 03 F6 35 
  1220)     12898.6  Rx     001135F6  5  01 00 00 F6 35 
  1221)     12903.5  Rx     0001C061  7  01 00 00 0F 03 61 C0 
  1222)     12903.6  Rx     0011C061  5  01 00 00 61 C0 
  1223)     12908.5  Rx     00018E01  7  01 00 00 0F 03 01 8E 
  1224)     12908.6  Rx     00118E01  5  01 00 00 01 8E 
  1225)     12913.5  Rx     0001C36E  7  01 00 00 0F 03 6E C3 
  1226)     12913.6  Rx     0011C36E  5  01 00 00 6E C3 
  1227)     12918.5  Rx     0001BC4F  7  01 00 00 0F 03 4F BC 
  1228)     12918.6  Rx     0011BC4F  5  01 00 00 4F BC 
  1229)     12923.5  Rx     00011496  7  01 00 00 0F 03 96 14 
  1230)     12923.6  Rx     00111496  5  01 00 00 96 14 
  1231)     12928.5  Rx     00010689  7  01 00 00 0F 03 89 06 
  1232)     12928.6  Rx     00110689  5  01 00 00 89 06 
  1233)     12933.5  Rx     00014983  7  01 00 00 0F 03 83 49 
  1234)     12933.6  Rx     00114983  5  01 00 00 83 49 
  1235)     12938.5  Rx     0001FAFC  7  01 00 00 0F 03 FC FA 
  1236)     12938.6  Rx     0011FAFC  5  01 00 00 FC FA 
  1237)     12943.5  Rx     0001966A  7  01 00 00 0F 03 6A 96 
  1238)     12943.6  Rx     0011966A  5  01 00 00 6A 96 
  1239)     12948.5  Rx     0001A016  7  01 00 00 0F 03 16 A0 
  1240)     12948.6  Rx     0011A016  5  01 00 00 16 A0 
  1241)     12953.5  Rx     000132DE  7  01 00 00 0F 03 DE 32 
  1242)     12953.6  Rx     001132DE  5  01 00 00 DE 32 
  1243)     12958.5  Rx     0001030B  7  01 00 00 0F 03 0B 03 
  1244)     12958.6  Rx     0011030B  5  01 00 00 0B 03 
  1245)     12963.5  Rx     0001CEEA  7  01 00 00 0F 03 EA CE 
  1246)     12963.6  Rx     0011CEEA  5  01 00 00 EA CE 
  1247)     12968.5  Rx     00012837  7  01 00 00 0F 03 37 28 
  1248)     12968.6  Rx     00112837  5  01 00 00 37 28 
  1249)     12973.5  Rx     00014A84  7  01 00 00 0F 03 84 4A 
  1250)     12973.6  Rx     00114A84  5  01 00 00 84 4A 
  1251)     12978.5  Rx     0001EF7E  7  01 00 00 0F 03 7E EF 
  1252)     12978.6  Rx     0011EF7E  5  01 00 00 7E EF 
  1253)     12983.5  Rx     0001BC4E  7  01 00 00 0F 03 4E BC 
  1254)     12983.6  Rx     0011BC4E  5  01 00 00 4E BC 
  1255)     12988.5  Rx     000180B1  7  01 00 00 0F 03 B1 80 
  1256)     12988.6  Rx     001180B1  5  01 00 00 B1 80 
  1257)     12993.5  Rx     0001114F  7  01 00 00 0F 03 4F 11 
  1258)     12993.6  Rx     0011114F  5  01 00 00 4F 11 
  1259)     12998.5  Rx     0001DFC5  7  01 00 00 0F 03 C5 DF 
  1260)     12998.6  Rx     0011DFC5  5  01 00 00 C5 DF 
  1261)     13003.5  Rx     000125FD  7  01 00 00 0F 03 FD 25 
  1262)     13003.6  Rx     001125FD  5  01 00 00 FD 25 
  1263)     13008.5  Rx     00014A5A  7  01 00 00 0F 03 5A 4A 
  1264)     13008.6  Rx     00114A5A  5  01 00 00 5A 4A 
  1265)     13013.5  Rx     0001A9D3  7  01 00 00 0F 03 D3 A9 
  1266)     13013.6  Rx     0011A9D3  5  01 00 00 D3 A9 
  1267)     13018.5  Rx     00010BEF  7  01 00 00 0F 03 EF 0B 
  1268)     13018.6  Rx     00110BEF  5  01 00 00 EF 0B 
  1269)     13023.5  Rx     0001E54F  7  01 00 00 0F 03 4F E5 
  1270)     13023.6  Rx     0011E54F  5  01 00 00 4F E5 
  1271)     13028.5  Rx     000163A9  7  01 00 00 0F 03 A9 63 
  1272)     13028.6  Rx     001163A9  5  01 00 00 A9 63 
  1273)     13033.5  Rx     00018300  7  01 00 00 0F 03 00 83 
  1274)     13033.6  Rx     00118300  5  01 00 00 00 83 
  1275)     13038.5  Rx     0001E29E  7  01 00 00 0F 03 9E E2 
  1276)     13038.6  Rx     0011E29E  5  01 00 00 9E E2 
  1277)     13043.5  Rx     00014315  7  01 00 00 0F 03 15 43 
  1278)     13043.6  Rx     00114315  5  01 00 00 15 43 
  1279)     13048.5  Rx     00017B09  7  01 00 00 0F 03 09 7B 
  1280)     13048.6  Rx     00117B09  5  01 00 00 09 7B 
  1281)     13053.5  Rx     00013D87  7  01 00 00 0F 03 87 3D 
  1282)     13053.6  Rx     00113D87  5  01 00 00 87 3D 
  1283)     13058.5  Rx     0001F8BE  7  01 00 00 0F 03 BE F8 
  1284)     13058.6  Rx     0011F8BE  5  01 00 00 BE F8 
  1285)     13063.4  Rx     000135D9  7  01 00 00 0F 03 D9 35 
  1286)     13063.6  Rx     001135D9  5  01 00 00 D9 35 
  1287)     13068.5  Rx     0001A4F0  7  01 00 00 0F 03 F0 A4 
  1288)     13068.6  Rx     0011A4F0  5  01 00 00 F0 A4 
  1289)     13073.5  Rx     00018BFD  7  01 00 00 0F 03 FD 8B 
  1290)     13073.6  Rx     00118BFD  5  01 00 00 FD 8B 
  1291)     13078.5  Rx     00014AF5  7  01 00 00 0F 03 F5 4A 
  1292)     13078.6  Rx     00114AF5  5  01 00 00 F5 4A 
  1293)     13083.5  Rx     0001C0E4  7  01 00 00 0F 03 E4 C0 
  1294)     13083.6  Rx     0011C0E4  5  01 00 00 E4 C0 
  1295)     13088.5  Rx     0001EDB2  7  01 00 00 0F 03 B2 ED 
  1296)     13088.6  Rx     0011EDB2  5  01 00 00 B2 ED 
  1297)     13093.4  Rx     0001D1C1  7  01 00 00 0F 03 C1 D1 
  1298)     13093.6  Rx     0011D1C1  5  01 00 00 C1 D1 
  1299)     13098.5  Rx     000114D9  7  01 00 00 0F 03 D9 14 
  1300)     13098.6  Rx     001114D9  5  01 00 00 D9 14 
  1301)     13103.5  Rx     00013C03  7  01 00 00 0F 03 03 3C 
  1302)     13103.6  Rx     00113C03  5  01 00 00 03 3C 
  1303)     13108.5  Rx     0001DF15  7  01 00 00 0F 03 15 DF 
  1304)     13108.6  Rx     0011DF15  5  01 00 00 15 DF 
  1305)     13113.5  Rx     0001289D  7  01 00 00 0F 03 9D 28 
  1306)     13113.6  Rx     0011289D  5  01 00 00 9D 28 
  1307)     13118.4  Rx     00010DE3  7  01 00 00 0F 03 E3 0D 
  1308)     13118.6  Rx     00110DE3  5  01 00 00 E3 0D 
  1309)     13123.5  Rx     0001A809  7  01 00 00 0F 03 09 A8 
  1310)     13123.6  Rx     0011A809  5  01 00 00 09 A8 
  1311)     13128.5  Rx     000115A3  7  01 00 00 0F 03 A3 15 
  1312)     13128.6  Rx     001115A3  5  01 00 00 A3 15 
  1313)     13133.5  Rx     0001152E  7  01 00 00 0F 03 2E 15 
  1314)     13133.6  Rx     0011152E  5  01 00 00 2E 15 
  1315)     13138.5  Rx     00016025  7  01 00 00 0F 03 25 60 
  1316)     13138.6  Rx     00116025  5  01 00 00 25 60 
  1317)     13143.4  Rx     0001FC13  7  01 00 00 0F 03 13 FC 
  1318)     13143.6  Rx     0011FC13  5  01 00 00 13 FC 
  1319)     13148.4  Rx     0001D5C2  7  01 00 00 0F 03 C2 D5 
  1320)     13148.6  Rx     0011D5C2  5  01 00 00 C2 D5 
  1321)     13153.5  Rx     00015603  7  01 00 00 0F 03 03 56 
  1322)     13153.6  Rx     00115603  5  01 00 00 03 56 
  1323)     13158.5  Rx     0001C8BD  7  01 00 00 0F 03 BD C8 
  1324)     13158.6  Rx     0011C8BD  5  01 00 00 BD C8 
  1325)     13163.5  Rx     0001778D  7  01 00 00 0F 03 8D 77 
  1326)     13163.6  Rx     0011778D  5  01 00 00 8D 77 
  1327)     13168.4  Rx     00018C84  7  01 00 00 0F 03 84 8C 
  1328)     13168.6  Rx     00118C84  5  01 00 00 84 8C 
  1329)     13173.4  Rx     0001B586  7  01 00 00 0F 03 86 B5 
  1330)     13173.6  Rx     0011B586  5  01 00 00 86 B5 
  1331)     13178.5  Rx     00019E08  7  01 00 00 0F 03 08 9E 
  1332)     13178.6  Rx     00119E08  5  01 00 00 08 9E 
  1333)     13183.5  Rx     0001E8F7  7  01 00 00 0F 03 F7 E8 
  1334)     13183.6  Rx     0011E8F7  5  01 00 00 F7 E8 
  1335)     13188.5  Rx     00017C3E  7  01 00 00 0F 03 3E 7C 
  1336)     13188.6  Rx     00117C3E  5  01 00 00 3E 7C 
  1337)     13193.5  Rx     0001E69D  7  01 00 00 0F 03 9D E6 
  1338)     13193.6  Rx     0011E69D  5  01 00 00 9D E6 
  1339)     13198.4  Rx     0001D396  7  01 00 00 0F 03 96 D3 
  1340)     13198.6  Rx     0011D396  5  01 00 00 96 D3 
  1341)     13203.4  Rx     00011566  7  01 00 00 0F 03 66 15 
  1342)     13203.6  Rx     00111566  5  01 00 00 66 15 
  1343)     13208.5  Rx     000124DB  7  01 00 00 0F 03 DB 24 
  1344)     13208.6  Rx     001124DB  5  01 00 00 DB 24 
  1345)     13213.5  Rx     0001440F  7  01 00 00 0F 03 0F 44 
  1346)     13213.5  Rx     0011440F  5  01 00 00 0F 44 
  1347)     13218.5  Rx     00012BE0  7  01 00 00 0F 03 E0 2B 
  1348)     13218.6  Rx     00112BE0  5  01 00 00 E0 2B 
  1349)     13223.4  Rx     0001E4CC  7  01 00 00 0F 03 CC E4 
  1350)     13223.6  Rx     0011E4CC  5  01 00 00 CC E4 
  1351)     13228.4  Rx     0001FBED  7  01 00 00 0F 03 ED FB 
  1352)     13228.6  Rx     0011FBED  5  01 00 00 ED FB 
  1353)     13233.4  Rx     0001AEA8  7  01 00 00 0F 03 A8 AE 
  1354)     13233.6  Rx     0011AEA8  5  01 00 00 A8 AE 
  1355)     13238.5  Rx     000123BA  7  01 00 00 0F 03 BA 23 
  1356)     13238.6  Rx     001123BA  5  01 00 00 BA 23 
  1357)     13243.5  Rx     0001DEF8  7  01 00 00 0F 03 F8 DE 
  1358)     13243.6  Rx     0011DEF8  5  01 00 00 F8 DE 
  1359)     13248.4  Rx     0001D486  7  01 00 00 0F 03 86 D4 
  1360)     13248.6  Rx     0011D486  5  01 00 00 86 D4 
  1361)     13253.4  Rx     00014A1B  7  01 00 00 0F 03 1B 4A 
  1362)     13253.6  Rx     00114A1B  5  01 00 00 1B 4A 
  1363)     13258.4  Rx     00012389  7  01 00 00 0F 03 89 23 
  1364)     13258.6  Rx     00112389  5  01 00 00 89 23 
  1365)     13263.4  Rx     0001455B  7  01 00 00 0F 03 5B 45 
  1366)     13263.6  Rx     0011455B  5  01 00 00 5B 45 
  1367)     13268.5  Rx     0001A2CB  7  01 00 00 0F 03 CB A2 
  1368)     13268.5  Rx     0011A2CB  5  01 00 00 CB A2 
  1369)     13273.5  Rx     000164A9  7  01 00 00 0F 03 A9 64 
  1370)     13273.6  Rx     001164A9  5  01 00 00 A9 64 
  1371)     13278.4  Rx     00016E34  7  01 00 00 0F 03 34 6E 
  1372)     13278.6  Rx     00116E34  5  01 00 00 34 6E 
  1373)     13283.4  Rx     0001998F  7  01 00 00 0F 03 8F 99 
  1374)     13283.6  Rx     0011998F  5  01 00 00 8F 99 
  1375)     13288.4  Rx     0001CF44  7  01 00 00 0F 03 44 CF 
  1376)     13288.6  Rx     0011CF44  5  01 00 00 44 CF 
  1377)     13293.5  Rx     00013D85  7  01 00 00 0F 03 85 3D 
  1378)     13293.5  Rx     00113D85  5  01 00 00 85 3D 
  1379)     13298.5  Rx     00014DDB  7  01 00 00 0F 03 DB 4D 
  1380)     13298.5  Rx     00114DDB  5  01 00 00 DB 4D 
  1381)     13303.4  Rx     0001C497  7  01 00 00 0F 03 97 C4 
  1382)     13303.6  Rx     0011C497  5  01 00 00 97 C4 
  1383)     13308.4  Rx     0001F5F5  7  01 00 00 0F 03 F5 F5 
  1384)     13308.6  Rx     0011F5F5  5  01 00 00 F5 F5 
  1385)     13313.4  Rx     0001C5F5  7  01 00 00 0F 03 F5 C5 
  1386)     13313.6  Rx     0011C5F5  5  01 00 00 F5 C5 
  1387)     13318.5  Rx     00011248  7  01 00 00 0F 03 48 12 
  1388)     13318.5  Rx     00111248  5  01 00 00 48 12 
  1389)     13323.5  Rx     000186E6  7  01 00 00 0F 03 E6 86 
  1390)     13323.5  Rx     001186E6  5  01 00 00 E6 86 
  1391)     13328.4  Rx     0001652D  7  01 00 00 0F 03 2D 65 
  1392)     13328.5  Rx     0011652D  5  01 00 00 2D 65 
  1393)     13333.4  Rx     00018538  7  01 00 00 0F 03 38 85 
  1394)     13333.6  Rx     00118538  5  01 00 00 38 85 
  1395)     13338.4  Rx     00012929  7  01 00 00 0F 03 29 29 
  1396)     13338.6  Rx     00112929  5  01 00 00 29 29 
  1397)     13343.4  Rx     0001A121  7  01 00 00 0F 03 21 A1 
  1398)     13343.6  Rx     0011A121  5  01 00 00 21 A1 
  1399)     13348.5  Rx     0001AC20  7  01 00 00 0F 03 20 AC 
  1400)     13348.5  Rx     0011AC20  5  01 00 00 20 AC 
  1401)     13353.4  Rx     0001632B  7  01 00 00 0F 03 2B 63 
  1402)     13353.5  Rx     0011632B  5  01 00 00 2B 63 
  1403)     13358.4  Rx     000127FA  7  01 00 00 0F 03 FA 27 
  1404)     13358.6  Rx     001127FA  5  01 00 00 FA 27 
  1405)     13363.4  Rx     00014DA3  7  01 00 00 0F 03 A3 4D 
  1406)     13363.6  Rx     00114DA3  5  01 00 00 A3 4D 
  1407)     13368.4  Rx     00012D35  7  01 00 00 0F 03 35 2D 
  1408)     13368.6  Rx     00112D35  5  01 00 00 35 2D 
  1409)     13373.4  Rx     000175A9  7  01 00 00 0F 03 A9 75 
  1410)     13373.5  Rx     001175A9  5  01 00 00 A9 75 
  1411)     13378.5  Rx     0001DBC3  7  01 00 00 0F 03 C3 DB 
  1412)     13378.5  Rx     0011DBC3  5  01 00 00 C3 DB 
  1413)     13383.4  Rx     000172C4  7  01 00 00 0F 03 C4 72 
  1414)     13383.5  Rx     001172C4  5  01 00 00 C4 72 
  1415)     13388.4  Rx     0001AC1F  7  01 00 00 0F 03 1F AC 
  1416)     13388.6  Rx     0011AC1F  5  01 00 00 1F AC 
  1417)     13393.4  Rx     0001CCB5  7  01 00 00 0F 03 B5 CC 
  1418)     13393.6  Rx     0011CCB5  5  01 00 00 B5 CC 
  1419)     13398.4  Rx     00016285  7  01 00 00 0F 03 85 62 
  1420)     13398.5  Rx     00116285  5  01 00 00 85 62 
  1421)     13403.5  Rx     000105D9  7  01 00 00 0F 03 D9 05 
  1422)     13403.5  Rx     001105D9  5  01 00 00 D9 05 
  1423)     13408.4  Rx     0001E3AE  7  01 00 00 0F 03 AE E3 
  1424)     13408.5  Rx     0011E3AE  5  01 00 00 AE E3 
  1425)     13413.4  Rx     00015558  7  01 00 00 0F 03 58 55 
  1426)     13413.6  Rx     00115558  5  01 00 00 58 55 
  1427)     13418.4  Rx     00013A74  7  01 00 00 0F 03 74 3A 
  1428)     13418.6  Rx     00113A74  5  01 00 00 74 3A 
  1429)     13423.4  Rx     000152F9  7  01 00 00 0F 03 F9 52 
  1430)     13423.5  Rx     001152F9  5  01 00 00 F9 52 
  1431)     13428.4  Rx     00010B62  7  01 00 00 0F 03 62 0B 
  1432)     13428.5  Rx     00110B62  5  01 00 00 62 0B 
  1433)     13433.4  Rx     00018B4A  7  01 00 00 0F 03 4A 8B 
  1434)     13433.5  Rx     00118B4A  5  01 00 00 4A 8B 
  1435)     13438.4  Rx     00013EE5  7  01 00 00 0F 03 E5 3E 
  1436)     13438.5  Rx     00113EE5  5  01 00 00 E5 3E 
  1437)     13443.4  Rx     00014184  7  01 00 00 0F 03 84 41 
  1438)     13443.6  Rx     00114184  5  01 00 00 84 41 
  1439)     13448.4  Rx     00016CC3  7  01 00 00 0F 03 C3 6C 
  1440)     13448.6  Rx     00116CC3  5  01 00 00 C3 6C 
  1441)     13453.4  Rx     00015D53  7  01 00 00 0F 03 53 5D 
  1442)     13453.5  Rx     00115D53  5  01 00 00 53 5D 
  1443)     13458.5  Rx     0001CF05  7  01 00 00 0F 03 05 CF 
  1444)     13458.5  Rx     0011CF05  5  01 00 00 05 CF 
  1445)     13463.4  Rx     0001BD64  7  01 00 00 0F 03 64 BD 
  1446)     13463.5  Rx     0011BD64  5  01 00 00 64 BD 
  1447)     13468.4  Rx     00010472  7  01 00 00 0F 03 72 04 
  1448)     13468.6  Rx     00110472  5  01 00 00 72 04 
  1449)     13473.4  Rx     0001006F  7  01 00 00 0F 03 6F 00 
  1450)     13473.6  Rx     0011006F  5  01 00 00 6F 00 
  1451)     13478.4  Rx     0001D24E  7  01 00 00 0F 03 4E D2 
  1452)     13478.5  Rx     0011D24E  5  01 00 00 4E D2 
  1453)     13483.4  Rx     0001F510  7  01 00 00 0F 03 10 F5 
  1454)     13483.5  Rx     0011F510  5  01 00 00 10 F5 
  1455)     13488.4  Rx     0001EEFD  7  01 00 00 0F 03 FD EE 
  1456)     13488.5  Rx     0011EEFD  5  01 00 00 FD EE 
  1457)     13493.4  Rx     0001B5B2  7  01 00 00 0F 03 B2 B5 
  1458)     13493.5  Rx     0011B5B2  5  01 00 00 B2 B5 
  1459)     13498.4  Rx     0001D2B9  7  01 00 00 0F 03 B9 D2 
  1460)     13498.6  Rx     0011D2B9  5  01 00 00 B9 D2 
  1461)     13503.4  Rx     0001A855  7  01 00 00 0F 03 55 A8 
  1462)     13503.5  Rx     0011A855  5  01 00 00 55 A8 
  1463)     13508.4  Rx     00011576  7  01 00 00 0F 03 76 15 
  1464)     13508.5  Rx     00111576  5  01 00 00 76 15 
  1465)     13513.4  Rx     000196F1  7  01 00 00 0F 03 F1 96 
  1466)     13513.5  Rx     001196F1  5  01 00 00 F1 96 
  1467)     13518.4  Rx     0001F8B2  7  01 00 00 0F 03 B2 F8 
  1468)     13518.5  Rx     0011F8B2  5  01 00 00 B2 F8 
  1469)     13523.4  Rx     00018FD3  7  01 00 00 0F 03 D3 8F 
  1470)     13523.5  Rx     00118FD3  5  01 00 00 D3 8F 
  1471)     13528.4  Rx     0001B1C1  7  01 00 00 0F 03 C1 B1 
  1472)     13528.6  Rx     0011B1C1  5  01 00 00 C1 B1 
  1473)     13533.4  Rx     00016E1C  7  01 00 00 0F 03 1C 6E 
  1474)     13533.5  Rx     00116E1C  5  01 00 00 1C 6E 
  1475)     13538.4  Rx     00012CCF  7  01 00 00 0F 03 CF 2C 
  1476)     13538.5  Rx     00112CCF  5  01 00 00 CF 2C 
  1477)     13543.4  Rx     00017D48  7  01 00 00 0F 03 48 7D 
  1478)     13543.5  Rx     00117D48  5  01 00 00 48 7D 
  1479)     13548.4  Rx     0001E2B0  7  01 00 00 0F 03 B0 E2 
  1480)     13548.5  Rx     0011E2B0  5  01 00 00 B0 E2 
  1481)     13553.4  Rx     00018F6C  7  01 00 00 0F 03 6C 8F 
  1482)     13553.6  Rx     00118F6C  5  01 00 00 6C 8F 
  1483)     13558.4  Rx     00012B3F  7  01 00 00 0F 03 3F 2B 
  1484)     13558.5  Rx     00112B3F  5  01 00 00 3F 2B 
  1485)     13563.4  Rx     0001E08F  7  01 00 00 0F 03 8F E0 
  1486)     13563.5  Rx     0011E08F  5  01 00 00 8F E0 
  1487)     13568.4  Rx     000133D0  7  01 00 00 0F 03 D0 33 
  1488)     13568.5  Rx     001133D0  5  01 00 00 D0 33 
  1489)     13573.4  Rx     00019241  7  01 00 00 0F 03 41 92 
  1490)     13573.5  Rx     00119241  5  01 00 00 41 92 
  1491)     13578.4  Rx     00017D03  7  01 00 00 0F 03 03 7D 
  1492)     13578.6  Rx     00117D03  5  01 00 00 03 7D 
  1493)     13583.4  Rx     00010165  7  01 00 00 0F 03 65 01 
  1494)     13583.5  Rx     00110165  5  01 00 00 65 01 
  1495)     13588.4  Rx     00013900  7  01 00 00 0F 03 00 39 
  1496)     13588.5  Rx     00113900  5  01 00 00 00 39 
  1497)     13593.4  Rx     000130C8  7  01 00 00 0F 03 C8 30 
  1498)     13593.5  Rx     001130C8  5  01 00 00 C8 30 
  1499)     13598.4  Rx     00019EDF  7  01 00 00 0F 03 DF 9E 
  1500)     13598.5  Rx     00119EDF  5  01 00 00 DF 9E 
  1501)     13603.4  Rx     000141F1  7  01 00 00 0F 03 F1 41 
  1502)     13603.5  Rx     001141F1  5  01 00 00 F1 41 
  1503)     13608.4  Rx     000119C6  7  01 00 00 0F 03 C6 19 
  1504)     13608.5  Rx     001119C6  5  01 00 00 C6 19 
  1505)     13613.4  Rx     00011A5E  7  01 00 00 0F 03 5E 1A 
  1506)     13613.5  Rx     00111A5E  5  01 00 00 5E 1A 
  1507)     13618.4  Rx     0001020D  7  01 00 00 0F 03 0D 02 
  1508)     13618.5  Rx     0011020D  5  01 00 00 0D 02 
  1509)     13623.4  Rx     00018201  7  01 00 00 0F 03 01 82 
  1510)     13623.5  Rx     00118201  5  01 00 00 01 82 
  1511)     13628.4  Rx     00012060  7  01 00 00 0F 03 60 20 
  1512)     13628.5  Rx     00112060  5  01 00 00 60 20 
  1513)     13633.5  Rx     0001ACB6  7  01 00 00 0F 03 B6 AC 
  1514)     13633.5  Rx     0011ACB6  5  01 00 00 B6 AC 
  1515)     13638.4  Rx     00012EB6  7  01 00 00 0F 03 B6 2E 
  1516)     13638.6  Rx     00112EB6  5  01 00 00 B6 2E 
  1517)     13643.4  Rx     00016714  7  01 00 00 0F 03 14 67 
  1518)     13643.6  Rx     00116714  5  01 00 00 14 67 
  1519)     13648.4  Rx     00014C9C  7  01 00 00 0F 03 9C 4C 
  1520)     13648.6  Rx     00114C9C  5  01 00 00 9C 4C 
  1521)     13653.4  Rx     0001E7BC  7  01 00 00 0F 03 BC E7 
  1522)     13653.5  Rx     0011E7BC  5  01 00 00 BC E7 
  1523)     13658.5  Rx     0001B820  7  01 00 00 0F 03 20 B8 
  1524)     13658.5  Rx     0011B820  5  01 00 00 20 B8 
  1525)     13663.4  Rx     0001A91B  7  01 00 00 0F 03 1B A9 
  1526)     13663.5  Rx     0011A91B  5  01 00 00 1B A9 
  1527)     13668.4  Rx     0001D667  7  01 00 00 0F 03 67 D6 
  1528)     13668.6  Rx     0011D667  5  01 00 00 67 D6 
  1529)     13673.4  Rx     00011838  7  01 00 00 0F 03 38 18 
  1530)     13673.6  Rx     00111838  5  01 00 00 38 18 
  1531)     13678.4  Rx     00016EA7  7  01 00 00 0F 03 A7 6E 
  1532)     13678.6  Rx     00116EA7  5  01 00 00 A7 6E 
  1533)     13683.5  Rx     000177FE  7  01 00 00 0F 03 FE 77 
  1534)     13683.5  Rx     001177FE  5  01 00 00 FE 77 
  1535)     13688.5  Rx     0001CC26  7  01 00 00 0F 03 26 CC 
  1536)     13688.5  Rx     0011CC26  5  01 00 00 26 CC 
  1537)     13693.4  Rx     0001D131  7  01 00 00 0F 03 31 D1 
  1538)     13693.5  Rx     0011D131  5  01 00 00 31 D1 
  1539)     13698.4  Rx     00014B6D  7  01 00 00 0F 03 6D 4B 
  1540)     13698.6  Rx     00114B6D  5  01 00 00 6D 4B 
  1541)     13703.4  Rx     0001A1E0  7  01 00 00 0F 03 E0 A1 
  1542)     13703.6  Rx     0011A1E0  5  01 00 00 E0 A1 
  1543)     13708.4  Rx     0001B0C7  7  01 00 00 0F 03 C7 B0 
  1544)     13708.5  Rx     0011B0C7  5  01 00 00 C7 B0 
  1545)     13713.5  Rx     00018C16  7  01 00 00 0F 03 16 8C 
  1546)     13713.5  Rx     00118C16  5  01 00 00 16 8C 
  1547)     13718.4  Rx     00019DD0  7  01 00 00 0F 03 D0 9D 
  1548)     13718.5  Rx     00119DD0  5  01 00 00 D0 9D 
  1549)     13723.4  Rx     00010E22  7  01 00 00 0F 03 22 0E 
  1550)     13723.6  Rx     00110E22  5  01 00 00 22 0E 
  1551)     13728.4  Rx     0001E195  7  01 00 00 0F 03 95 E1 
  1552)     13728.6  Rx     0011E195  5  01 00 00 95 E1 
  1553)     13733.4  Rx     0001A39E  7  01 00 00 0F 03 9E A3 
  1554)     13733.5  Rx     0011A39E  5  01 00 00 9E A3 
  1555)     13738.4  Rx     00010E9E  7  01 00 00 0F 03 9E 0E 
  1556)     13738.5  Rx     00110E9E  5  01 00 00 9E 0E 
  1557)     13743.4  Rx     0001F528  7  01 00 00 0F 03 28 F5 
  1558)     13743.5  Rx     0011F528  5  01 00 00 28 F5 
  1559)     13748.4  Rx     00014FCF  7  01 00 00 0F 03 CF 4F 
  1560)     13748.5  Rx     00114FCF  5  01 00 00 CF 4F 
  1561)     13753.4  Rx     0001016A  7  01 00 00 0F 03 6A 01 
  1562)     13753.6  Rx     0011016A  5  01 00 00 6A 01 
  1563)     13758.4  Rx     0001AD09  7  01 00 00 0F 03 09 AD 
  1564)     13758.6  Rx     0011AD09  5  01 00 00 09 AD 
  1565)     13763.4  Rx     000138DD  7  01 00 00 0F 03 DD 38 
  1566)     13763.5  Rx     001138DD  5  01 00 00 DD 38 
  1567)     13768.4  Rx     0001F1F6  7  01 00 00 0F 03 F6 F1 
  1568)     13768.5  Rx     0011F1F6  5  01 00 00 F6 F1 
  1569)     13773.4  Rx     00010E6F  7  01 00 00 0F 03 6F 0E 
  1570)     13773.5  Rx     00110E6F  5  01 00 00 6F 0E 
  1571)     13778.4  Rx     0001095B  7  01 00 00 0F 03 5B 09 
  1572)     13778.5  Rx     0011095B  5  01 00 00 5B 09 
  1573)     13783.4  Rx     0001ADF6  7  01 00 00 0F 03 F6 AD 
  1574)     13783.6  Rx     0011ADF6  5  01 00 00 F6 AD 
  1575)     13788.4  Rx     000170E9  7  01 00 00 0F 03 E9 70 
  1576)     13788.5  Rx     001170E9  5  01 00 00 E9 70 
  1577)     13793.4  Rx     00016615  7  01 00 00 0F 03 15 66 
  1578)     13793.5  Rx     00116615  5  01 00 00 15 66 
  1579)     13798.4  Rx     00013D69  7  01 00 00 0F 03 69 3D 
  1580)     13798.5  Rx     00113D69  5  01 00 00 69 3D 
  1581)     13803.4  Rx     000171F9  7  01 00 00 0F 03 F9 71 
  1582)     13803.5  Rx     001171F9  5  01 00 00 F9 71 
  1583)     13808.4  Rx     000198B2  7  01 00 00 0F 03 B2 98 
  1584)     13808.6  Rx     001198B2  5  01 00 00 B2 98 
  1585)     13813.4  Rx     0001B81E  7  01 00 00 0F 03 1E B8 
  1586)     13813.5  Rx     0011B81E  5  01 00 00 1E B8 
  1587)     13818.4  Rx     0001FEC8  7  01 00 00 0F 03 C8 FE 
  1588)     13818.5  Rx     0011FEC8  5  01 00 00 C8 FE 
  1589)     13823.4  Rx     00013DFC  7  01 00 00 0F 03 FC 3D 
  1590)     13823.5  Rx     00113DFC  5  01 00 00 FC 3D 
  1591)     13828.4  Rx     0001091C  7  01 00 00 0F 03 1C 09 
  1592)     13828.5  Rx     0011091C  5  01 00 00 1C 09 
  1593)     13833.4  Rx     00019947  7  01 00 00 0F 03 47 99 
  1594)     13833.5  Rx     00119947  5  01 00 00 47 99 
  1595)     13838.4  Rx     0001A2C0  7  01 00 00 0F 03 C0 A2 
  1596)     13838.5  Rx     0011A2C0  5  01 00 00 C0 A2 
  1597)     13843.4  Rx     0001A62D  7  01 00 00 0F 03 2D A6 
  1598)     13843.5  Rx     0011A62D  5  01 00 00 2D A6 
  1599)     13848.4  Rx     0001AA0C  7  01 00 00 0F 03 0C AA 
  1600)     13848.5  Rx     0011AA0C  5  01 00 00 0C AA 
  1601)     13853.4  Rx     00013EB0  7  01 00 00 0F 03 B0 3E 
  1602)     13853.5  Rx     00113EB0  5  01 00 00 B0 3E 
  1603)     13858.4  Rx     00014804  7  01 00 00 0F 03 04 48 
  1604)     13858.5  Rx     00114804  5  01 00 00 04 48 
  1605)     13863.4  Rx     00018214  7  01 00 00 0F 03 14 82 
  1606)     13863.6  Rx     00118214  5  01 00 00 14 82 
  1607)     13868.4  Rx     0001438C  7  01 00 00 0F 03 8C 43 
  1608)     13868.5  Rx     0011438C  5  01 00 00 8C 43 
  1609)     13873.4  Rx     00016BFB  7  01 00 00 0F 03 FB 6B 
  1610)     13873.5  Rx     00116BFB  5  01 00 00 FB 6B 
  1611)     13878.4  Rx     0001D61E  7  01 00 00 0F 03 1E D6 
  1612)     13878.5  Rx     0011D61E  5  01 00 00 1E D6 
  1613)     13883.4  Rx     0001299A  7  01 00 00 0F 03 9A 29 
  1614)     13883.5  Rx     0011299A  5  01 00 00 9A 29 
  1615)     13888.4  Rx     000115A5  7  01 00 00 0F 03 A5 15 
  1616)     13888.5  Rx     001115A5  5  01 00 00 A5 15 
  1617)     13893.4  Rx     00012036  7  01 00 00 0F 03 36 20 
  1618)     13893.5  Rx     00112036  5  01 00 00 36 20 
  1619)     13898.4  Rx     00010AAB  7  01 00 00 0F 03 AB 0A 
  1620)     13898.5  Rx     00110AAB  5  01 00 00 AB 0A 
  1621)     13903.4  Rx     0001CEC8  7  01 00 00 0F 03 C8 CE 
  1622)     13903.5  Rx     0011CEC8  5  01 00 00 C8 CE 
  1623)     13908.4  Rx     00016BF5  7  01 00 00 0F 03 F5 6B 
  1624)     13908.5  Rx     00116BF5  5  01 00 00 F5 6B 
  1625)     13913.4  Rx     00019579  7  01 00 00 0F 03 79 95 
  1626)     13913.5  Rx     00119579  5  01 00 00 79 95 
  1627)     13918.4  Rx     00018C4B  7  01 00 00 0F 03 4B 8C 
  1628)     13918.5  Rx     00118C4B  5  01 00 00 4B 8C 
  1629)     13923.4  Rx     0001C850  7  01 00 00 0F 03 50 C8 
  1630)     13923.5  Rx     0011C850  5  01 00 00 50 C8 
  1631)     13928.4  Rx     000114FB  7  01 00 00 0F 03 FB 14 
