;$FILEVERSION=1.1
;$STARTTIME=46290.6111719097
;
;   Start time: 25/09/2026 14:40:05.253.0
;   Generated by PCAN-View v5.3.3.958
;
;   Message Number
;   |         Time Offset (ms)
;   |         |        Type
;   |         |        |        ID (hex)
;   |         |        |        |     Data Length
;   |         |        |        |     |   Data Bytes (hex) ...
;   |         |        |        |     |   |
;---+--   ----+----  --+--  ----+---  +  -+ -- -- -- -- -- -- --
     1)    130340.9  Rx     0001A336  7  01 00 00 0F 00 36 A3 
     2)    130341.0  Rx     0011A336  5  01 00 00 36 A3 
     3)    130345.9  Rx     0001F55C  7  01 00 00 0F 03 5C F5 
     4)    130346.0  Rx     0011F55C  5  01 00 00 5C F5 
     5)    130350.8  Rx     00013F32  7  01 00 00 0F 03 32 3F 
     6)    130351.0  Rx     00113F32  5  01 00 00 32 3F 
     7)    130355.9  Rx     0001473C  7  01 00 00 0F 03 3C 47 
     8)    130356.0  Rx     0011473C  5  01 00 00 3C 47 
     9)    130360.9  Rx     0001262A  7  01 00 00 0F 03 2A 26 
    10)    130361.0  Rx     0011262A  5  01 00 00 2A 26 
    11)    130365.9  Rx     00014E37  7  01 00 00 0F 03 37 4E 
    12)    130366.0  Rx     00114E37  5  01 00 00 37 4E 
    13)    130370.9  Rx     0001DBDD  7  01 00 00 0F 03 DD DB 
    14)    130371.0  Rx     0011DBDD  5  01 00 00 DD DB 
    15)    130375.9  Rx     0001FD17  7  01 00 00 0F 03 17 FD 
    16)    130376.0  Rx     0011FD17  5  01 00 00 17 FD 
    17)    130380.9  Rx     00013D27  7  01 00 00 0F 03 27 3D 
    18)    130381.0  Rx     00113D27  5  01 00 00 27 3D 
    19)    130385.9  Rx     0001BF2B  7  01 00 00 0F 03 2B BF 
    20)    130386.0  Rx     0011BF2B  5  01 00 00 2B BF 
    21)    130390.9  Rx     0001A246  7  01 00 00 0F 03 46 A2 
    22)    130391.0  Rx     0011A246  5  01 00 00 46 A2 
    23)    130395.9  Rx     000141B5  7  01 00 00 0F 03 B5 41 
    24)    130396.0  Rx     001141B5  5  01 00 00 B5 41 
    25)    130400.9  Rx     000109E8  7  01 00 00 0F 03 E8 09 
    26)    130401.0  Rx     001109E8  5  01 00 00 E8 09 
    27)    130405.8  Rx     000178E7  7  01 00 00 0F 03 E7 78 
    28)    130406.0  Rx     001178E7  5  01 00 00 E7 78 
    29)    130410.9  Rx     000106B8  7  01 00 00 0F 03 B8 06 
    30)    130411.0  Rx     001106B8  5  01 00 00 B8 06 
    31)    130415.9  Rx     0001341F  7  01 00 00 0F 03 1F 34 
    32)    130416.0  Rx     0011341F  5  01 00 00 1F 34 
    33)    130420.9  Rx     000103B5  7  01 00 00 0F 03 B5 03 
    34)    130421.0  Rx     001103B5  5  01 00 00 B5 03 
    35)    130425.9  Rx     0001EB0B  7  01 00 00 0F 03 0B EB 
    36)    130426.0  Rx     0011EB0B  5  01 00 00 0B EB 
    37)    130430.8  Rx     0001809A  7  01 00 00 0F 03 9A 80 
    38)    130431.0  Rx     0011809A  5  01 00 00 9A 80 
    39)    130435.8  Rx     00019CDE  7  01 00 00 0F 03 DE 9C 
    40)    130436.0  Rx     00119CDE  5  01 00 00 DE 9C 
    41)    130440.9  Rx     00012229  7  01 00 00 0F 03 29 22 
    42)    130441.0  Rx     00112229  5  01 00 00 29 22 
    43)    130445.9  Rx     00012CB7  7  01 00 00 0F 03 B7 2C 
    44)    130446.0  Rx     00112CB7  5  01 00 00 B7 2C 
    45)    130450.9  Rx     00017B0D  7  01 00 00 0F 03 0D 7B 
    46)    130451.0  Rx     00117B0D  5  01 00 00 0D 7B 
    47)    130455.8  Rx     0001E9EF  7  01 00 00 0F 03 EF E9 
    48)    130456.0  Rx     0011E9EF  5  01 00 00 EF E9 
    49)    130460.8  Rx     000158B6  7  01 00 00 0F 03 B6 58 
    50)    130461.0  Rx     001158B6  5  01 00 00 B6 58 
    51)    130465.9  Rx     0001C4E1  7  01 00 00 0F 03 E1 C4 
    52)    130466.0  Rx     0011C4E1  5  01 00 00 E1 C4 
    53)    130470.9  Rx     0001F854  7  01 00 00 0F 03 54 F8 
    54)    130471.0  Rx     0011F854  5  01 00 00 54 F8 
    55)    130475.9  Rx     00013C76  7  01 00 00 0F 03 76 3C 
    56)    130476.0  Rx     00113C76  5  01 00 00 76 3C 
    57)    130480.9  Rx     0001CAE8  7  01 00 00 0F 03 E8 CA 
    58)    130481.0  Rx     0011CAE8  5  01 00 00 E8 CA 
    59)    130485.8  Rx     00010E6A  7  01 00 00 0F 03 6A 0E 
    60)    130486.0  Rx     00110E6A  5  01 00 00 6A 0E 
    61)    130490.8  Rx     00018BF7  7  01 00 00 0F 03 F7 8B 
    62)    130491.0  Rx     00118BF7  5  01 00 00 F7 8B 
    63)    130495.9  Rx     00019833  7  01 00 00 0F 03 33 98 
    64)    130496.0  Rx     00119833  5  01 00 00 33 98 
    65)    130500.9  Rx     00011D6B  7  01 00 00 0F 03 6B 1D 
    66)    130500.9  Rx     00111D6B  5  01 00 00 6B 1D 
    67)    130505.9  Rx     0001D3EE  7  01 00 00 0F 03 EE D3 
    68)    130506.0  Rx     0011D3EE  5  01 00 00 EE D3 
    69)    130510.8  Rx     00010BA6  7  01 00 00 0F 03 A6 0B 
    70)    130511.0  Rx     00110BA6  5  01 00 00 A6 0B 
    71)    130515.8  Rx     0001C0B7  7  01 00 00 0F 03 B7 C0 
    72)    130516.0  Rx     0011C0B7  5  01 00 00 B7 C0 
    73)    130520.8  Rx     0001DBCD  7  01 00 00 0F 03 CD DB 
    74)    130521.0  Rx     0011DBCD  5  01 00 00 CD DB 
    75)    130525.9  Rx     0001E75E  7  01 00 00 0F 03 5E E7 
    76)    130526.0  Rx     0011E75E  5  01 00 00 5E E7 
    77)    130530.9  Rx     000172DD  7  01 00 00 0F 03 DD 72 
    78)    130531.0  Rx     001172DD  5  01 00 00 DD 72 
    79)    130535.8  Rx     00017855  7  01 00 00 0F 03 55 78 
    80)    130536.0  Rx     00117855  5  01 00 00 55 78 
    81)    130540.8  Rx     00019F02  7  01 00 00 0F 03 02 9F 
    82)    130541.0  Rx     00119F02  5  01 00 00 02 9F 
    83)    130545.8  Rx     0001B54E  7  01 00 00 0F 03 4E B5 
    84)    130546.0  Rx     0011B54E  5  01 00 00 4E B5 
    85)    130550.9  Rx     0001AD4B  7  01 00 00 0F 03 4B AD 
    86)    130551.0  Rx     0011AD4B  5  01 00 00 4B AD 
    87)    130555.9  Rx     00016CDA  7  01 00 00 0F 03 DA 6C 
    88)    130555.9  Rx     00116CDA  5  01 00 00 DA 6C 
    89)    130560.9  Rx     000190AC  7  01 00 00 0F 03 AC 90 
    90)    130561.0  Rx     001190AC  5  01 00 00 AC 90 
    91)    130565.8  Rx     0001C00E  7  01 00 00 0F 03 0E C0 
    92)    130566.0  Rx     0011C00E  5  01 00 00 0E C0 
    93)    130570.8  Rx     000163F3  7  01 00 00 0F 03 F3 63 
    94)    130571.0  Rx     001163F3  5  01 00 00 F3 63 
    95)    130575.9  Rx     000165FC  7  01 00 00 0F 03 FC 65 
    96)    130576.0  Rx     001165FC  5  01 00 00 FC 65 
    97)    130580.9  Rx     00019317  7  01 00 00 0F 03 17 93 
    98)    130580.9  Rx     00119317  5  01 00 00 17 93 
    99)    130585.9  Rx     00014E7A  7  01 00 00 0F 03 7A 4E 
   100)    130585.9  Rx     00114E7A  5  01 00 00 7A 4E 
   101)    130590.8  Rx     0001C50E  7  01 00 00 0F 03 0E C5 
   102)    130591.0  Rx     0011C50E  5  01 00 00 0E C5 
   103)    130595.8  Rx     00013D92  7  01 00 00 0F 03 92 3D 
   104)    130596.0  Rx     00113D92  5  01 00 00 92 3D 
   105)    130600.8  Rx     0001A206  7  01 00 00 0F 03 06 A2 
   106)    130601.0  Rx     0011A206  5  01 00 00 06 A2 
   107)    130605.8  Rx     0001DA91  7  01 00 00 0F 03 91 DA 
   108)    130605.9  Rx     0011DA91  5  01 00 00 91 DA 
   109)    130610.9  Rx     000176B6  7  01 00 00 0F 03 B6 76 
   110)    130610.9  Rx     001176B6  5  01 00 00 B6 76 
   111)    130615.8  Rx     0001F588  7  01 00 00 0F 03 88 F5 
   112)    130616.0  Rx     0011F588  5  01 00 00 88 F5 
   113)    130620.8  Rx     0001202F  7  01 00 00 0F 03 2F 20 
   114)    130621.0  Rx     0011202F  5  01 00 00 2F 20 
   115)    130625.8  Rx     0001AFC7  7  01 00 00 0F 03 C7 AF 
   116)    130626.0  Rx     0011AFC7  5  01 00 00 C7 AF 
   117)    130630.8  Rx     00012C44  7  01 00 00 0F 03 44 2C 
   118)    130631.0  Rx     00112C44  5  01 00 00 44 2C 
   119)    130635.9  Rx     0001D790  7  01 00 00 0F 03 90 D7 
   120)    130635.9  Rx     0011D790  5  01 00 00 90 D7 
   121)    130640.8  Rx     00013186  7  01 00 00 0F 03 86 31 
   122)    130640.9  Rx     00113186  5  01 00 00 86 31 
   123)    130645.8  Rx     00018519  7  01 00 00 0F 03 19 85 
   124)    130646.0  Rx     00118519  5  01 00 00 19 85 
   125)    130650.8  Rx     0001BA74  7  01 00 00 0F 03 74 BA 
   126)    130651.0  Rx     0011BA74  5  01 00 00 74 BA 
   127)    130655.8  Rx     00016698  7  01 00 00 0F 03 98 66 
   128)    130656.0  Rx     00116698  5  01 00 00 98 66 
   129)    130660.8  Rx     0001EE3C  7  01 00 00 0F 03 3C EE 
   130)    130660.9  Rx     0011EE3C  5  01 00 00 3C EE 
   131)    130665.9  Rx     00010EE4  7  01 00 00 0F 03 E4 0E 
   132)    130665.9  Rx     00110EE4  5  01 00 00 E4 0E 
   133)    130670.8  Rx     0001AE4D  7  01 00 00 0F 03 4D AE 
   134)    130670.9  Rx     0011AE4D  5  01 00 00 4D AE 
   135)    130675.8  Rx     00018DFE  7  01 00 00 0F 03 FE 8D 
   136)    130676.0  Rx     00118DFE  5  01 00 00 FE 8D 
   137)    130680.8  Rx     0001CE85  7  01 00 00 0F 03 85 CE 
   138)    130681.0  Rx     0011CE85  5  01 00 00 85 CE 
   139)    130685.8  Rx     00016475  7  01 00 00 0F 03 75 64 
   140)    130685.9  Rx     00116475  5  01 00 00 75 64 
   141)    130690.9  Rx     000132C2  7  01 00 00 0F 03 C2 32 
   142)    130690.9  Rx     001132C2  5  01 00 00 C2 32 
   143)    130695.8  Rx     0001A284  7  01 00 00 0F 03 84 A2 
   144)    130695.9  Rx     0011A284  5  01 00 00 84 A2 
   145)    130700.8  Rx     0001FB1D  7  01 00 00 0F 03 1D FB 
   146)    130701.0  Rx     0011FB1D  5  01 00 00 1D FB 
   147)    130705.8  Rx     0001D55F  7  01 00 00 0F 03 5F D5 
   148)    130706.0  Rx     0011D55F  5  01 00 00 5F D5 
   149)    130710.8  Rx     0001F117  7  01 00 00 0F 03 17 F1 
   150)    130710.9  Rx     0011F117  5  01 00 00 17 F1 
   151)    130715.8  Rx     00017104  7  01 00 00 0F 03 04 71 
   152)    130715.9  Rx     00117104  5  01 00 00 04 71 
   153)    130720.8  Rx     00018288  7  01 00 00 0F 03 88 82 
   154)    130720.9  Rx     00118288  5  01 00 00 88 82 
   155)    130725.8  Rx     00013A8F  7  01 00 00 0F 03 8F 3A 
   156)    130725.9  Rx     00113A8F  5  01 00 00 8F 3A 
   157)    130730.8  Rx     0001CC04  7  01 00 00 0F 03 04 CC 
   158)    130731.0  Rx     0011CC04  5  01 00 00 04 CC 
   159)    130735.8  Rx     000152E3  7  01 00 00 0F 03 E3 52 
   160)    130736.0  Rx     001152E3  5  01 00 00 E3 52 
   161)    130740.8  Rx     0001C31B  7  01 00 00 0F 03 1B C3 
   162)    130740.9  Rx     0011C31B  5  01 00 00 1B C3 
   163)    130745.9  Rx     0001AB21  7  01 00 00 0F 03 21 AB 
   164)    130745.9  Rx     0011AB21  5  01 00 00 21 AB 
   165)    130750.8  Rx     0001AD9A  7  01 00 00 0F 03 9A AD 
   166)    130750.9  Rx     0011AD9A  5  01 00 00 9A AD 
   167)    130755.8  Rx     00013846  7  01 00 00 0F 03 46 38 
   168)    130756.0  Rx     00113846  5  01 00 00 46 38 
   169)    130760.8  Rx     0001B5BD  7  01 00 00 0F 03 BD B5 
   170)    130761.0  Rx     0011B5BD  5  01 00 00 BD B5 
   171)    130765.8  Rx     0001F4EF  7  01 00 00 0F 03 EF F4 
   172)    130765.9  Rx     0011F4EF  5  01 00 00 EF F4 
   173)    130770.8  Rx     000167E8  7  01 00 00 0F 03 E8 67 
   174)    130770.9  Rx     001167E8  5  01 00 00 E8 67 
   175)    130775.8  Rx     0001C406  7  01 00 00 0F 03 06 C4 
   176)    130775.9  Rx     0011C406  5  01 00 00 06 C4 
   177)    130780.8  Rx     0001356C  7  01 00 00 0F 03 6C 35 
   178)    130780.9  Rx     0011356C  5  01 00 00 6C 35 
   179)    130785.8  Rx     000150ED  7  01 00 00 0F 03 ED 50 
   180)    130786.0  Rx     001150ED  5  01 00 00 ED 50 
   181)    130790.8  Rx     00016C5D  7  01 00 00 0F 03 5D 6C 
   182)    130790.9  Rx     00116C5D  5  01 00 00 5D 6C 
   183)    130795.8  Rx     00014D64  7  01 00 00 0F 03 64 4D 
   184)    130795.9  Rx     00114D64  5  01 00 00 64 4D 
   185)    130800.8  Rx     00015381  7  01 00 00 0F 03 81 53 
   186)    130800.9  Rx     00115381  5  01 00 00 81 53 
   187)    130805.8  Rx     0001C336  7  01 00 00 0F 03 36 C3 
   188)    130805.9  Rx     0011C336  5  01 00 00 36 C3 
   189)    130810.8  Rx     0001C9EB  7  01 00 00 0F 03 EB C9 
   190)    130810.9  Rx     0011C9EB  5  01 00 00 EB C9 
   191)    130815.8  Rx     0001FB7B  7  01 00 00 0F 03 7B FB 
   192)    130816.0  Rx     0011FB7B  5  01 00 00 7B FB 
   193)    130820.8  Rx     0001A8B3  7  01 00 00 0F 03 B3 A8 
   194)    130820.9  Rx     0011A8B3  5  01 00 00 B3 A8 
   195)    130825.8  Rx     0001CAE5  7  01 00 00 0F 03 E5 CA 
   196)    130825.9  Rx     0011CAE5  5  01 00 00 E5 CA 
   197)    130830.8  Rx     0001BDF0  7  01 00 00 0F 03 F0 BD 
   198)    130830.9  Rx     0011BDF0  5  01 00 00 F0 BD 
   199)    130835.8  Rx     0001C678  7  01 00 00 0F 03 78 C6 
   200)    130835.9  Rx     0011C678  5  01 00 00 78 C6 
   201)    130840.8  Rx     0001AADD  7  01 00 00 0F 03 DD AA 
   202)    130841.0  Rx     0011AADD  5  01 00 00 DD AA 
   203)    130845.8  Rx     0001EDA4  7  01 00 00 0F 03 A4 ED 
   204)    130845.9  Rx     0011EDA4  5  01 00 00 A4 ED 
   205)    130850.8  Rx     0001BBD3  7  01 00 00 0F 03 D3 BB 
   206)    130850.9  Rx     0011BBD3  5  01 00 00 D3 BB 
   207)    130855.8  Rx     00019E8B  7  01 00 00 0F 03 8B 9E 
   208)    130855.9  Rx     00119E8B  5  01 00 00 8B 9E 
   209)    130860.8  Rx     0001EB7E  7  01 00 00 0F 03 7E EB 
   210)    130860.9  Rx     0011EB7E  5  01 00 00 7E EB 
   211)    130865.8  Rx     00014305  7  01 00 00 0F 03 05 43 
   212)    130865.9  Rx     00114305  5  01 00 00 05 43 
   213)    130870.8  Rx     00011370  7  01 00 00 0F 03 70 13 
   214)    130870.9  Rx     00111370  5  01 00 00 70 13 
   215)    130875.8  Rx     0001689B  7  01 00 00 0F 03 9B 68 
   216)    130875.9  Rx     0011689B  5  01 00 00 9B 68 
   217)    130880.8  Rx     00017F03  7  01 00 00 0F 03 03 7F 
   218)    130880.9  Rx     00117F03  5  01 00 00 03 7F 
   219)    130885.8  Rx     00010393  7  01 00 00 0F 03 93 03 
   220)    130885.9  Rx     00110393  5  01 00 00 93 03 
   221)    130890.8  Rx     0001E633  7  01 00 00 0F 03 33 E6 
   222)    130890.9  Rx     0011E633  5  01 00 00 33 E6 
   223)    130895.8  Rx     000118BC  7  01 00 00 0F 03 BC 18 
   224)    130895.9  Rx     001118BC  5  01 00 00 BC 18 
   225)    130900.8  Rx     000130C7  7  01 00 00 0F 03 C7 30 
   226)    130900.9  Rx     001130C7  5  01 00 00 C7 30 
   227)    130905.8  Rx     000117A6  7  01 00 00 0F 03 A6 17 
   228)    130905.9  Rx     001117A6  5  01 00 00 A6 17 
   229)    130910.8  Rx     0001D706  7  01 00 00 0F 03 06 D7 
   230)    130910.9  Rx     0011D706  5  01 00 00 06 D7 
   231)    130915.8  Rx     0001B661  7  01 00 00 0F 03 61 B6 
   232)    130915.9  Rx     0011B661  5  01 00 00 61 B6 
   233)    130920.8  Rx     0001FFD6  7  01 00 00 0F 03 D6 FF 
   234)    130921.0  Rx     0011FFD6  5  01 00 00 D6 FF 
   235)    130925.8  Rx     0001ADF9  7  01 00 00 0F 03 F9 AD 
   236)    130925.9  Rx     0011ADF9  5  01 00 00 F9 AD 
   237)    130930.8  Rx     0001E8EB  7  01 00 00 0F 03 EB E8 
   238)    130930.9  Rx     0011E8EB  5  01 00 00 EB E8 
   239)    130935.8  Rx     00017650  7  01 00 00 0F 03 50 76 
   240)    130935.9  Rx     00117650  5  01 00 00 50 76 
   241)    130940.8  Rx     00012C74  7  01 00 00 0F 03 74 2C 
   242)    130940.9  Rx     00112C74  5  01 00 00 74 2C 
   243)    130945.8  Rx     0001CDFC  7  01 00 00 0F 03 FC CD 
   244)    130945.9  Rx     0011CDFC  5  01 00 00 FC CD 
   245)    130950.8  Rx     00015468  7  01 00 00 0F 03 68 54 
   246)    130950.9  Rx     00115468  5  01 00 00 68 54 
   247)    130955.8  Rx     0001CE59  7  01 00 00 0F 03 59 CE 
   248)    130955.9  Rx     0011CE59  5  01 00 00 59 CE 
   249)    130960.8  Rx     0001D260  7  01 00 00 0F 03 60 D2 
   250)    130960.9  Rx     0011D260  5  01 00 00 60 D2 
   251)    130965.8  Rx     0001D9E9  7  01 00 00 0F 03 E9 D9 
   252)    130965.9  Rx     0011D9E9  5  01 00 00 E9 D9 
   253)    130970.8  Rx     000157A5  7  01 00 00 0F 03 A5 57 
   254)    130970.9  Rx     001157A5  5  01 00 00 A5 57 
   255)    130975.8  Rx     000176C5  7  01 00 00 0F 03 C5 76 
   256)    130975.9  Rx     001176C5  5  01 00 00 C5 76 
   257)    130980.8  Rx     0001F7D7  7  01 00 00 0F 03 D7 F7 
   258)    130980.9  Rx     0011F7D7  5  01 00 00 D7 F7 
   259)    130985.8  Rx     00012898  7  01 00 00 0F 03 98 28 
   260)    130985.9  Rx     00112898  5  01 00 00 98 28 
   261)    130990.8  Rx     0001E156  7  01 00 00 0F 03 56 E1 
   262)    130990.9  Rx     0011E156  5  01 00 00 56 E1 
   263)    130995.8  Rx     0001898E  7  01 00 00 0F 03 8E 89 
   264)    130995.9  Rx     0011898E  5  01 00 00 8E 89 
   265)    131000.8  Rx     0001055A  7  01 00 00 0F 03 5A 05 
   266)    131000.9  Rx     0011055A  5  01 00 00 5A 05 
   267)    131005.8  Rx     00019B13  7  01 00 00 0F 03 13 9B 
   268)    131005.9  Rx     00119B13  5  01 00 00 13 9B 
   269)    131010.8  Rx     0001A659  7  01 00 00 0F 03 59 A6 
   270)    131010.9  Rx     0011A659  5  01 00 00 59 A6 
   271)    131015.8  Rx     00018B53  7  01 00 00 0F 03 53 8B 
   272)    131015.9  Rx     00118B53  5  01 00 00 53 8B 
   273)    131020.8  Rx     0001162F  7  01 00 00 0F 03 2F 16 
   274)    131020.9  Rx     0011162F  5  01 00 00 2F 16 
   275)    131025.8  Rx     000119E7  7  01 00 00 0F 03 E7 19 
   276)    131025.9  Rx     001119E7  5  01 00 00 E7 19 
   277)    131030.8  Rx     0001AE1E  7  01 00 00 0F 03 1E AE 
   278)    131030.9  Rx     0011AE1E  5  01 00 00 1E AE 
   279)    131035.8  Rx     00017608  7  01 00 00 0F 03 08 76 
   280)    131035.9  Rx     00117608  5  01 00 00 08 76 
   281)    131040.8  Rx     000121A8  7  01 00 00 0F 03 A8 21 
   282)    131040.9  Rx     001121A8  5  01 00 00 A8 21 
   283)    131045.8  Rx     00013640  7  01 00 00 0F 03 40 36 
   284)    131045.9  Rx     00113640  5  01 00 00 40 36 
   285)    131050.8  Rx     000149CA  7  01 00 00 0F 03 CA 49 
   286)    131050.9  Rx     001149CA  5  01 00 00 CA 49 
   287)    131055.8  Rx     0001D570  7  01 00 00 0F 03 70 D5 
   288)    131055.9  Rx     0011D570  5  01 00 00 70 D5 
   289)    131060.8  Rx     00018525  7  01 00 00 0F 03 25 85 
   290)    131060.9  Rx     00118525  5  01 00 00 25 85 
   291)    131065.8  Rx     0001B2B2  7  01 00 00 0F 03 B2 B2 
   292)    131065.9  Rx     0011B2B2  5  01 00 00 B2 B2 
   293)    131070.8  Rx     0001DE19  7  01 00 00 0F 03 19 DE 
   294)    131070.9  Rx     0011DE19  5  01 00 00 19 DE 
   295)    131075.8  Rx     0001C94C  7  01 00 00 0F 03 4C C9 
   296)    131075.9  Rx     0011C94C  5  01 00 00 4C C9 
   297)    131080.8  Rx     00011AD9  7  01 00 00 0F 03 D9 1A 
   298)    131080.9  Rx     00111AD9  5  01 00 00 D9 1A 
   299)    131085.8  Rx     00011BD7  7  01 00 00 0F 03 D7 1B 
   300)    131085.9  Rx     00111BD7  5  01 00 00 D7 1B 
   301)    131090.8  Rx     0001A007  7  01 00 00 0F 03 07 A0 
   302)    131090.9  Rx     0011A007  5  01 00 00 07 A0 
   303)    131095.8  Rx     0001254F  7  01 00 00 0F 03 4F 25 
   304)    131095.9  Rx     0011254F  5  01 00 00 4F 25 
   305)    131100.8  Rx     0001AD4F  7  01 00 00 0F 03 4F AD 
   306)    131100.9  Rx     0011AD4F  5  01 00 00 4F AD 
   307)    131105.8  Rx     0001449C  7  01 00 00 0F 03 9C 44 
   308)    131105.9  Rx     0011449C  5  01 00 00 9C 44 
   309)    131110.8  Rx     0001882C  7  01 00 00 0F 03 2C 88 
   310)    131110.9  Rx     0011882C  5  01 00 00 2C 88 
   311)    131115.8  Rx     00016ED7  7  01 00 00 0F 03 D7 6E 
   312)    131115.9  Rx     00116ED7  5  01 00 00 D7 6E 
   313)    131120.8  Rx     00014BAB  7  01 00 00 0F 03 AB 4B 
   314)    131120.9  Rx     00114BAB  5  01 00 00 AB 4B 
   315)    131125.8  Rx     0001F25A  7  01 00 00 0F 03 5A F2 
   316)    131125.9  Rx     0011F25A  5  01 00 00 5A F2 
   317)    131130.8  Rx     0001FCEA  7  01 00 00 0F 03 EA FC 
   318)    131130.9  Rx     0011FCEA  5  01 00 00 EA FC 
   319)    131135.8  Rx     0001F85D  7  01 00 00 0F 03 5D F8 
   320)    131135.9  Rx     0011F85D  5  01 00 00 5D F8 
   321)    131140.8  Rx     000172B0  7  01 00 00 0F 03 B0 72 
   322)    131140.9  Rx     001172B0  5  01 00 00 B0 72 
   323)    131145.8  Rx     00014CA7  7  01 00 00 0F 03 A7 4C 
   324)    131145.9  Rx     00114CA7  5  01 00 00 A7 4C 
   325)    131150.8  Rx     0001BB48  7  01 00 00 0F 03 48 BB 
   326)    131150.9  Rx     0011BB48  5  01 00 00 48 BB 
   327)    131155.8  Rx     0001FAA7  7  01 00 00 0F 03 A7 FA 
   328)    131155.9  Rx     0011FAA7  5  01 00 00 A7 FA 
   329)    131160.8  Rx     00018A85  7  01 00 00 0F 03 85 8A 
   330)    131160.9  Rx     00118A85  5  01 00 00 85 8A 
   331)    131165.8  Rx     000190E9  7  01 00 00 0F 03 E9 90 
   332)    131165.9  Rx     001190E9  5  01 00 00 E9 90 
   333)    131170.8  Rx     0001969C  7  01 00 00 0F 03 9C 96 
   334)    131170.9  Rx     0011969C  5  01 00 00 9C 96 
   335)    131175.8  Rx     00018BC3  7  01 00 00 0F 03 C3 8B 
   336)    131175.9  Rx     00118BC3  5  01 00 00 C3 8B 
   337)    131180.8  Rx     00011537  7  01 00 00 0F 03 37 15 
   338)    131180.9  Rx     00111537  5  01 00 00 37 15 
   339)    131185.8  Rx     000179AF  7  01 00 00 0F 03 AF 79 
   340)    131185.9  Rx     001179AF  5  01 00 00 AF 79 
   341)    131190.8  Rx     000162EB  7  01 00 00 0F 03 EB 62 
   342)    131190.9  Rx     001162EB  5  01 00 00 EB 62 
   343)    131195.8  Rx     0001BBB3  7  01 00 00 0F 03 B3 BB 
   344)    131195.9  Rx     0011BBB3  5  01 00 00 B3 BB 
   345)    131200.8  Rx     000115FC  7  01 00 00 0F 03 FC 15 
   346)    131200.9  Rx     001115FC  5  01 00 00 FC 15 
   347)    131205.8  Rx     0001F5BF  7  01 00 00 0F 03 BF F5 
   348)    131205.9  Rx     0011F5BF  5  01 00 00 BF F5 
   349)    131210.8  Rx     00019E0F  7  01 00 00 0F 03 0F 9E 
   350)    131210.9  Rx     00119E0F  5  01 00 00 0F 9E 
   351)    131215.7  Rx     0001AAE7  7  01 00 00 0F 03 E7 AA 
   352)    131215.8  Rx     0011AAE7  5  01 00 00 E7 AA 
   353)    131220.7  Rx     0001553C  7  01 00 00 0F 03 3C 55 
   354)    131220.8  Rx     0011553C  5  01 00 00 3C 55 
   355)    131225.7  Rx     0001A6ED  7  01 00 00 0F 03 ED A6 
   356)    131225.8  Rx     0011A6ED  5  01 00 00 ED A6 
   357)    131230.7  Rx     00016B9C  7  01 00 00 0F 03 9C 6B 
   358)    131230.8  Rx     00116B9C  5  01 00 00 9C 6B 
   359)    131235.7  Rx     00019E6D  7  01 00 00 0F 03 6D 9E 
   360)    131235.8  Rx     00119E6D  5  01 00 00 6D 9E 
   361)    131240.7  Rx     0001A94F  7  01 00 00 0F 03 4F A9 
   362)    131240.8  Rx     0011A94F  5  01 00 00 4F A9 
   363)    131245.7  Rx     00015CB0  7  01 00 00 0F 03 B0 5C 
   364)    131245.8  Rx     00115CB0  5  01 00 00 B0 5C 
   365)    131250.7  Rx     00013783  7  01 00 00 0F 03 83 37 
   366)    131250.8  Rx     00113783  5  01 00 00 83 37 
   367)    131255.7  Rx     0001F5EA  7  01 00 00 0F 03 EA F5 
   368)    131255.8  Rx     0011F5EA  5  01 00 00 EA F5 
   369)    131260.7  Rx     00015806  7  01 00 00 0F 03 06 58 
   370)    131260.8  Rx     00115806  5  01 00 00 06 58 
   371)    131265.7  Rx     0001DA75  7  01 00 00 0F 03 75 DA 
   372)    131265.8  Rx     0011DA75  5  01 00 00 75 DA 
   373)    131270.7  Rx     0001A773  7  01 00 00 0F 03 73 A7 
   374)    131270.8  Rx     0011A773  5  01 00 00 73 A7 
   375)    131275.7  Rx     00015747  7  01 00 00 0F 03 47 57 
   376)    131275.8  Rx     00115747  5  01 00 00 47 57 
   377)    131280.7  Rx     00015CEA  7  01 00 00 0F 03 EA 5C 
   378)    131280.8  Rx     00115CEA  5  01 00 00 EA 5C 
   379)    131285.7  Rx     000129B1  7  01 00 00 0F 03 B1 29 
   380)    131285.8  Rx     001129B1  5  01 00 00 B1 29 
   381)    131290.7  Rx     00016702  7  01 00 00 0F 03 02 67 
   382)    131290.8  Rx     00116702  5  01 00 00 02 67 
   383)    131295.7  Rx     0001A82B  7  01 00 00 0F 03 2B A8 
   384)    131295.8  Rx     0011A82B  5  01 00 00 2B A8 
   385)    131300.7  Rx     0001BC47  7  01 00 00 0F 03 47 BC 
   386)    131300.8  Rx     0011BC47  5  01 00 00 47 BC 
   387)    131305.7  Rx     000157B8  7  01 00 00 0F 03 B8 57 
   388)    131305.8  Rx     001157B8  5  01 00 00 B8 57 
   389)    131310.7  Rx     0001E28E  7  01 00 00 0F 03 8E E2 
   390)    131310.8  Rx     0011E28E  5  01 00 00 8E E2 
   391)    131315.7  Rx     0001392C  7  01 00 00 0F 03 2C 39 
   392)    131315.8  Rx     0011392C  5  01 00 00 2C 39 
   393)    131320.7  Rx     0001CEE7  7  01 00 00 0F 03 E7 CE 
   394)    131320.8  Rx     0011CEE7  5  01 00 00 E7 CE 
   395)    131325.7  Rx     0001EB50  7  01 00 00 0F 03 50 EB 
   396)    131325.8  Rx     0011EB50  5  01 00 00 50 EB 
   397)    131330.7  Rx     00012CE3  7  01 00 00 0F 03 E3 2C 
   398)    131330.8  Rx     00112CE3  5  01 00 00 E3 2C 
   399)    131335.7  Rx     0001B6C3  7  01 00 00 0F 03 C3 B6 
   400)    131335.8  Rx     0011B6C3  5  01 00 00 C3 B6 
   401)    131340.7  Rx     00018E9D  7  01 00 00 0F 03 9D 8E 
   402)    131340.8  Rx     00118E9D  5  01 00 00 9D 8E 
   403)    131345.7  Rx     00018603  7  01 00 00 0F 03 03 86 
   404)    131345.8  Rx     00118603  5  01 00 00 03 86 
   405)    131350.7  Rx     0001CF9D  7  01 00 00 0F 03 9D CF 
   406)    131350.8  Rx     0011CF9D  5  01 00 00 9D CF 
   407)    131355.7  Rx     00014C02  7  01 00 00 0F 03 02 4C 
   408)    131355.8  Rx     00114C02  5  01 00 00 02 4C 
   409)    131360.7  Rx     0001F788  7  01 00 00 0F 03 88 F7 
   410)    131360.8  Rx     0011F788  5  01 00 00 88 F7 
   411)    131365.7  Rx     00016937  7  01 00 00 0F 03 37 69 
   412)    131365.8  Rx     00116937  5  01 00 00 37 69 
   413)    131370.7  Rx     0001824B  7  01 00 00 0F 03 4B 82 
   414)    131370.8  Rx     0011824B  5  01 00 00 4B 82 
   415)    131375.7  Rx     0001BB07  7  01 00 00 0F 03 07 BB 
   416)    131375.8  Rx     0011BB07  5  01 00 00 07 BB 
   417)    131380.7  Rx     00014614  7  01 00 00 0F 03 14 46 
   418)    131380.8  Rx     00114614  5  01 00 00 14 46 
   419)    131385.7  Rx     00010AFF  7  01 00 00 0F 03 FF 0A 
   420)    131385.8  Rx     00110AFF  5  01 00 00 FF 0A 
   421)    131390.7  Rx     00011457  7  01 00 00 0F 03 57 14 
   422)    131390.8  Rx     00111457  5  01 00 00 57 14 
   423)    131395.7  Rx     00014F2F  7  01 00 00 0F 03 2F 4F 
   424)    131395.8  Rx     00114F2F  5  01 00 00 2F 4F 
   425)    131400.7  Rx     000149BF  7  01 00 00 0F 03 BF 49 
   426)    131400.8  Rx     001149BF  5  01 00 00 BF 49 
   427)    131405.7  Rx     00019AAE  7  01 00 00 0F 03 AE 9A 
   428)    131405.8  Rx     00119AAE  5  01 00 00 AE 9A 
   429)    131410.7  Rx     000139A7  7  01 00 00 0F 03 A7 39 
   430)    131410.8  Rx     001139A7  5  01 00 00 A7 39 
   431)    131415.7  Rx     0001090A  7  01 00 00 0F 03 0A 09 
   432)    131415.8  Rx     0011090A  5  01 00 00 0A 09 
   433)    131420.7  Rx     0001C89F  7  01 00 00 0F 03 9F C8 
   434)    131420.8  Rx     0011C89F  5  01 00 00 9F C8 
   435)    131425.7  Rx     0001A52F  7  01 00 00 0F 03 2F A5 
   436)    131425.8  Rx     0011A52F  5  01 00 00 2F A5 
   437)    131430.7  Rx     00014E02  7  01 00 00 0F 03 02 4E 
   438)    131430.8  Rx     00114E02  5  01 00 00 02 4E 
   439)    131435.7  Rx     0001A011  7  01 00 00 0F 03 11 A0 
   440)    131435.8  Rx     0011A011  5  01 00 00 11 A0 
   441)    131440.7  Rx     0001B3A6  7  01 00 00 0F 03 A6 B3 
   442)    131440.8  Rx     0011B3A6  5  01 00 00 A6 B3 
   443)    131445.7  Rx     00019D16  7  01 00 00 0F 03 16 9D 
   444)    131445.8  Rx     00119D16  5  01 00 00 16 9D 
   445)    131450.7  Rx     00012B34  7  01 00 00 0F 03 34 2B 
   446)    131450.8  Rx     00112B34  5  01 00 00 34 2B 
   447)    131455.7  Rx     0001A218  7  01 00 00 0F 03 18 A2 
   448)    131455.8  Rx     0011A218  5  01 00 00 18 A2 
   449)    131460.7  Rx     00017BA3  7  01 00 00 0F 03 A3 7B 
   450)    131460.8  Rx     00117BA3  5  01 00 00 A3 7B 
   451)    131465.7  Rx     00015E75  7  01 00 00 0F 03 75 5E 
   452)    131465.8  Rx     00115E75  5  01 00 00 75 5E 
   453)    131470.7  Rx     0001F9F0  7  01 00 00 0F 03 F0 F9 
   454)    131470.8  Rx     0011F9F0  5  01 00 00 F0 F9 
   455)    131475.7  Rx     00016084  7  01 00 00 0F 03 84 60 
   456)    131475.8  Rx     00116084  5  01 00 00 84 60 
   457)    131480.7  Rx     00017707  7  01 00 00 0F 03 07 77 
   458)    131480.8  Rx     00117707  5  01 00 00 07 77 
   459)    131485.7  Rx     0001CE6F  7  01 00 00 0F 03 6F CE 
   460)    131485.8  Rx     0011CE6F  5  01 00 00 6F CE 
   461)    131490.7  Rx     00010978  7  01 00 00 0F 03 78 09 
   462)    131490.8  Rx     00110978  5  01 00 00 78 09 
   463)    131495.7  Rx     0001373C  7  01 00 00 0F 03 3C 37 
   464)    131495.8  Rx     0011373C  5  01 00 00 3C 37 
   465)    131500.7  Rx     00011C6C  7  01 00 00 0F 03 6C 1C 
   466)    131500.8  Rx     00111C6C  5  01 00 00 6C 1C 
   467)    131505.7  Rx     00015E8D  7  01 00 00 0F 03 8D 5E 
   468)    131505.8  Rx     00115E8D  5  01 00 00 8D 5E 
   469)    131510.7  Rx     000195FD  7  01 00 00 0F 03 FD 95 
   470)    131510.8  Rx     001195FD  5  01 00 00 FD 95 
   471)    131515.7  Rx     0001595F  7  01 00 00 0F 03 5F 59 
   472)    131515.8  Rx     0011595F  5  01 00 00 5F 59 
   473)    131520.7  Rx     000161D5  7  01 00 00 0F 03 D5 61 
   474)    131520.8  Rx     001161D5  5  01 00 00 D5 61 
   475)    131525.7  Rx     0001ABD2  7  01 00 00 0F 03 D2 AB 
   476)    131525.8  Rx     0011ABD2  5  01 00 00 D2 AB 
   477)    131530.7  Rx     000191C5  7  01 00 00 0F 03 C5 91 
   478)    131530.8  Rx     001191C5  5  01 00 00 C5 91 
   479)    131535.7  Rx     000123BA  7  01 00 00 0F 03 BA 23 
   480)    131535.8  Rx     001123BA  5  01 00 00 BA 23 
   481)    131540.7  Rx     0001F0B5  7  01 00 00 0F 03 B5 F0 
   482)    131540.8  Rx     0011F0B5  5  01 00 00 B5 F0 
   483)    131545.7  Rx     0001FD90  7  01 00 00 0F 03 90 FD 
   484)    131545.8  Rx     0011FD90  5  01 00 00 90 FD 
   485)    131550.7  Rx     00018512  7  01 00 00 0F 03 12 85 
   486)    131550.8  Rx     00118512  5  01 00 00 12 85 
   487)    131555.7  Rx     0001F8F8  7  01 00 00 0F 03 F8 F8 
   488)    131555.8  Rx     0011F8F8  5  01 00 00 F8 F8 
   489)    131560.7  Rx     0001A2B1  7  01 00 00 0F 03 B1 A2 
   490)    131560.8  Rx     0011A2B1  5  01 00 00 B1 A2 
   491)    131565.7  Rx     0001EBF7  7  01 00 00 0F 03 F7 EB 
   492)    131565.8  Rx     0011EBF7  5  01 00 00 F7 EB 
   493)    131570.7  Rx     000154BD  7  01 00 00 0F 03 BD 54 
   494)    131570.8  Rx     001154BD  5  01 00 00 BD 54 
   495)    131575.7  Rx     00017B96  7  01 00 00 0F 03 96 7B 
   496)    131575.8  Rx     00117B96  5  01 00 00 96 7B 
   497)    131580.7  Rx     0001A324  7  01 00 00 0F 03 24 A3 
   498)    131580.8  Rx     0011A324  5  01 00 00 24 A3 
   499)    131585.7  Rx     0001CE72  7  01 00 00 0F 03 72 CE 
   500)    131585.8  Rx     0011CE72  5  01 00 00 72 CE 
   501)    131590.7  Rx     00011FA4  7  01 00 00 0F 03 A4 1F 
   502)    131590.8  Rx     00111FA4  5  01 00 00 A4 1F 
   503)    131595.7  Rx     0001759C  7  01 00 00 0F 03 9C 75 
   504)    131595.8  Rx     0011759C  5  01 00 00 9C 75 
   505)    131600.7  Rx     0001DD66  7  01 00 00 0F 03 66 DD 
   506)    131600.8  Rx     0011DD66  5  01 00 00 66 DD 
   507)    131605.7  Rx     000171B1  7  01 00 00 0F 03 B1 71 
   508)    131605.8  Rx     001171B1  5  01 00 00 B1 71 
   509)    131610.7  Rx     0001EAC9  7  01 00 00 0F 03 C9 EA 
   510)    131610.8  Rx     0011EAC9  5  01 00 00 C9 EA 
   511)    131615.7  Rx     0001020B  7  01 00 00 0F 03 0B 02 
   512)    131615.8  Rx     0011020B  5  01 00 00 0B 02 
   513)    131620.7  Rx     000147CB  7  01 00 00 0F 03 CB 47 
   514)    131620.8  Rx     001147CB  5  01 00 00 CB 47 
   515)    131625.7  Rx     00018984  7  01 00 00 0F 03 84 89 
   516)    131625.8  Rx     00118984  5  01 00 00 84 89 
   517)    131630.7  Rx     0001A435  7  01 00 00 0F 03 35 A4 
   518)    131630.8  Rx     0011A435  5  01 00 00 35 A4 
   519)    131635.7  Rx     00019817  7  01 00 00 0F 03 17 98 
   520)    131635.8  Rx     00119817  5  01 00 00 17 98 
   521)    131640.7  Rx     0001236D  7  01 00 00 0F 03 6D 23 
   522)    131640.8  Rx     0011236D  5  01 00 00 6D 23 
   523)    131645.6  Rx     0001566D  7  01 00 00 0F 03 6D 56 
   524)    131645.8  Rx     0011566D  5  01 00 00 6D 56 
   525)    131650.7  Rx     0001CCA0  7  01 00 00 0F 03 A0 CC 
   526)    131650.8  Rx     0011CCA0  5  01 00 00 A0 CC 
   527)    131655.7  Rx     00012015  7  01 00 00 0F 03 15 20 
   528)    131655.8  Rx     00112015  5  01 00 00 15 20 
   529)    131660.7  Rx     000164A9  7  01 00 00 0F 03 A9 64 
   530)    131660.8  Rx     001164A9  5  01 00 00 A9 64 
   531)    131665.7  Rx     00011EF3  7  01 00 00 0F 03 F3 1E 
   532)    131665.8  Rx     00111EF3  5  01 00 00 F3 1E 
   533)    131670.6  Rx     000157D2  7  01 00 00 0F 03 D2 57 
   534)    131670.8  Rx     001157D2  5  01 00 00 D2 57 
   535)    131675.7  Rx     0001FA32  7  01 00 00 0F 03 32 FA 
   536)    131675.8  Rx     0011FA32  5  01 00 00 32 FA 
   537)    131680.7  Rx     0001F86A  7  01 00 00 0F 03 6A F8 
   538)    131680.8  Rx     0011F86A  5  01 00 00 6A F8 
   539)    131685.7  Rx     0001D8B7  7  01 00 00 0F 03 B7 D8 
   540)    131685.8  Rx     0011D8B7  5  01 00 00 B7 D8 
   541)    131690.7  Rx     00016FC7  7  01 00 00 0F 03 C7 6F 
   542)    131690.8  Rx     00116FC7  5  01 00 00 C7 6F 
   543)    131695.6  Rx     000102E8  7  01 00 00 0F 03 E8 02 
   544)    131695.8  Rx     001102E8  5  01 00 00 E8 02 
   545)    131700.6  Rx     00010227  7  01 00 00 0F 03 27 02 
   546)    131700.8  Rx     00110227  5  01 00 00 27 02 
   547)    131705.7  Rx     0001A947  7  01 00 00 0F 03 47 A9 
   548)    131705.8  Rx     0011A947  5  01 00 00 47 A9 
   549)    131710.7  Rx     00015694  7  01 00 00 0F 03 94 56 
   550)    131710.8  Rx     00115694  5  01 00 00 94 56 
   551)    131715.7  Rx     0001C530  7  01 00 00 0F 03 30 C5 
   552)    131715.8  Rx     0011C530  5  01 00 00 30 C5 
   553)    131720.7  Rx     00014EAD  7  01 00 00 0F 03 AD 4E 
   554)    131720.8  Rx     00114EAD  5  01 00 00 AD 4E 
   555)    131725.6  Rx     000172B5  7  01 00 00 0F 03 B5 72 
   556)    131725.8  Rx     001172B5  5  01 00 00 B5 72 
   557)    131730.7  Rx     0001270B  7  01 00 00 0F 03 0B 27 
   558)    131730.8  Rx     0011270B  5  01 00 00 0B 27 
   559)    131735.7  Rx     00016E76  7  01 00 00 0F 03 76 6E 
   560)    131735.8  Rx     00116E76  5  01 00 00 76 6E 
   561)    131740.7  Rx     0001839C  7  01 00 00 0F 03 9C 83 
   562)    131740.8  Rx     0011839C  5  01 00 00 9C 83 
   563)    131745.7  Rx     000173E6  7  01 00 00 0F 03 E6 73 
   564)    131745.8  Rx     001173E6  5  01 00 00 E6 73 
   565)    131750.6  Rx     0001B41F  7  01 00 00 0F 03 1F B4 
   566)    131750.8  Rx     0011B41F  5  01 00 00 1F B4 
   567)    131755.6  Rx     0001E850  7  01 00 00 0F 03 50 E8 
   568)    131755.8  Rx     0011E850  5  01 00 00 50 E8 
   569)    131760.7  Rx     000187B2  7  01 00 00 0F 03 B2 87 
   570)    131760.8  Rx     001187B2  5  01 00 00 B2 87 
   571)    131765.7  Rx     0001C4AA  7  01 00 00 0F 03 AA C4 
   572)    131765.7  Rx     0011C4AA  5  01 00 00 AA C4 
   573)    131770.7  Rx     00014B08  7  01 00 00 0F 03 08 4B 
   574)    131770.8  Rx     00114B08  5  01 00 00 08 4B 
   575)    131775.6  Rx     0001EBED  7  01 00 00 0F 03 ED EB 
   576)    131775.8  Rx     0011EBED  5  01 00 00 ED EB 
   577)    131780.6  Rx     0001C3C9  7  01 00 00 0F 03 C9 C3 
   578)    131780.8  Rx     0011C3C9  5  01 00 00 C9 C3 
   579)    131785.7  Rx     0001F98E  7  01 00 00 0F 03 8E F9 
   580)    131785.8  Rx     0011F98E  5  01 00 00 8E F9 
   581)    131790.7  Rx     00018026  7  01 00 00 0F 03 26 80 
   582)    131790.8  Rx     00118026  5  01 00 00 26 80 
   583)    131795.7  Rx     0001FF4E  7  01 00 00 0F 03 4E FF 
   584)    131795.8  Rx     0011FF4E  5  01 00 00 4E FF 
   585)    131800.6  Rx     000174A1  7  01 00 00 0F 03 A1 74 
   586)    131800.8  Rx     001174A1  5  01 00 00 A1 74 
   587)    131805.6  Rx     0001A774  7  01 00 00 0F 03 74 A7 
   588)    131805.8  Rx     0011A774  5  01 00 00 74 A7 
   589)    131810.6  Rx     000116A6  7  01 00 00 0F 03 A6 16 
   590)    131810.8  Rx     001116A6  5  01 00 00 A6 16 
   591)    131815.7  Rx     0001A037  7  01 00 00 0F 03 37 A0 
   592)    131815.8  Rx     0011A037  5  01 00 00 37 A0 
   593)    131820.7  Rx     0001055E  7  01 00 00 0F 03 5E 05 
   594)    131820.8  Rx     0011055E  5  01 00 00 5E 05 
   595)    131825.7  Rx     0001EEDE  7  01 00 00 0F 03 DE EE 
   596)    131825.8  Rx     0011EEDE  5  01 00 00 DE EE 
   597)    131830.6  Rx     0001B2E5  7  01 00 00 0F 03 E5 B2 
   598)    131830.8  Rx     0011B2E5  5  01 00 00 E5 B2 
   599)    131835.6  Rx     00014CE2  7  01 00 00 0F 03 E2 4C 
   600)    131835.8  Rx     00114CE2  5  01 00 00 E2 4C 
   601)    131840.6  Rx     00015ACF  7  01 00 00 0F 03 CF 5A 
   602)    131840.8  Rx     00115ACF  5  01 00 00 CF 5A 
   603)    131845.7  Rx     0001170E  7  01 00 00 0F 03 0E 17 
   604)    131845.7  Rx     0011170E  5  01 00 00 0E 17 
   605)    131850.7  Rx     0001BB97  7  01 00 00 0F 03 97 BB 
   606)    131850.7  Rx     0011BB97  5  01 00 00 97 BB 
   607)    131855.6  Rx     00017A78  7  01 00 00 0F 03 78 7A 
   608)    131855.8  Rx     00117A78  5  01 00 00 78 7A 
   609)    131860.6  Rx     00011373  7  01 00 00 0F 03 73 13 
   610)    131860.8  Rx     00111373  5  01 00 00 73 13 
   611)    131865.6  Rx     000124CE  7  01 00 00 0F 03 CE 24 
   612)    131865.8  Rx     001124CE  5  01 00 00 CE 24 
   613)    131870.6  Rx     000125A5  7  01 00 00 0F 03 A5 25 
   614)    131870.8  Rx     001125A5  5  01 00 00 A5 25 
   615)    131875.7  Rx     0001C93F  7  01 00 00 0F 03 3F C9 
   616)    131875.7  Rx     0011C93F  5  01 00 00 3F C9 
   617)    131880.6  Rx     0001E83B  7  01 00 00 0F 03 3B E8 
   618)    131880.8  Rx     0011E83B  5  01 00 00 3B E8 
   619)    131885.6  Rx     0001510E  7  01 00 00 0F 03 0E 51 
   620)    131885.8  Rx     0011510E  5  01 00 00 0E 51 
   621)    131890.6  Rx     00014EDA  7  01 00 00 0F 03 DA 4E 
   622)    131890.8  Rx     00114EDA  5  01 00 00 DA 4E 
   623)    131895.6  Rx     00010293  7  01 00 00 0F 03 93 02 
   624)    131895.8  Rx     00110293  5  01 00 00 93 02 
   625)    131900.7  Rx     00010A0F  7  01 00 00 0F 03 0F 0A 
   626)    131900.7  Rx     00110A0F  5  01 00 00 0F 0A 
   627)    131905.7  Rx     0001B332  7  01 00 00 0F 03 32 B3 
   628)    131905.7  Rx     0011B332  5  01 00 00 32 B3 
   629)    131910.6  Rx     0001BB3C  7  01 00 00 0F 03 3C BB 
   630)    131910.8  Rx     0011BB3C  5  01 00 00 3C BB 
   631)    131915.6  Rx     00012496  7  01 00 00 0F 03 96 24 
   632)    131915.8  Rx     00112496  5  01 00 00 96 24 
   633)    131920.6  Rx     00014812  7  01 00 00 0F 03 12 48 
   634)    131920.8  Rx     00114812  5  01 00 00 12 48 
   635)    131925.6  Rx     0001B728  7  01 00 00 0F 03 28 B7 
   636)    131925.7  Rx     0011B728  5  01 00 00 28 B7 
   637)    131930.7  Rx     0001E93B  7  01 00 00 0F 03 3B E9 
   638)    131930.7  Rx     0011E93B  5  01 00 00 3B E9 
   639)    131935.6  Rx     00017BA5  7  01 00 00 0F 03 A5 7B 
   640)    131935.7  Rx     00117BA5  5  01 00 00 A5 7B 
   641)    131940.6  Rx     00018AA5  7  01 00 00 0F 03 A5 8A 
   642)    131940.8  Rx     00118AA5  5  01 00 00 A5 8A 
   643)    131945.6  Rx     0001CB3C  7  01 00 00 0F 03 3C CB 
   644)    131945.8  Rx     0011CB3C  5  01 00 00 3C CB 
   645)    131950.6  Rx     0001308B  7  01 00 00 0F 03 8B 30 
   646)    131950.7  Rx     0011308B  5  01 00 00 8B 30 
   647)    131955.7  Rx     0001AD91  7  01 00 00 0F 03 91 AD 
   648)    131955.7  Rx     0011AD91  5  01 00 00 91 AD 
   649)    131960.6  Rx     00010B2B  7  01 00 00 0F 03 2B 0B 
   650)    131960.7  Rx     00110B2B  5  01 00 00 2B 0B 
   651)    131965.6  Rx     0001D9AA  7  01 00 00 0F 03 AA D9 
   652)    131965.8  Rx     0011D9AA  5  01 00 00 AA D9 
   653)    131970.6  Rx     000187D0  7  01 00 00 0F 03 D0 87 
   654)    131970.8  Rx     001187D0  5  01 00 00 D0 87 
   655)    131975.6  Rx     0001D689  7  01 00 00 0F 03 89 D6 
   656)    131975.8  Rx     0011D689  5  01 00 00 89 D6 
   657)    131980.6  Rx     00019C91  7  01 00 00 0F 03 91 9C 
   658)    131980.7  Rx     00119C91  5  01 00 00 91 9C 
   659)    131985.6  Rx     0001E1F7  7  01 00 00 0F 03 F7 E1 
   660)    131985.7  Rx     0011E1F7  5  01 00 00 F7 E1 
   661)    131990.6  Rx     000144FE  7  01 00 00 0F 03 FE 44 
   662)    131990.8  Rx     001144FE  5  01 00 00 FE 44 
   663)    131995.6  Rx     000177D8  7  01 00 00 0F 03 D8 77 
   664)    131995.8  Rx     001177D8  5  01 00 00 D8 77 
   665)    132000.6  Rx     0001288C  7  01 00 00 0F 03 8C 28 
   666)    132000.8  Rx     0011288C  5  01 00 00 8C 28 
   667)    132005.6  Rx     000185FE  7  01 00 00 0F 03 FE 85 
   668)    132005.7  Rx     001185FE  5  01 00 00 FE 85 
   669)    132010.7  Rx     0001107D  7  01 00 00 0F 03 7D 10 
   670)    132010.7  Rx     0011107D  5  01 00 00 7D 10 
   671)    132015.6  Rx     0001AC53  7  01 00 00 0F 03 53 AC 
   672)    132015.7  Rx     0011AC53  5  01 00 00 53 AC 
   673)    132020.6  Rx     0001C1A0  7  01 00 00 0F 03 A0 C1 
   674)    132020.8  Rx     0011C1A0  5  01 00 00 A0 C1 
   675)    132025.6  Rx     000192CC  7  01 00 00 0F 03 CC 92 
   676)    132025.8  Rx     001192CC  5  01 00 00 CC 92 
   677)    132030.6  Rx     00019B0F  7  01 00 00 0F 03 0F 9B 
   678)    132030.7  Rx     00119B0F  5  01 00 00 0F 9B 
   679)    132035.6  Rx     00012E8F  7  01 00 00 0F 03 8F 2E 
   680)    132035.7  Rx     00112E8F  5  01 00 00 8F 2E 
   681)    132040.6  Rx     00011DE3  7  01 00 00 0F 03 E3 1D 
   682)    132040.7  Rx     00111DE3  5  01 00 00 E3 1D 
   683)    132045.6  Rx     0001A52C  7  01 00 00 0F 03 2C A5 
   684)    132045.7  Rx     0011A52C  5  01 00 00 2C A5 
   685)    132050.6  Rx     00016E71  7  01 00 00 0F 03 71 6E 
   686)    132050.8  Rx     00116E71  5  01 00 00 71 6E 
   687)    132055.6  Rx     000158D4  7  01 00 00 0F 03 D4 58 
   688)    132055.7  Rx     001158D4  5  01 00 00 D4 58 
   689)    132060.6  Rx     0001DA85  7  01 00 00 0F 03 85 DA 
   690)    132060.7  Rx     0011DA85  5  01 00 00 85 DA 
   691)    132065.6  Rx     0001AA00  7  01 00 00 0F 03 00 AA 
   692)    132065.7  Rx     0011AA00  5  01 00 00 00 AA 
   693)    132070.6  Rx     0001C4C3  7  01 00 00 0F 03 C3 C4 
   694)    132070.7  Rx     0011C4C3  5  01 00 00 C3 C4 
   695)    132075.6  Rx     000146D5  7  01 00 00 0F 03 D5 46 
   696)    132075.7  Rx     001146D5  5  01 00 00 D5 46 
   697)    132080.6  Rx     0001C80E  7  01 00 00 0F 03 0E C8 
   698)    132080.8  Rx     0011C80E  5  01 00 00 0E C8 
   699)    132085.6  Rx     00016655  7  01 00 00 0F 03 55 66 
   700)    132085.7  Rx     00116655  5  01 00 00 55 66 
   701)    132090.6  Rx     000166A8  7  01 00 00 0F 03 A8 66 
   702)    132090.7  Rx     001166A8  5  01 00 00 A8 66 
   703)    132095.6  Rx     0001D51C  7  01 00 00 0F 03 1C D5 
   704)    132095.7  Rx     0011D51C  5  01 00 00 1C D5 
   705)    132100.6  Rx     00014765  7  01 00 00 0F 03 65 47 
   706)    132100.7  Rx     00114765  5  01 00 00 65 47 
   707)    132105.6  Rx     00012334  7  01 00 00 0F 03 34 23 
   708)    132105.8  Rx     00112334  5  01 00 00 34 23 
   709)    132110.6  Rx     0001502B  7  01 00 00 0F 03 2B 50 
   710)    132110.7  Rx     0011502B  5  01 00 00 2B 50 
   711)    132115.6  Rx     0001CE46  7  01 00 00 0F 03 46 CE 
   712)    132115.7  Rx     0011CE46  5  01 00 00 46 CE 
   713)    132120.6  Rx     00018394  7  01 00 00 0F 03 94 83 
   714)    132120.7  Rx     00118394  5  01 00 00 94 83 
   715)    132125.6  Rx     00011938  7  01 00 00 0F 03 38 19 
   716)    132125.7  Rx     00111938  5  01 00 00 38 19 
   717)    132130.6  Rx     0001B867  7  01 00 00 0F 03 67 B8 
   718)    132130.7  Rx     0011B867  5  01 00 00 67 B8 
   719)    132135.6  Rx     0001D5F3  7  01 00 00 0F 03 F3 D5 
   720)    132135.7  Rx     0011D5F3  5  01 00 00 F3 D5 
   721)    132140.6  Rx     0001CC4C  7  01 00 00 0F 03 4C CC 
   722)    132140.7  Rx     0011CC4C  5  01 00 00 4C CC 
   723)    132145.6  Rx     000127E4  7  01 00 00 0F 03 E4 27 
   724)    132145.7  Rx     001127E4  5  01 00 00 E4 27 
   725)    132150.6  Rx     0001B3E4  7  01 00 00 0F 03 E4 B3 
   726)    132150.7  Rx     0011B3E4  5  01 00 00 E4 B3 
   727)    132155.6  Rx     0001917B  7  01 00 00 0F 03 7B 91 
   728)    132155.7  Rx     0011917B  5  01 00 00 7B 91 
   729)    132160.6  Rx     00010129  7  01 00 00 0F 03 29 01 
   730)    132160.8  Rx     00110129  5  01 00 00 29 01 
   731)    132165.6  Rx     000140B1  7  01 00 00 0F 03 B1 40 
   732)    132165.7  Rx     001140B1  5  01 00 00 B1 40 
   733)    132170.6  Rx     000115C3  7  01 00 00 0F 03 C3 15 
   734)    132170.7  Rx     001115C3  5  01 00 00 C3 15 
   735)    132175.6  Rx     0001BA5F  7  01 00 00 0F 03 5F BA 
   736)    132175.7  Rx     0011BA5F  5  01 00 00 5F BA 
   737)    132180.6  Rx     0001ADB6  7  01 00 00 0F 03 B6 AD 
   738)    132180.7  Rx     0011ADB6  5  01 00 00 B6 AD 
   739)    132185.6  Rx     000115E9  7  01 00 00 0F 03 E9 15 
   740)    132185.7  Rx     001115E9  5  01 00 00 E9 15 
   741)    132190.6  Rx     00014F98  7  01 00 00 0F 03 98 4F 
   742)    132190.7  Rx     00114F98  5  01 00 00 98 4F 
   743)    132195.6  Rx     00010E85  7  01 00 00 0F 03 85 0E 
   744)    132195.7  Rx     00110E85  5  01 00 00 85 0E 
   745)    132200.6  Rx     0001822E  7  01 00 00 0F 03 2E 82 
   746)    132200.7  Rx     0011822E  5  01 00 00 2E 82 
   747)    132205.6  Rx     00019135  7  01 00 00 0F 03 35 91 
   748)    132205.7  Rx     00119135  5  01 00 00 35 91 
   749)    132210.6  Rx     00011C1A  7  01 00 00 0F 03 1A 1C 
   750)    132210.7  Rx     00111C1A  5  01 00 00 1A 1C 
   751)    132215.6  Rx     00018E22  7  01 00 00 0F 03 22 8E 
   752)    132215.7  Rx     00118E22  5  01 00 00 22 8E 
   753)    132220.6  Rx     00019107  7  01 00 00 0F 03 07 91 
   754)    132220.7  Rx     00119107  5  01 00 00 07 91 
   755)    132225.6  Rx     00017DF7  7  01 00 00 0F 03 F7 7D 
   756)    132225.7  Rx     00117DF7  5  01 00 00 F7 7D 
   757)    132230.6  Rx     00017C7B  7  01 00 00 0F 03 7B 7C 
   758)    132230.7  Rx     00117C7B  5  01 00 00 7B 7C 
   759)    132235.6  Rx     00016B76  7  01 00 00 0F 03 76 6B 
   760)    132235.7  Rx     00116B76  5  01 00 00 76 6B 
   761)    132240.6  Rx     0001A52F  7  01 00 00 0F 03 2F A5 
   762)    132240.7  Rx     0011A52F  5  01 00 00 2F A5 
   763)    132245.6  Rx     0001F757  7  01 00 00 0F 03 57 F7 
   764)    132245.7  Rx     0011F757  5  01 00 00 57 F7 
   765)    132250.6  Rx     00015C97  7  01 00 00 0F 03 97 5C 
   766)    132250.7  Rx     00115C97  5  01 00 00 97 5C 
   767)    132255.6  Rx     00011839  7  01 00 00 0F 03 39 18 
   768)    132255.7  Rx     00111839  5  01 00 00 39 18 
   769)    132260.6  Rx     00019112  7  01 00 00 0F 03 12 91 
   770)    132260.7  Rx     00119112  5  01 00 00 12 91 
   771)    132265.6  Rx     0001161F  7  01 00 00 0F 03 1F 16 
   772)    132265.7  Rx     0011161F  5  01 00 00 1F 16 
   773)    132270.6  Rx     000185CF  7  01 00 00 0F 03 CF 85 
   774)    132270.7  Rx     001185CF  5  01 00 00 CF 85 
   775)    132275.6  Rx     000174D8  7  01 00 00 0F 03 D8 74 
   776)    132275.7  Rx     001174D8  5  01 00 00 D8 74 
   777)    132280.6  Rx     00017E63  7  01 00 00 0F 03 63 7E 
   778)    132280.7  Rx     00117E63  5  01 00 00 63 7E 
   779)    132285.6  Rx     00017E47  7  01 00 00 0F 03 47 7E 
   780)    132285.7  Rx     00117E47  5  01 00 00 47 7E 
   781)    132290.6  Rx     000150B2  7  01 00 00 0F 03 B2 50 
   782)    132290.7  Rx     001150B2  5  01 00 00 B2 50 
   783)    132295.6  Rx     0001C55E  7  01 00 00 0F 03 5E C5 
   784)    132295.7  Rx     0011C55E  5  01 00 00 5E C5 
   785)    132300.6  Rx     00013696  7  01 00 00 0F 03 96 36 
   786)    132300.7  Rx     00113696  5  01 00 00 96 36 
   787)    132305.6  Rx     0001D04E  7  01 00 00 0F 03 4E D0 
   788)    132305.7  Rx     0011D04E  5  01 00 00 4E D0 
   789)    132310.6  Rx     00019961  7  01 00 00 0F 03 61 99 
   790)    132310.7  Rx     00119961  5  01 00 00 61 99 
   791)    132315.6  Rx     0001C433  7  01 00 00 0F 03 33 C4 
   792)    132315.7  Rx     0011C433  5  01 00 00 33 C4 
   793)    132320.6  Rx     0001882F  7  01 00 00 0F 03 2F 88 
   794)    132320.7  Rx     0011882F  5  01 00 00 2F 88 
   795)    132325.6  Rx     00016A4E  7  01 00 00 0F 03 4E 6A 
   796)    132325.7  Rx     00116A4E  5  01 00 00 4E 6A 
   797)    132330.6  Rx     00016EAE  7  01 00 00 0F 03 AE 6E 
   798)    132330.7  Rx     00116EAE  5  01 00 00 AE 6E 
   799)    132335.6  Rx     0001BA87  7  01 00 00 0F 03 87 BA 
   800)    132335.7  Rx     0011BA87  5  01 00 00 87 BA 
   801)    132340.6  Rx     00017CBD  7  01 00 00 0F 03 BD 7C 
   802)    132340.7  Rx     00117CBD  5  01 00 00 BD 7C 
   803)    132345.6  Rx     0001C8CC  7  01 00 00 0F 03 CC C8 
   804)    132345.7  Rx     0011C8CC  5  01 00 00 CC C8 
   805)    132350.6  Rx     0001E409  7  01 00 00 0F 03 09 E4 
   806)    132350.7  Rx     0011E409  5  01 00 00 09 E4 
   807)    132355.6  Rx     00018A8B  7  01 00 00 0F 03 8B 8A 
   808)    132355.7  Rx     00118A8B  5  01 00 00 8B 8A 
   809)    132360.6  Rx     0001BFA3  7  01 00 00 0F 03 A3 BF 
   810)    132360.7  Rx     0011BFA3  5  01 00 00 A3 BF 
   811)    132365.6  Rx     00013752  7  01 00 00 0F 03 52 37 
   812)    132365.7  Rx     00113752  5  01 00 00 52 37 
   813)    132370.6  Rx     00010A1A  7  01 00 00 0F 03 1A 0A 
   814)    132370.7  Rx     00110A1A  5  01 00 00 1A 0A 
   815)    132375.6  Rx     0001C764  7  01 00 00 0F 03 64 C7 
   816)    132375.7  Rx     0011C764  5  01 00 00 64 C7 
   817)    132380.6  Rx     0001D19C  7  01 00 00 0F 03 9C D1 
   818)    132380.7  Rx     0011D19C  5  01 00 00 9C D1 
   819)    132385.6  Rx     000148BE  7  01 00 00 0F 03 BE 48 
   820)    132385.7  Rx     001148BE  5  01 00 00 BE 48 
   821)    132390.6  Rx     00017E2D  7  01 00 00 0F 03 2D 7E 
   822)    132390.7  Rx     00117E2D  5  01 00 00 2D 7E 
   823)    132395.6  Rx     0001B2E0  7  01 00 00 0F 03 E0 B2 
   824)    132395.7  Rx     0011B2E0  5  01 00 00 E0 B2 
   825)    132400.6  Rx     00017CFB  7  01 00 00 0F 03 FB 7C 
   826)    132400.7  Rx     00117CFB  5  01 00 00 FB 7C 
   827)    132405.6  Rx     00018358  7  01 00 00 0F 03 58 83 
   828)    132405.7  Rx     00118358  5  01 00 00 58 83 
   829)    132410.6  Rx     00017451  7  01 00 00 0F 03 51 74 
   830)    132410.7  Rx     00117451  5  01 00 00 51 74 
   831)    132415.6  Rx     000164E5  7  01 00 00 0F 03 E5 64 
   832)    132415.7  Rx     001164E5  5  01 00 00 E5 64 
   833)    132420.6  Rx     00010AB5  7  01 00 00 0F 03 B5 0A 
   834)    132420.7  Rx     00110AB5  5  01 00 00 B5 0A 
   835)    132425.6  Rx     0001D0A5  7  01 00 00 0F 03 A5 D0 
   836)    132425.7  Rx     0011D0A5  5  01 00 00 A5 D0 
   837)    132430.5  Rx     0001683F  7  01 00 00 0F 03 3F 68 
   838)    132430.7  Rx     0011683F  5  01 00 00 3F 68 
   839)    132435.6  Rx     0001CCAC  7  01 00 00 0F 03 AC CC 
   840)    132435.7  Rx     0011CCAC  5  01 00 00 AC CC 
   841)    132440.6  Rx     00019820  7  01 00 00 0F 03 20 98 
   842)    132440.7  Rx     00119820  5  01 00 00 20 98 
   843)    132445.6  Rx     000124FD  7  01 00 00 0F 03 FD 24 
   844)    132445.7  Rx     001124FD  5  01 00 00 FD 24 
   845)    132450.6  Rx     0001F0FB  7  01 00 00 0F 03 FB F0 
   846)    132450.7  Rx     0011F0FB  5  01 00 00 FB F0 
   847)    132455.6  Rx     0001CBB2  7  01 00 00 0F 03 B2 CB 
   848)    132455.7  Rx     0011CBB2  5  01 00 00 B2 CB 
   849)    132460.5  Rx     00017578  7  01 00 00 0F 03 78 75 
   850)    132460.7  Rx     00117578  5  01 00 00 78 75 
   851)    132465.6  Rx     00010ADD  7  01 00 00 0F 03 DD 0A 
   852)    132465.7  Rx     00110ADD  5  01 00 00 DD 0A 
   853)    132470.6  Rx     00019F3B  7  01 00 00 0F 03 3B 9F 
   854)    132470.7  Rx     00119F3B  5  01 00 00 3B 9F 
   855)    132475.6  Rx     00012E69  7  01 00 00 0F 03 69 2E 
   856)    132475.7  Rx     00112E69  5  01 00 00 69 2E 
   857)    132480.6  Rx     00015925  7  01 00 00 0F 03 25 59 
   858)    132480.7  Rx     00115925  5  01 00 00 25 59 
   859)    132485.5  Rx     000121FC  7  01 00 00 0F 03 FC 21 
   860)    132485.7  Rx     001121FC  5  01 00 00 FC 21 
   861)    132490.6  Rx     0001AE89  7  01 00 00 0F 03 89 AE 
   862)    132490.7  Rx     0011AE89  5  01 00 00 89 AE 
   863)    132495.6  Rx     0001D6B1  7  01 00 00 0F 03 B1 D6 
   864)    132495.7  Rx     0011D6B1  5  01 00 00 B1 D6 
   865)    132500.6  Rx     0001CFBD  7  01 00 00 0F 03 BD CF 
   866)    132500.7  Rx     0011CFBD  5  01 00 00 BD CF 
   867)    132505.6  Rx     0001D21F  7  01 00 00 0F 03 1F D2 
   868)    132505.7  Rx     0011D21F  5  01 00 00 1F D2 
   869)    132510.5  Rx     0001FD2A  7  01 00 00 0F 03 2A FD 
   870)    132510.7  Rx     0011FD2A  5  01 00 00 2A FD 
   871)    132515.5  Rx     0001C408  7  01 00 00 0F 03 08 C4 
   872)    132515.7  Rx     0011C408  5  01 00 00 08 C4 
   873)    132520.6  Rx     000168CA  7  01 00 00 0F 03 CA 68 
   874)    132520.7  Rx     001168CA  5  01 00 00 CA 68 
   875)    132525.6  Rx     0001B1AC  7  01 00 00 0F 03 AC B1 
   876)    132525.7  Rx     0011B1AC  5  01 00 00 AC B1 
   877)    132530.6  Rx     0001C6BC  7  01 00 00 0F 03 BC C6 
   878)    132530.7  Rx     0011C6BC  5  01 00 00 BC C6 
   879)    132535.5  Rx     00011D83  7  01 00 00 0F 03 83 1D 
   880)    132535.7  Rx     00111D83  5  01 00 00 83 1D 
   881)    132540.5  Rx     0001384C  7  01 00 00 0F 03 4C 38 
   882)    132540.7  Rx     0011384C  5  01 00 00 4C 38 
   883)    132545.6  Rx     000133FF  7  01 00 00 0F 03 FF 33 
   884)    132545.7  Rx     001133FF  5  01 00 00 FF 33 
   885)    132550.6  Rx     000169A1  7  01 00 00 0F 03 A1 69 
   886)    132550.7  Rx     001169A1  5  01 00 00 A1 69 
   887)    132555.6  Rx     00013D7B  7  01 00 00 0F 03 7B 3D 
   888)    132555.7  Rx     00113D7B  5  01 00 00 7B 3D 
   889)    132560.6  Rx     0001F0FC  7  01 00 00 0F 03 FC F0 
   890)    132560.7  Rx     0011F0FC  5  01 00 00 FC F0 
   891)    132565.5  Rx     0001337E  7  01 00 00 0F 03 7E 33 
   892)    132565.7  Rx     0011337E  5  01 00 00 7E 33 
   893)    132570.5  Rx     00014B1E  7  01 00 00 0F 03 1E 4B 
   894)    132570.7  Rx     00114B1E  5  01 00 00 1E 4B 
   895)    132575.6  Rx     0001DB07  7  01 00 00 0F 03 07 DB 
   896)    132575.7  Rx     0011DB07  5  01 00 00 07 DB 
   897)    132580.6  Rx     00015755  7  01 00 00 0F 03 55 57 
   898)    132580.6  Rx     00115755  5  01 00 00 55 57 
   899)    132585.6  Rx     00016F6E  7  01 00 00 0F 03 6E 6F 
   900)    132585.7  Rx     00116F6E  5  01 00 00 6E 6F 
   901)    132590.5  Rx     00019E42  7  01 00 00 0F 03 42 9E 
   902)    132590.7  Rx     00119E42  5  01 00 00 42 9E 
   903)    132595.5  Rx     0001F12C  7  01 00 00 0F 03 2C F1 
   904)    132595.7  Rx     0011F12C  5  01 00 00 2C F1 
   905)    132600.6  Rx     00017D53  7  01 00 00 0F 03 53 7D 
   906)    132600.7  Rx     00117D53  5  01 00 00 53 7D 
   907)    132605.6  Rx     00013583  7  01 00 00 0F 03 83 35 
   908)    132605.6  Rx     00113583  5  01 00 00 83 35 
   909)    132610.6  Rx     00013588  7  01 00 00 0F 03 88 35 
   910)    132610.7  Rx     00113588  5  01 00 00 88 35 
   911)    132615.5  Rx     0001FFD6  7  01 00 00 0F 03 D6 FF 
   912)    132615.7  Rx     0011FFD6  5  01 00 00 D6 FF 
   913)    132620.5  Rx     00012EF8  7  01 00 00 0F 03 F8 2E 
   914)    132620.7  Rx     00112EF8  5  01 00 00 F8 2E 
   915)    132625.5  Rx     0001EF39  7  01 00 00 0F 03 39 EF 
   916)    132625.7  Rx     0011EF39  5  01 00 00 39 EF 
   917)    132630.6  Rx     0001573A  7  01 00 00 0F 03 3A 57 
   918)    132630.7  Rx     0011573A  5  01 00 00 3A 57 
   919)    132635.6  Rx     0001EA84  7  01 00 00 0F 03 84 EA 
   920)    132635.6  Rx     0011EA84  5  01 00 00 84 EA 
   921)    132640.6  Rx     00011793  7  01 00 00 0F 03 93 17 
   922)    132640.7  Rx     00111793  5  01 00 00 93 17 
   923)    132645.5  Rx     00018AE4  7  01 00 00 0F 03 E4 8A 
   924)    132645.7  Rx     00118AE4  5  01 00 00 E4 8A 
   925)    132650.5  Rx     00017C9A  7  01 00 00 0F 03 9A 7C 
   926)    132650.7  Rx     00117C9A  5  01 00 00 9A 7C 
   927)    132655.5  Rx     00012CC5  7  01 00 00 0F 03 C5 2C 
   928)    132655.7  Rx     00112CC5  5  01 00 00 C5 2C 
   929)    132660.6  Rx     00013BBF  7  01 00 00 0F 03 BF 3B 
   930)    132660.6  Rx     00113BBF  5  01 00 00 BF 3B 
   931)    132665.6  Rx     00014888  7  01 00 00 0F 03 88 48 
   932)    132665.6  Rx     00114888  5  01 00 00 88 48 
   933)    132670.5  Rx     00013BC2  7  01 00 00 0F 03 C2 3B 
   934)    132670.7  Rx     00113BC2  5  01 00 00 C2 3B 
   935)    132675.5  Rx     0001D865  7  01 00 00 0F 03 65 D8 
   936)    132675.7  Rx     0011D865  5  01 00 00 65 D8 
   937)    132680.5  Rx     0001282B  7  01 00 00 0F 03 2B 28 
   938)    132680.7  Rx     0011282B  5  01 00 00 2B 28 
   939)    132685.5  Rx     00012269  7  01 00 00 0F 03 69 22 
   940)    132685.6  Rx     00112269  5  01 00 00 69 22 
   941)    132690.6  Rx     0001F846  7  01 00 00 0F 03 46 F8 
   942)    132690.6  Rx     0011F846  5  01 00 00 46 F8 
   943)    132695.5  Rx     0001B566  7  01 00 00 0F 03 66 B5 
   944)    132695.7  Rx     0011B566  5  01 00 00 66 B5 
   945)    132700.5  Rx     0001651F  7  01 00 00 0F 03 1F 65 
   946)    132700.7  Rx     0011651F  5  01 00 00 1F 65 
   947)    132705.5  Rx     00015560  7  01 00 00 0F 03 60 55 
   948)    132705.7  Rx     00115560  5  01 00 00 60 55 
   949)    132710.5  Rx     0001DE9F  7  01 00 00 0F 03 9F DE 
   950)    132710.7  Rx     0011DE9F  5  01 00 00 9F DE 
   951)    132715.6  Rx     000133B0  7  01 00 00 0F 03 B0 33 
   952)    132715.6  Rx     001133B0  5  01 00 00 B0 33 
   953)    132720.5  Rx     00019EB9  7  01 00 00 0F 03 B9 9E 
   954)    132720.6  Rx     00119EB9  5  01 00 00 B9 9E 
   955)    132725.5  Rx     000118F3  7  01 00 00 0F 03 F3 18 
   956)    132725.7  Rx     001118F3  5  01 00 00 F3 18 
   957)    132730.5  Rx     00017E46  7  01 00 00 0F 03 46 7E 
   958)    132730.7  Rx     00117E46  5  01 00 00 46 7E 
   959)    132735.5  Rx     00019687  7  01 00 00 0F 03 87 96 
   960)    132735.7  Rx     00119687  5  01 00 00 87 96 
   961)    132740.6  Rx     00010DFA  7  01 00 00 0F 03 FA 0D 
   962)    132740.6  Rx     00110DFA  5  01 00 00 FA 0D 
   963)    132745.6  Rx     00010F22  7  01 00 00 0F 03 22 0F 
   964)    132745.6  Rx     00110F22  5  01 00 00 22 0F 
   965)    132750.5  Rx     0001C6A1  7  01 00 00 0F 03 A1 C6 
   966)    132750.6  Rx     0011C6A1  5  01 00 00 A1 C6 
   967)    132755.5  Rx     000101C0  7  01 00 00 0F 03 C0 01 
   968)    132755.7  Rx     001101C0  5  01 00 00 C0 01 
   969)    132760.5  Rx     0001C684  7  01 00 00 0F 03 84 C6 
   970)    132760.7  Rx     0011C684  5  01 00 00 84 C6 
   971)    132765.5  Rx     0001CC01  7  01 00 00 0F 03 01 CC 
   972)    132765.6  Rx     0011CC01  5  01 00 00 01 CC 
   973)    132770.6  Rx     0001C2A1  7  01 00 00 0F 03 A1 C2 
   974)    132770.6  Rx     0011C2A1  5  01 00 00 A1 C2 
   975)    132775.5  Rx     000180B2  7  01 00 00 0F 03 B2 80 
   976)    132775.6  Rx     001180B2  5  01 00 00 B2 80 
   977)    132780.5  Rx     0001F920  7  01 00 00 0F 03 20 F9 
   978)    132780.7  Rx     0011F920  5  01 00 00 20 F9 
   979)    132785.5  Rx     0001990A  7  01 00 00 0F 03 0A 99 
   980)    132785.7  Rx     0011990A  5  01 00 00 0A 99 
   981)    132790.5  Rx     00016F27  7  01 00 00 0F 03 27 6F 
   982)    132790.6  Rx     00116F27  5  01 00 00 27 6F 
   983)    132795.5  Rx     00011AED  7  01 00 00 0F 03 ED 1A 
   984)    132795.6  Rx     00111AED  5  01 00 00 ED 1A 
   985)    132800.5  Rx     00015F01  7  01 00 00 0F 03 01 5F 
   986)    132800.6  Rx     00115F01  5  01 00 00 01 5F 
   987)    132805.5  Rx     0001C02F  7  01 00 00 0F 03 2F C0 
   988)    132805.7  Rx     0011C02F  5  01 00 00 2F C0 
   989)    132810.5  Rx     0001782B  7  01 00 00 0F 03 2B 78 
   990)    132810.7  Rx     0011782B  5  01 00 00 2B 78 
   991)    132815.5  Rx     0001DAAB  7  01 00 00 0F 03 AB DA 
   992)    132815.7  Rx     0011DAAB  5  01 00 00 AB DA 
   993)    132820.5  Rx     000165C9  7  01 00 00 0F 03 C9 65 
   994)    132820.6  Rx     001165C9  5  01 00 00 C9 65 
   995)    132825.6  Rx     000156B1  7  01 00 00 0F 03 B1 56 
   996)    132825.6  Rx     001156B1  5  01 00 00 B1 56 
   997)    132830.5  Rx     0001349A  7  01 00 00 0F 03 9A 34 
   998)    132830.6  Rx     0011349A  5  01 00 00 9A 34 
   999)    132835.5  Rx     0001ED0A  7  01 00 00 0F 03 0A ED 
  1000)    132835.6  Rx     0011ED0A  5  01 00 00 0A ED 
  1001)    132840.5  Rx     0001A04F  7  01 00 00 0F 03 4F A0 
  1002)    132840.7  Rx     0011A04F  5  01 00 00 4F A0 
  1003)    132845.5  Rx     0001ABB2  7  01 00 00 0F 03 B2 AB 
  1004)    132845.6  Rx     0011ABB2  5  01 00 00 B2 AB 
  1005)    132850.5  Rx     00014501  7  01 00 00 0F 03 01 45 
  1006)    132850.6  Rx     00114501  5  01 00 00 01 45 
  1007)    132855.5  Rx     0001AFF6  7  01 00 00 0F 03 F6 AF 
  1008)    132855.6  Rx     0011AFF6  5  01 00 00 F6 AF 
  1009)    132860.5  Rx     0001FC1D  7  01 00 00 0F 03 1D FC 
  1010)    132860.6  Rx     0011FC1D  5  01 00 00 1D FC 
  1011)    132865.5  Rx     0001D68B  7  01 00 00 0F 03 8B D6 
  1012)    132865.7  Rx     0011D68B  5  01 00 00 8B D6 
  1013)    132870.5  Rx     000178EE  7  01 00 00 0F 03 EE 78 
  1014)    132870.6  Rx     001178EE  5  01 00 00 EE 78 
  1015)    132875.5  Rx     0001A9E6  7  01 00 00 0F 03 E6 A9 
  1016)    132875.6  Rx     0011A9E6  5  01 00 00 E6 A9 
  1017)    132880.5  Rx     00012BBA  7  01 00 00 0F 03 BA 2B 
  1018)    132880.6  Rx     00112BBA  5  01 00 00 BA 2B 
  1019)    132885.5  Rx     000164DD  7  01 00 00 0F 03 DD 64 
  1020)    132885.6  Rx     001164DD  5  01 00 00 DD 64 
  1021)    132890.5  Rx     0001AF11  7  01 00 00 0F 03 11 AF 
  1022)    132890.6  Rx     0011AF11  5  01 00 00 11 AF 
  1023)    132895.5  Rx     0001BF4E  7  01 00 00 0F 03 4E BF 
  1024)    132895.7  Rx     0011BF4E  5  01 00 00 4E BF 
  1025)    132900.5  Rx     0001D9AD  7  01 00 00 0F 03 AD D9 
  1026)    132900.6  Rx     0011D9AD  5  01 00 00 AD D9 
  1027)    132905.5  Rx     0001CC69  7  01 00 00 0F 03 69 CC 
  1028)    132905.6  Rx     0011CC69  5  01 00 00 69 CC 
  1029)    132910.5  Rx     00017C24  7  01 00 00 0F 03 24 7C 
  1030)    132910.6  Rx     00117C24  5  01 00 00 24 7C 
  1031)    132915.5  Rx     000121CF  7  01 00 00 0F 03 CF 21 
  1032)    132915.6  Rx     001121CF  5  01 00 00 CF 21 
  1033)    132920.5  Rx     0001103C  7  01 00 00 0F 03 3C 10 
  1034)    132920.7  Rx     0011103C  5  01 00 00 3C 10 
  1035)    132925.5  Rx     00010C9F  7  01 00 00 0F 03 9F 0C 
  1036)    132925.6  Rx     00110C9F  5  01 00 00 9F 0C 
  1037)    132930.5  Rx     00013090  7  01 00 00 0F 03 90 30 
  1038)    132930.6  Rx     00113090  5  01 00 00 90 30 
  1039)    132935.5  Rx     0001752F  7  01 00 00 0F 03 2F 75 
  1040)    132935.6  Rx     0011752F  5  01 00 00 2F 75 
  1041)    132940.5  Rx     000181F7  7  01 00 00 0F 03 F7 81 
  1042)    132940.6  Rx     001181F7  5  01 00 00 F7 81 
  1043)    132945.5  Rx     000133F8  7  01 00 00 0F 03 F8 33 
  1044)    132945.7  Rx     001133F8  5  01 00 00 F8 33 
  1045)    132950.5  Rx     000178CA  7  01 00 00 0F 03 CA 78 
  1046)    132950.6  Rx     001178CA  5  01 00 00 CA 78 
  1047)    132955.5  Rx     0001DE0B  7  01 00 00 0F 03 0B DE 
  1048)    132955.6  Rx     0011DE0B  5  01 00 00 0B DE 
  1049)    132960.5  Rx     0001D6F7  7  01 00 00 0F 03 F7 D6 
  1050)    132960.6  Rx     0011D6F7  5  01 00 00 F7 D6 
  1051)    132965.5  Rx     0001E503  7  01 00 00 0F 03 03 E5 
  1052)    132965.6  Rx     0011E503  5  01 00 00 03 E5 
  1053)    132970.5  Rx     00014481  7  01 00 00 0F 03 81 44 
  1054)    132970.6  Rx     00114481  5  01 00 00 81 44 
  1055)    132975.5  Rx     0001024D  7  01 00 00 0F 03 4D 02 
  1056)    132975.6  Rx     0011024D  5  01 00 00 4D 02 
  1057)    132980.5  Rx     0001F6E5  7  01 00 00 0F 03 E5 F6 
  1058)    132980.6  Rx     0011F6E5  5  01 00 00 E5 F6 
  1059)    132985.5  Rx     00011740  7  01 00 00 0F 03 40 17 
  1060)    132985.6  Rx     00111740  5  01 00 00 40 17 
  1061)    132990.5  Rx     00019479  7  01 00 00 0F 03 79 94 
  1062)    132990.6  Rx     00119479  5  01 00 00 79 94 
  1063)    132995.5  Rx     00011F5D  7  01 00 00 0F 03 5D 1F 
  1064)    132995.6  Rx     00111F5D  5  01 00 00 5D 1F 
  1065)    133000.5  Rx     00016BBC  7  01 00 00 0F 03 BC 6B 
  1066)    133000.6  Rx     00116BBC  5  01 00 00 BC 6B 
  1067)    133005.5  Rx     000167AF  7  01 00 00 0F 03 AF 67 
  1068)    133005.6  Rx     001167AF  5  01 00 00 AF 67 
  1069)    133010.5  Rx     00014735  7  01 00 00 0F 03 35 47 
  1070)    133010.6  Rx     00114735  5  01 00 00 35 47 
  1071)    133015.5  Rx     0001261A  7  01 00 00 0F 03 1A 26 
  1072)    133015.6  Rx     0011261A  5  01 00 00 1A 26 
  1073)    133020.5  Rx     00019D4E  7  01 00 00 0F 03 4E 9D 
  1074)    133020.6  Rx     00119D4E  5  01 00 00 4E 9D 
  1075)    133025.5  Rx     0001CD26  7  01 00 00 0F 03 26 CD 
  1076)    133025.6  Rx     0011CD26  5  01 00 00 26 CD 
  1077)    133030.5  Rx     0001E056  7  01 00 00 0F 03 56 E0 
  1078)    133030.6  Rx     0011E056  5  01 00 00 56 E0 
  1079)    133035.5  Rx     0001C486  7  01 00 00 0F 03 86 C4 
  1080)    133035.6  Rx     0011C486  5  01 00 00 86 C4 
  1081)    133040.5  Rx     00013188  7  01 00 00 0F 03 88 31 
  1082)    133040.6  Rx     00113188  5  01 00 00 88 31 
  1083)    133045.5  Rx     00012C65  7  01 00 00 0F 03 65 2C 
  1084)    133045.6  Rx     00112C65  5  01 00 00 65 2C 
  1085)    133050.5  Rx     00017AC6  7  01 00 00 0F 03 C6 7A 
  1086)    133050.6  Rx     00117AC6  5  01 00 00 C6 7A 
  1087)    133055.5  Rx     00016943  7  01 00 00 0F 03 43 69 
  1088)    133055.6  Rx     00116943  5  01 00 00 43 69 
  1089)    133060.5  Rx     00015174  7  01 00 00 0F 03 74 51 
  1090)    133060.6  Rx     00115174  5  01 00 00 74 51 
  1091)    133065.5  Rx     0001D7EB  7  01 00 00 0F 03 EB D7 
  1092)    133065.6  Rx     0011D7EB  5  01 00 00 EB D7 
  1093)    133070.5  Rx     00016993  7  01 00 00 0F 03 93 69 
  1094)    133070.6  Rx     00116993  5  01 00 00 93 69 
  1095)    133075.5  Rx     000168C1  7  01 00 00 0F 03 C1 68 
  1096)    133075.6  Rx     001168C1  5  01 00 00 C1 68 
  1097)    133080.5  Rx     0001FF01  7  01 00 00 0F 03 01 FF 
  1098)    133080.6  Rx     0011FF01  5  01 00 00 01 FF 
  1099)    133085.5  Rx     00011385  7  01 00 00 0F 03 85 13 
  1100)    133085.6  Rx     00111385  5  01 00 00 85 13 
  1101)    133090.5  Rx     00012B9B  7  01 00 00 0F 03 9B 2B 
  1102)    133090.6  Rx     00112B9B  5  01 00 00 9B 2B 
  1103)    133095.5  Rx     0001FC34  7  01 00 00 0F 03 34 FC 
  1104)    133095.6  Rx     0011FC34  5  01 00 00 34 FC 
  1105)    133100.5  Rx     00016385  7  01 00 00 0F 03 85 63 
  1106)    133100.6  Rx     00116385  5  01 00 00 85 63 
  1107)    133105.5  Rx     0001D3AA  7  01 00 00 0F 03 AA D3 
  1108)    133105.6  Rx     0011D3AA  5  01 00 00 AA D3 
  1109)    133110.5  Rx     000121EB  7  01 00 00 0F 03 EB 21 
  1110)    133110.6  Rx     001121EB  5  01 00 00 EB 21 
  1111)    133115.5  Rx     00015A46  7  01 00 00 0F 03 46 5A 
  1112)    133115.6  Rx     00115A46  5  01 00 00 46 5A 
  1113)    133120.5  Rx     000116FE  7  01 00 00 0F 03 FE 16 
  1114)    133120.6  Rx     001116FE  5  01 00 00 FE 16 
  1115)    133125.5  Rx     00011889  7  01 00 00 0F 03 89 18 
  1116)    133125.6  Rx     00111889  5  01 00 00 89 18 
  1117)    133130.5  Rx     00017CE7  7  01 00 00 0F 03 E7 7C 
  1118)    133130.6  Rx     00117CE7  5  01 00 00 E7 7C 
  1119)    133135.5  Rx     0001BD90  7  01 00 00 0F 03 90 BD 
  1120)    133135.6  Rx     0011BD90  5  01 00 00 90 BD 
  1121)    133140.5  Rx     0001801A  7  01 00 00 0F 03 1A 80 
  1122)    133140.6  Rx     0011801A  5  01 00 00 1A 80 
  1123)    133145.5  Rx     0001A8DE  7  01 00 00 0F 03 DE A8 
  1124)    133145.6  Rx     0011A8DE  5  01 00 00 DE A8 
  1125)    133150.5  Rx     0001F429  7  01 00 00 0F 03 29 F4 
  1126)    133150.6  Rx     0011F429  5  01 00 00 29 F4 
  1127)    133155.5  Rx     000188C8  7  01 00 00 0F 03 C8 88 
  1128)    133155.6  Rx     001188C8  5  01 00 00 C8 88 
  1129)    133160.5  Rx     000124FC  7  01 00 00 0F 03 FC 24 
  1130)    133160.6  Rx     001124FC  5  01 00 00 FC 24 
  1131)    133165.5  Rx     00017888  7  01 00 00 0F 03 88 78 
  1132)    133165.6  Rx     00117888  5  01 00 00 88 78 
  1133)    133170.5  Rx     00019929  7  01 00 00 0F 03 29 99 
  1134)    133170.6  Rx     00119929  5  01 00 00 29 99 
  1135)    133175.5  Rx     000140BA  7  01 00 00 0F 03 BA 40 
  1136)    133175.6  Rx     001140BA  5  01 00 00 BA 40 
  1137)    133180.5  Rx     0001E0BB  7  01 00 00 0F 03 BB E0 
  1138)    133180.6  Rx     0011E0BB  5  01 00 00 BB E0 
  1139)    133185.5  Rx     000162DA  7  01 00 00 0F 03 DA 62 
  1140)    133185.6  Rx     001162DA  5  01 00 00 DA 62 
  1141)    133190.5  Rx     0001B0A1  7  01 00 00 0F 03 A1 B0 
  1142)    133190.6  Rx     0011B0A1  5  01 00 00 A1 B0 
  1143)    133195.5  Rx     0001A7F8  7  01 00 00 0F 03 F8 A7 
  1144)    133195.6  Rx     0011A7F8  5  01 00 00 F8 A7 
  1145)    133200.5  Rx     000151A9  7  01 00 00 0F 03 A9 51 
  1146)    133200.6  Rx     001151A9  5  01 00 00 A9 51 
  1147)    133205.5  Rx     000194B4  7  01 00 00 0F 03 B4 94 
  1148)    133205.6  Rx     001194B4  5  01 00 00 B4 94 
  1149)    133210.5  Rx     000186AD  7  01 00 00 0F 03 AD 86 
  1150)    133210.6  Rx     001186AD  5  01 00 00 AD 86 
  1151)    133215.5  Rx     0001C04F  7  01 00 00 0F 03 4F C0 
  1152)    133215.6  Rx     0011C04F  5  01 00 00 4F C0 
  1153)    133220.5  Rx     00011859  7  01 00 00 0F 03 59 18 
  1154)    133220.6  Rx     00111859  5  01 00 00 59 18 
  1155)    133225.5  Rx     00013A4F  7  01 00 00 0F 03 4F 3A 
  1156)    133225.6  Rx     00113A4F  5  01 00 00 4F 3A 
  1157)    133230.5  Rx     000125B5  7  01 00 00 0F 03 B5 25 
  1158)    133230.6  Rx     001125B5  5  01 00 00 B5 25 
  1159)    133235.5  Rx     000101FF  7  01 00 00 0F 03 FF 01 
  1160)    133235.6  Rx     001101FF  5  01 00 00 FF 01 
  1161)    133240.5  Rx     0001335D  7  01 00 00 0F 03 5D 33 
  1162)    133240.6  Rx     0011335D  5  01 00 00 5D 33 
  1163)    133245.5  Rx     000100DB  7  01 00 00 0F 03 DB 00 
  1164)    133245.6  Rx     001100DB  5  01 00 00 DB 00 
  1165)    133250.5  Rx     0001440A  7  01 00 00 0F 03 0A 44 
  1166)    133250.6  Rx     0011440A  5  01 00 00 0A 44 
  1167)    133255.5  Rx     000134A9  7  01 00 00 0F 03 A9 34 
  1168)    133255.6  Rx     001134A9  5  01 00 00 A9 34 
  1169)    133260.5  Rx     000137D2  7  01 00 00 0F 03 D2 37 
  1170)    133260.6  Rx     001137D2  5  01 00 00 D2 37 
  1171)    133265.5  Rx     0001A3CA  7  01 00 00 0F 03 CA A3 
  1172)    133265.6  Rx     0011A3CA  5  01 00 00 CA A3 
  1173)    133270.5  Rx     00010451  7  01 00 00 0F 03 51 04 
  1174)    133270.6  Rx     00110451  5  01 00 00 51 04 
  1175)    133275.5  Rx     0001AA07  7  01 00 00 0F 03 07 AA 
  1176)    133275.6  Rx     0011AA07  5  01 00 00 07 AA 
  1177)    133280.5  Rx     0001C29C  7  01 00 00 0F 03 9C C2 
  1178)    133280.6  Rx     0011C29C  5  01 00 00 9C C2 
  1179)    133285.5  Rx     00017DE9  7  01 00 00 0F 03 E9 7D 
  1180)    133285.6  Rx     00117DE9  5  01 00 00 E9 7D 
  1181)    133290.5  Rx     0001C4A3  7  01 00 00 0F 03 A3 C4 
  1182)    133290.6  Rx     0011C4A3  5  01 00 00 A3 C4 
  1183)    133295.5  Rx     0001365E  7  01 00 00 0F 03 5E 36 
  1184)    133295.6  Rx     0011365E  5  01 00 00 5E 36 
  1185)    133300.5  Rx     0001AE71  7  01 00 00 0F 03 71 AE 
  1186)    133300.6  Rx     0011AE71  5  01 00 00 71 AE 
  1187)    133305.5  Rx     00012E33  7  01 00 00 0F 03 33 2E 
  1188)    133305.6  Rx     00112E33  5  01 00 00 33 2E 
  1189)    133310.5  Rx     0001F470  7  01 00 00 0F 03 70 F4 
  1190)    133310.6  Rx     0011F470  5  01 00 00 70 F4 
  1191)    133315.5  Rx     000152B3  7  01 00 00 0F 03 B3 52 
  1192)    133315.6  Rx     001152B3  5  01 00 00 B3 52 
  1193)    133320.5  Rx     00017696  7  01 00 00 0F 03 96 76 
  1194)    133320.6  Rx     00117696  5  01 00 00 96 76 
  1195)    133325.5  Rx     00010465  7  01 00 00 0F 03 65 04 
  1196)    133325.6  Rx     00110465  5  01 00 00 65 04 
  1197)    133330.5  Rx     0001E526  7  01 00 00 0F 03 26 E5 
  1198)    133330.6  Rx     0011E526  5  01 00 00 26 E5 
  1199)    133335.5  Rx     00011CBF  7  01 00 00 0F 03 BF 1C 
  1200)    133335.6  Rx     00111CBF  5  01 00 00 BF 1C 
  1201)    133340.5  Rx     0001726B  7  01 00 00 0F 03 6B 72 
  1202)    133340.6  Rx     0011726B  5  01 00 00 6B 72 
  1203)    133345.5  Rx     0001B14F  7  01 00 00 0F 03 4F B1 
  1204)    133345.6  Rx     0011B14F  5  01 00 00 4F B1 
  1205)    133350.5  Rx     00018D95  7  01 00 00 0F 03 95 8D 
  1206)    133350.6  Rx     00118D95  5  01 00 00 95 8D 
  1207)    133355.5  Rx     000168A2  7  01 00 00 0F 03 A2 68 
  1208)    133355.6  Rx     001168A2  5  01 00 00 A2 68 
  1209)    133360.5  Rx     000131A7  7  01 00 00 0F 03 A7 31 
  1210)    133360.6  Rx     001131A7  5  01 00 00 A7 31 
  1211)    133365.5  Rx     0001BAF0  7  01 00 00 0F 03 F0 BA 
  1212)    133365.6  Rx     0011BAF0  5  01 00 00 F0 BA 
  1213)    133370.5  Rx     00017010  7  01 00 00 0F 03 10 70 
  1214)    133370.6  Rx     00117010  5  01 00 00 10 70 
  1215)    133375.5  Rx     0001E059  7  01 00 00 0F 03 59 E0 
  1216)    133375.6  Rx     0011E059  5  01 00 00 59 E0 
  1217)    133380.5  Rx     0001D163  7  01 00 00 0F 03 63 D1 
  1218)    133380.6  Rx     0011D163  5  01 00 00 63 D1 
  1219)    133385.5  Rx     0001243F  7  01 00 00 0F 03 3F 24 
  1220)    133385.6  Rx     0011243F  5  01 00 00 3F 24 
  1221)    133390.5  Rx     00015753  7  01 00 00 0F 03 53 57 
  1222)    133390.6  Rx     00115753  5  01 00 00 53 57 
  1223)    133395.5  Rx     000104F1  7  01 00 00 0F 03 F1 04 
  1224)    133395.6  Rx     001104F1  5  01 00 00 F1 04 
  1225)    133400.5  Rx     000145D7  7  01 00 00 0F 03 D7 45 
  1226)    133400.6  Rx     001145D7  5  01 00 00 D7 45 
  1227)    133405.5  Rx     0001F0C9  7  01 00 00 0F 03 C9 F0 
  1228)    133405.6  Rx     0011F0C9  5  01 00 00 C9 F0 
  1229)    133410.5  Rx     00012A27  7  01 00 00 0F 03 27 2A 
  1230)    133410.6  Rx     00112A27  5  01 00 00 27 2A 
  1231)    133415.5  Rx     00013977  7  01 00 00 0F 03 77 39 
  1232)    133415.6  Rx     00113977  5  01 00 00 77 39 
  1233)    133420.5  Rx     0001A4E6  7  01 00 00 0F 03 E6 A4 
  1234)    133420.6  Rx     0011A4E6  5  01 00 00 E6 A4 
  1235)    133425.5  Rx     0001BBFF  7  01 00 00 0F 03 FF BB 
  1236)    133425.6  Rx     0011BBFF  5  01 00 00 FF BB 
  1237)    133430.5  Rx     0001C1C5  7  01 00 00 0F 03 C5 C1 
  1238)    133430.6  Rx     0011C1C5  5  01 00 00 C5 C1 
  1239)    133435.5  Rx     0001EFB6  7  01 00 00 0F 03 B6 EF 
  1240)    133435.6  Rx     0011EFB6  5  01 00 00 B6 EF 
  1241)    133440.5  Rx     0001795B  7  01 00 00 0F 03 5B 79 
  1242)    133440.6  Rx     0011795B  5  01 00 00 5B 79 
  1243)    133445.5  Rx     0001304B  7  01 00 00 0F 03 4B 30 
  1244)    133445.6  Rx     0011304B  5  01 00 00 4B 30 
  1245)    133450.5  Rx     0001BAFE  7  01 00 00 0F 03 FE BA 
  1246)    133450.6  Rx     0011BAFE  5  01 00 00 FE BA 
  1247)    133455.5  Rx     00018A9E  7  01 00 00 0F 03 9E 8A 
  1248)    133455.6  Rx     00118A9E  5  01 00 00 9E 8A 
  1249)    133460.5  Rx     00011EF0  7  01 00 00 0F 03 F0 1E 
  1250)    133460.6  Rx     00111EF0  5  01 00 00 F0 1E 
  1251)    133465.5  Rx     0001C5E7  7  01 00 00 0F 03 E7 C5 
  1252)    133465.6  Rx     0011C5E7  5  01 00 00 E7 C5 
  1253)    133470.5  Rx     00013A16  7  01 00 00 0F 03 16 3A 
  1254)    133470.6  Rx     00113A16  5  01 00 00 16 3A 
  1255)    133475.5  Rx     00019A85  7  01 00 00 0F 03 85 9A 
  1256)    133475.6  Rx     00119A85  5  01 00 00 85 9A 
  1257)    133480.5  Rx     0001FB12  7  01 00 00 0F 03 12 FB 
  1258)    133480.6  Rx     0011FB12  5  01 00 00 12 FB 
  1259)    133485.5  Rx     0001296D  7  01 00 00 0F 03 6D 29 
  1260)    133485.6  Rx     0011296D  5  01 00 00 6D 29 
  1261)    133490.5  Rx     0001C574  7  01 00 00 0F 03 74 C5 
  1262)    133490.6  Rx     0011C574  5  01 00 00 74 C5 
  1263)    133495.5  Rx     0001D710  7  01 00 00 0F 03 10 D7 
  1264)    133495.6  Rx     0011D710  5  01 00 00 10 D7 
  1265)    133500.5  Rx     0001E666  7  01 00 00 0F 03 66 E6 
  1266)    133500.6  Rx     0011E666  5  01 00 00 66 E6 
  1267)    133505.5  Rx     0001DA2E  7  01 00 00 0F 03 2E DA 
  1268)    133505.6  Rx     0011DA2E  5  01 00 00 2E DA 
  1269)    133510.5  Rx     000112FB  7  01 00 00 0F 03 FB 12 
  1270)    133510.6  Rx     001112FB  5  01 00 00 FB 12 
  1271)    133515.5  Rx     000136EE  7  01 00 00 0F 03 EE 36 
  1272)    133515.6  Rx     001136EE  5  01 00 00 EE 36 
  1273)    133520.5  Rx     00016B09  7  01 00 00 0F 03 09 6B 
  1274)    133520.6  Rx     00116B09  5  01 00 00 09 6B 
  1275)    133525.5  Rx     0001C042  7  01 00 00 0F 03 42 C0 
  1276)    133525.6  Rx     0011C042  5  01 00 00 42 C0 
  1277)    133530.5  Rx     0001D835  7  01 00 00 0F 03 35 D8 
  1278)    133530.6  Rx     0011D835  5  01 00 00 35 D8 
  1279)    133535.5  Rx     0001E94A  7  01 00 00 0F 03 4A E9 
  1280)    133535.6  Rx     0011E94A  5  01 00 00 4A E9 
  1281)    133540.5  Rx     00011F9A  7  01 00 00 0F 03 9A 1F 
  1282)    133540.6  Rx     00111F9A  5  01 00 00 9A 1F 
  1283)    133545.5  Rx     0001B262  7  01 00 00 0F 03 62 B2 
  1284)    133545.6  Rx     0011B262  5  01 00 00 62 B2 
  1285)    133550.5  Rx     00019534  7  01 00 00 0F 03 34 95 
  1286)    133550.6  Rx     00119534  5  01 00 00 34 95 
  1287)    133555.5  Rx     000194FD  7  01 00 00 0F 03 FD 94 
  1288)    133555.6  Rx     001194FD  5  01 00 00 FD 94 
  1289)    133560.5  Rx     0001E2F8  7  01 00 00 0F 03 F8 E2 
  1290)    133560.6  Rx     0011E2F8  5  01 00 00 F8 E2 
  1291)    133565.5  Rx     00010F77  7  01 00 00 0F 03 77 0F 
  1292)    133565.6  Rx     00110F77  5  01 00 00 77 0F 
  1293)    133570.5  Rx     00017238  7  01 00 00 0F 03 38 72 
  1294)    133570.6  Rx     00117238  5  01 00 00 38 72 
  1295)    133575.5  Rx     00013586  7  01 00 00 0F 03 86 35 
  1296)    133575.6  Rx     00113586  5  01 00 00 86 35 
  1297)    133580.5  Rx     000148CA  7  01 00 00 0F 03 CA 48 
  1298)    133580.6  Rx     001148CA  5  01 00 00 CA 48 
  1299)    133585.5  Rx     00013BF0  7  01 00 00 0F 03 F0 3B 
  1300)    133585.6  Rx     00113BF0  5  01 00 00 F0 3B 
  1301)    133590.5  Rx     0001F40F  7  01 00 00 0F 03 0F F4 
  1302)    133590.6  Rx     0011F40F  5  01 00 00 0F F4 
  1303)    133595.5  Rx     000145B9  7  01 00 00 0F 03 B9 45 
  1304)    133595.6  Rx     001145B9  5  01 00 00 B9 45 
  1305)    133600.5  Rx     0001DEC2  7  01 00 00 0F 03 C2 DE 
  1306)    133600.6  Rx     0011DEC2  5  01 00 00 C2 DE 
  1307)    133605.5  Rx     000152D7  7  01 00 00 0F 03 D7 52 
  1308)    133605.6  Rx     001152D7  5  01 00 00 D7 52 
  1309)    133610.5  Rx     0001FF3F  7  01 00 00 0F 03 3F FF 
  1310)    133610.6  Rx     0011FF3F  5  01 00 00 3F FF 
  1311)    133615.5  Rx     0001D039  7  01 00 00 0F 03 39 D0 
  1312)    133615.6  Rx     0011D039  5  01 00 00 39 D0 
  1313)    133620.5  Rx     00016AA1  7  01 00 00 0F 03 A1 6A 
  1314)    133620.6  Rx     00116AA1  5  01 00 00 A1 6A 
  1315)    133625.5  Rx     000192A3  7  01 00 00 0F 03 A3 92 
  1316)    133625.6  Rx     001192A3  5  01 00 00 A3 92 
  1317)    133630.5  Rx     00015DE5  7  01 00 00 0F 03 E5 5D 
  1318)    133630.6  Rx     00115DE5  5  01 00 00 E5 5D 
  1319)    133635.5  Rx     00017DA6  7  01 00 00 0F 03 A6 7D 
  1320)    133635.6  Rx     00117DA6  5  01 00 00 A6 7D 
  1321)    133640.5  Rx     000150F9  7  01 00 00 0F 03 F9 50 
  1322)    133640.6  Rx     001150F9  5  01 00 00 F9 50 
  1323)    133645.5  Rx     000101CA  7  01 00 00 0F 03 CA 01 
  1324)    133645.6  Rx     001101CA  5  01 00 00 CA 01 
  1325)    133650.5  Rx     0001DC5A  7  01 00 00 0F 03 5A DC 
  1326)    133650.6  Rx     0011DC5A  5  01 00 00 5A DC 
  1327)    133655.5  Rx     00019496  7  01 00 00 0F 03 96 94 
  1328)    133655.6  Rx     00119496  5  01 00 00 96 94 
  1329)    133660.5  Rx     0001E0B4  7  01 00 00 0F 03 B4 E0 
  1330)    133660.6  Rx     0011E0B4  5  01 00 00 B4 E0 
  1331)    133665.5  Rx     0001FF1D  7  01 00 00 0F 03 1D FF 
  1332)    133665.6  Rx     0011FF1D  5  01 00 00 1D FF 
  1333)    133670.5  Rx     0001E09B  7  01 00 00 0F 03 9B E0 
  1334)    133670.6  Rx     0011E09B  5  01 00 00 9B E0 
  1335)    133675.5  Rx     00012344  7  01 00 00 0F 03 44 23 
  1336)    133675.6  Rx     00112344  5  01 00 00 44 23 
  1337)    133680.5  Rx     0001A357  7  01 00 00 0F 03 57 A3 
  1338)    133680.6  Rx     0011A357  5  01 00 00 57 A3 
  1339)    133685.5  Rx     0001C5D2  7  01 00 00 0F 03 D2 C5 
  1340)    133685.6  Rx     0011C5D2  5  01 00 00 D2 C5 
  1341)    133690.5  Rx     00015C65  7  01 00 00 0F 03 65 5C 
  1342)    133690.6  Rx     00115C65  5  01 00 00 65 5C 
  1343)    133695.5  Rx     0001FF09  7  01 00 00 0F 03 09 FF 
  1344)    133695.6  Rx     0011FF09  5  01 00 00 09 FF 
  1345)    133700.5  Rx     00019606  7  01 00 00 0F 03 06 96 
  1346)    133700.6  Rx     00119606  5  01 00 00 06 96 
  1347)    133705.5  Rx     0001015F  7  01 00 00 0F 03 5F 01 
  1348)    133705.6  Rx     0011015F  5  01 00 00 5F 01 
  1349)    133710.5  Rx     00018A21  7  01 00 00 0F 03 21 8A 
  1350)    133710.6  Rx     00118A21  5  01 00 00 21 8A 
  1351)    133715.5  Rx     0001D18D  7  01 00 00 0F 03 8D D1 
  1352)    133715.6  Rx     0011D18D  5  01 00 00 8D D1 
  1353)    133720.5  Rx     00019F46  7  01 00 00 0F 03 46 9F 
  1354)    133720.6  Rx     00119F46  5  01 00 00 46 9F 
  1355)    133725.4  Rx     00016D0D  7  01 00 00 0F 03 0D 6D 
  1356)    133725.6  Rx     00116D0D  5  01 00 00 0D 6D 
  1357)    133730.5  Rx     0001BC85  7  01 00 00 0F 03 85 BC 
  1358)    133730.6  Rx     0011BC85  5  01 00 00 85 BC 
  1359)    133735.5  Rx     00013FBD  7  01 00 00 0F 03 BD 3F 
  1360)    133735.6  Rx     00113FBD  5  01 00 00 BD 3F 
  1361)    133740.5  Rx     0001C585  7  01 00 00 0F 03 85 C5 
  1362)    133740.6  Rx     0011C585  5  01 00 00 85 C5 
  1363)    133745.5  Rx     00014B47  7  01 00 00 0F 03 47 4B 
  1364)    133745.6  Rx     00114B47  5  01 00 00 47 4B 
  1365)    133750.5  Rx     000144F6  7  01 00 00 0F 03 F6 44 
  1366)    133750.6  Rx     001144F6  5  01 00 00 F6 44 
  1367)    133755.5  Rx     0001D27B  7  01 00 00 0F 03 7B D2 
  1368)    133755.6  Rx     0011D27B  5  01 00 00 7B D2 
  1369)    133760.5  Rx     00018E59  7  01 00 00 0F 03 59 8E 
  1370)    133760.6  Rx     00118E59  5  01 00 00 59 8E 
  1371)    133765.5  Rx     000100B5  7  01 00 00 0F 03 B5 00 
  1372)    133765.6  Rx     001100B5  5  01 00 00 B5 00 
  1373)    133770.5  Rx     00012CAF  7  01 00 00 0F 03 AF 2C 
  1374)    133770.6  Rx     00112CAF  5  01 00 00 AF 2C 
  1375)    133775.5  Rx     00013117  7  01 00 00 0F 03 17 31 
  1376)    133775.6  Rx     00113117  5  01 00 00 17 31 
  1377)    133780.4  Rx     0001368B  7  01 00 00 0F 03 8B 36 
  1378)    133780.6  Rx     0011368B  5  01 00 00 8B 36 
  1379)    133785.5  Rx     0001AF0D  7  01 00 00 0F 03 0D AF 
  1380)    133785.6  Rx     0011AF0D  5  01 00 00 0D AF 
  1381)    133790.5  Rx     000104A3  7  01 00 00 0F 03 A3 04 
  1382)    133790.6  Rx     001104A3  5  01 00 00 A3 04 
  1383)    133795.5  Rx     0001197F  7  01 00 00 0F 03 7F 19 
  1384)    133795.6  Rx     0011197F  5  01 00 00 7F 19 
  1385)    133800.5  Rx     00011ED1  7  01 00 00 0F 03 D1 1E 
  1386)    133800.6  Rx     00111ED1  5  01 00 00 D1 1E 
  1387)    133805.4  Rx     0001B3A3  7  01 00 00 0F 03 A3 B3 
  1388)    133805.6  Rx     0011B3A3  5  01 00 00 A3 B3 
  1389)    133810.5  Rx     0001C821  7  01 00 00 0F 03 21 C8 
  1390)    133810.6  Rx     0011C821  5  01 00 00 21 C8 
  1391)    133815.5  Rx     00017238  7  01 00 00 0F 03 38 72 
  1392)    133815.6  Rx     00117238  5  01 00 00 38 72 
  1393)    133820.5  Rx     0001095D  7  01 00 00 0F 03 5D 09 
  1394)    133820.6  Rx     0011095D  5  01 00 00 5D 09 
  1395)    133825.5  Rx     00013DC5  7  01 00 00 0F 03 C5 3D 
  1396)    133825.6  Rx     00113DC5  5  01 00 00 C5 3D 
  1397)    133830.5  Rx     00019A3C  7  01 00 00 0F 03 3C 9A 
  1398)    133830.6  Rx     00119A3C  5  01 00 00 3C 9A 
  1399)    133835.4  Rx     0001560B  7  01 00 00 0F 03 0B 56 
  1400)    133835.6  Rx     0011560B  5  01 00 00 0B 56 
  1401)    133840.5  Rx     0001701A  7  01 00 00 0F 03 1A 70 
  1402)    133840.6  Rx     0011701A  5  01 00 00 1A 70 
  1403)    133845.5  Rx     0001E4C8  7  01 00 00 0F 03 C8 E4 
  1404)    133845.6  Rx     0011E4C8  5  01 00 00 C8 E4 
  1405)    133850.5  Rx     0001A1E7  7  01 00 00 0F 03 E7 A1 
  1406)    133850.6  Rx     0011A1E7  5  01 00 00 E7 A1 
  1407)    133855.5  Rx     0001357F  7  01 00 00 0F 03 7F 35 
  1408)    133855.6  Rx     0011357F  5  01 00 00 7F 35 
  1409)    133860.4  Rx     0001DFAF  7  01 00 00 0F 03 AF DF 
  1410)    133860.6  Rx     0011DFAF  5  01 00 00 AF DF 
  1411)    133865.5  Rx     000135E0  7  01 00 00 0F 03 E0 35 
  1412)    133865.6  Rx     001135E0  5  01 00 00 E0 35 
  1413)    133870.5  Rx     0001CCE2  7  01 00 00 0F 03 E2 CC 
  1414)    133870.6  Rx     0011CCE2  5  01 00 00 E2 CC 
  1415)    133875.5  Rx     0001DE09  7  01 00 00 0F 03 09 DE 
  1416)    133875.6  Rx     0011DE09  5  01 00 00 09 DE 
  1417)    133880.5  Rx     00011F4B  7  01 00 00 0F 03 4B 1F 
  1418)    133880.6  Rx     00111F4B  5  01 00 00 4B 1F 
  1419)    133885.4  Rx     000135B2  7  01 00 00 0F 03 B2 35 
  1420)    133885.6  Rx     001135B2  5  01 00 00 B2 35 
  1421)    133890.4  Rx     0001B158  7  01 00 00 0F 03 58 B1 
  1422)    133890.6  Rx     0011B158  5  01 00 00 58 B1 
  1423)    133895.5  Rx     00017704  7  01 00 00 0F 03 04 77 
  1424)    133895.6  Rx     00117704  5  01 00 00 04 77 
  1425)    133900.5  Rx     0001B91F  7  01 00 00 0F 03 1F B9 
  1426)    133900.6  Rx     0011B91F  5  01 00 00 1F B9 
  1427)    133905.5  Rx     000101AA  7  01 00 00 0F 03 AA 01 
  1428)    133905.6  Rx     001101AA  5  01 00 00 AA 01 
  1429)    133910.4  Rx     00015244  7  01 00 00 0F 03 44 52 
  1430)    133910.6  Rx     00115244  5  01 00 00 44 52 
  1431)    133915.4  Rx     0001B461  7  01 00 00 0F 03 61 B4 
  1432)    133915.6  Rx     0011B461  5  01 00 00 61 B4 
  1433)    133920.4  Rx     000127A9  7  01 00 00 0F 03 A9 27 
  1434)    133920.6  Rx     001127A9  5  01 00 00 A9 27 
  1435)    133925.5  Rx     00015D0D  7  01 00 00 0F 03 0D 5D 
  1436)    133925.6  Rx     00115D0D  5  01 00 00 0D 5D 
  1437)    133930.5  Rx     0001EA96  7  01 00 00 0F 03 96 EA 
  1438)    133930.5  Rx     0011EA96  5  01 00 00 96 EA 
  1439)    133935.5  Rx     0001CF1E  7  01 00 00 0F 03 1E CF 
  1440)    133935.6  Rx     0011CF1E  5  01 00 00 1E CF 
  1441)    133940.4  Rx     000123B6  7  01 00 00 0F 03 B6 23 
  1442)    133940.6  Rx     001123B6  5  01 00 00 B6 23 
  1443)    133945.4  Rx     00013DCD  7  01 00 00 0F 03 CD 3D 
  1444)    133945.6  Rx     00113DCD  5  01 00 00 CD 3D 
  1445)    133950.4  Rx     0001CF19  7  01 00 00 0F 03 19 CF 
  1446)    133950.6  Rx     0011CF19  5  01 00 00 19 CF 
  1447)    133955.5  Rx     00019B78  7  01 00 00 0F 03 78 9B 
  1448)    133955.5  Rx     00119B78  5  01 00 00 78 9B 
  1449)    133960.5  Rx     0001FB24  7  01 00 00 0F 03 24 FB 
  1450)    133960.6  Rx     0011FB24  5  01 00 00 24 FB 
  1451)    133965.4  Rx     0001591F  7  01 00 00 0F 03 1F 59 
  1452)    133965.6  Rx     0011591F  5  01 00 00 1F 59 
  1453)    133970.4  Rx     00012B11  7  01 00 00 0F 03 11 2B 
  1454)    133970.6  Rx     00112B11  5  01 00 00 11 2B 
  1455)    133975.4  Rx     00018CDF  7  01 00 00 0F 03 DF 8C 
  1456)    133975.6  Rx     00118CDF  5  01 00 00 DF 8C 
  1457)    133980.5  Rx     0001F46A  7  01 00 00 0F 03 6A F4 
  1458)    133980.5  Rx     0011F46A  5  01 00 00 6A F4 
  1459)    133985.5  Rx     0001B7CE  7  01 00 00 0F 03 CE B7 
  1460)    133985.5  Rx     0011B7CE  5  01 00 00 CE B7 
  1461)    133990.4  Rx     0001DFA7  7  01 00 00 0F 03 A7 DF 
  1462)    133990.6  Rx     0011DFA7  5  01 00 00 A7 DF 
  1463)    133995.4  Rx     0001EFAB  7  01 00 00 0F 03 AB EF 
  1464)    133995.6  Rx     0011EFAB  5  01 00 00 AB EF 
  1465)    134000.4  Rx     00017ED8  7  01 00 00 0F 03 D8 7E 
  1466)    134000.6  Rx     00117ED8  5  01 00 00 D8 7E 
  1467)    134005.4  Rx     00014A4B  7  01 00 00 0F 03 4B 4A 
  1468)    134005.6  Rx     00114A4B  5  01 00 00 4B 4A 
  1469)    134010.5  Rx     00014204  7  01 00 00 0F 03 04 42 
  1470)    134010.5  Rx     00114204  5  01 00 00 04 42 
  1471)    134015.4  Rx     0001B893  7  01 00 00 0F 03 93 B8 
  1472)    134015.5  Rx     0011B893  5  01 00 00 93 B8 
  1473)    134020.4  Rx     0001979E  7  01 00 00 0F 03 9E 97 
  1474)    134020.6  Rx     0011979E  5  01 00 00 9E 97 
  1475)    134025.4  Rx     0001688B  7  01 00 00 0F 03 8B 68 
  1476)    134025.6  Rx     0011688B  5  01 00 00 8B 68 
  1477)    134030.4  Rx     0001003F  7  01 00 00 0F 03 3F 00 
  1478)    134030.6  Rx     0011003F  5  01 00 00 3F 00 
  1479)    134035.5  Rx     0001D1D8  7  01 00 00 0F 03 D8 D1 
  1480)    134035.5  Rx     0011D1D8  5  01 00 00 D8 D1 
  1481)    134040.5  Rx     0001078E  7  01 00 00 0F 03 8E 07 
  1482)    134040.6  Rx     0011078E  5  01 00 00 8E 07 
  1483)    134045.4  Rx     00018190  7  01 00 00 0F 03 90 81 
  1484)    134045.6  Rx     00118190  5  01 00 00 90 81 
  1485)    134050.4  Rx     0001E8F7  7  01 00 00 0F 03 F7 E8 
  1486)    134050.6  Rx     0011E8F7  5  01 00 00 F7 E8 
  1487)    134055.4  Rx     00010244  7  01 00 00 0F 03 44 02 
  1488)    134055.6  Rx     00110244  5  01 00 00 44 02 
  1489)    134060.4  Rx     0001C9A0  7  01 00 00 0F 03 A0 C9 
  1490)    134060.5  Rx     0011C9A0  5  01 00 00 A0 C9 
  1491)    134065.5  Rx     000186C3  7  01 00 00 0F 03 C3 86 
  1492)    134065.5  Rx     001186C3  5  01 00 00 C3 86 
  1493)    134070.4  Rx     0001B1BE  7  01 00 00 0F 03 BE B1 
  1494)    134070.6  Rx     0011B1BE  5  01 00 00 BE B1 
  1495)    134075.4  Rx     000109D6  7  01 00 00 0F 03 D6 09 
  1496)    134075.6  Rx     001109D6  5  01 00 00 D6 09 
  1497)    134080.4  Rx     00014E39  7  01 00 00 0F 03 39 4E 
  1498)    134080.6  Rx     00114E39  5  01 00 00 39 4E 
  1499)    134085.4  Rx     00018B07  7  01 00 00 0F 03 07 8B 
  1500)    134085.6  Rx     00118B07  5  01 00 00 07 8B 
  1501)    134090.4  Rx     0001D43C  7  01 00 00 0F 03 3C D4 
  1502)    134090.5  Rx     0011D43C  5  01 00 00 3C D4 
  1503)    134095.4  Rx     0001C038  7  01 00 00 0F 03 38 C0 
  1504)    134095.5  Rx     0011C038  5  01 00 00 38 C0 
  1505)    134100.4  Rx     0001CF2A  7  01 00 00 0F 03 2A CF 
  1506)    134100.6  Rx     0011CF2A  5  01 00 00 2A CF 
  1507)    134105.4  Rx     0001618D  7  01 00 00 0F 03 8D 61 
  1508)    134105.6  Rx     0011618D  5  01 00 00 8D 61 
  1509)    134110.4  Rx     00015A0E  7  01 00 00 0F 03 0E 5A 
  1510)    134110.6  Rx     00115A0E  5  01 00 00 0E 5A 
  1511)    134115.4  Rx     000110F7  7  01 00 00 0F 03 F7 10 
  1512)    134115.5  Rx     001110F7  5  01 00 00 F7 10 
  1513)    134120.5  Rx     00018C79  7  01 00 00 0F 03 79 8C 
  1514)    134120.5  Rx     00118C79  5  01 00 00 79 8C 
  1515)    134125.4  Rx     00011468  7  01 00 00 0F 03 68 14 
  1516)    134125.5  Rx     00111468  5  01 00 00 68 14 
  1517)    134130.4  Rx     0001A372  7  01 00 00 0F 03 72 A3 
  1518)    134130.6  Rx     0011A372  5  01 00 00 72 A3 
  1519)    134135.4  Rx     00010D72  7  01 00 00 0F 03 72 0D 
  1520)    134135.6  Rx     00110D72  5  01 00 00 72 0D 
  1521)    134140.4  Rx     000149E2  7  01 00 00 0F 03 E2 49 
  1522)    134140.5  Rx     001149E2  5  01 00 00 E2 49 
  1523)    134145.4  Rx     00018ADF  7  01 00 00 0F 03 DF 8A 
  1524)    134145.5  Rx     00118ADF  5  01 00 00 DF 8A 
  1525)    134150.4  Rx     000148A3  7  01 00 00 0F 03 A3 48 
  1526)    134150.5  Rx     001148A3  5  01 00 00 A3 48 
  1527)    134155.4  Rx     00010C8D  7  01 00 00 0F 03 8D 0C 
  1528)    134155.5  Rx     00110C8D  5  01 00 00 8D 0C 
  1529)    134160.4  Rx     0001691B  7  01 00 00 0F 03 1B 69 
  1530)    134160.6  Rx     0011691B  5  01 00 00 1B 69 
  1531)    134165.4  Rx     00010B85  7  01 00 00 0F 03 85 0B 
  1532)    134165.5  Rx     00110B85  5  01 00 00 85 0B 
  1533)    134170.4  Rx     0001DE04  7  01 00 00 0F 03 04 DE 
  1534)    134170.5  Rx     0011DE04  5  01 00 00 04 DE 
  1535)    134175.4  Rx     0001A42D  7  01 00 00 0F 03 2D A4 
  1536)    134175.5  Rx     0011A42D  5  01 00 00 2D A4 
  1537)    134180.4  Rx     000158DA  7  01 00 00 0F 03 DA 58 
  1538)    134180.5  Rx     001158DA  5  01 00 00 DA 58 
  1539)    134185.4  Rx     0001C209  7  01 00 00 0F 03 09 C2 
  1540)    134185.6  Rx     0011C209  5  01 00 00 09 C2 
  1541)    134190.4  Rx     0001CAFF  7  01 00 00 0F 03 FF CA 
  1542)    134190.6  Rx     0011CAFF  5  01 00 00 FF CA 
  1543)    134195.4  Rx     0001D463  7  01 00 00 0F 03 63 D4 
  1544)    134195.5  Rx     0011D463  5  01 00 00 63 D4 
  1545)    134200.4  Rx     0001EC97  7  01 00 00 0F 03 97 EC 
  1546)    134200.5  Rx     0011EC97  5  01 00 00 97 EC 
  1547)    134205.4  Rx     000174CD  7  01 00 00 0F 03 CD 74 
  1548)    134205.5  Rx     001174CD  5  01 00 00 CD 74 
  1549)    134210.4  Rx     00010BAB  7  01 00 00 0F 03 AB 0B 
  1550)    134210.5  Rx     00110BAB  5  01 00 00 AB 0B 
  1551)    134215.4  Rx     0001FC64  7  01 00 00 0F 03 64 FC 
  1552)    134215.6  Rx     0011FC64  5  01 00 00 64 FC 
  1553)    134220.4  Rx     00018D10  7  01 00 00 0F 03 10 8D 
  1554)    134220.5  Rx     00118D10  5  01 00 00 10 8D 
  1555)    134225.4  Rx     0001F238  7  01 00 00 0F 03 38 F2 
  1556)    134225.5  Rx     0011F238  5  01 00 00 38 F2 
  1557)    134230.4  Rx     0001112F  7  01 00 00 0F 03 2F 11 
  1558)    134230.5  Rx     0011112F  5  01 00 00 2F 11 
  1559)    134235.4  Rx     0001F53F  7  01 00 00 0F 03 3F F5 
  1560)    134235.5  Rx     0011F53F  5  01 00 00 3F F5 
  1561)    134240.4  Rx     0001A190  7  01 00 00 0F 03 90 A1 
  1562)    134240.5  Rx     0011A190  5  01 00 00 90 A1 
  1563)    134245.4  Rx     0001A5CB  7  01 00 00 0F 03 CB A5 
  1564)    134245.5  Rx     0011A5CB  5  01 00 00 CB A5 
  1565)    134250.4  Rx     00018CE8  7  01 00 00 0F 03 E8 8C 
  1566)    134250.5  Rx     00118CE8  5  01 00 00 E8 8C 
  1567)    134255.4  Rx     00012E4D  7  01 00 00 0F 03 4D 2E 
  1568)    134255.5  Rx     00112E4D  5  01 00 00 4D 2E 
  1569)    134260.4  Rx     0001D5EF  7  01 00 00 0F 03 EF D5 
  1570)    134260.5  Rx     0011D5EF  5  01 00 00 EF D5 
  1571)    134265.4  Rx     000134F4  7  01 00 00 0F 03 F4 34 
  1572)    134265.5  Rx     001134F4  5  01 00 00 F4 34 
  1573)    134270.4  Rx     0001464B  7  01 00 00 0F 03 4B 46 
  1574)    134270.5  Rx     0011464B  5  01 00 00 4B 46 
  1575)    134275.4  Rx     0001A767  7  01 00 00 0F 03 67 A7 
  1576)    134275.5  Rx     0011A767  5  01 00 00 67 A7 
  1577)    134280.4  Rx     00017558  7  01 00 00 0F 03 58 75 
  1578)    134280.5  Rx     00117558  5  01 00 00 58 75 
  1579)    134285.4  Rx     00010BA5  7  01 00 00 0F 03 A5 0B 
  1580)    134285.5  Rx     00110BA5  5  01 00 00 A5 0B 
  1581)    134290.4  Rx     0001D38B  7  01 00 00 0F 03 8B D3 
  1582)    134290.5  Rx     0011D38B  5  01 00 00 8B D3 
  1583)    134295.4  Rx     00010CD9  7  01 00 00 0F 03 D9 0C 
  1584)    134295.5  Rx     00110CD9  5  01 00 00 D9 0C 
  1585)    134300.4  Rx     0001A5CD  7  01 00 00 0F 03 CD A5 
  1586)    134300.5  Rx     0011A5CD  5  01 00 00 CD A5 
  1587)    134305.4  Rx     0001D8A2  7  01 00 00 0F 03 A2 D8 
  1588)    134305.5  Rx     0011D8A2  5  01 00 00 A2 D8 
  1589)    134310.4  Rx     00017CFA  7  01 00 00 0F 03 FA 7C 
  1590)    134310.5  Rx     00117CFA  5  01 00 00 FA 7C 
  1591)    134315.4  Rx     0001CD19  7  01 00 00 0F 03 19 CD 
  1592)    134315.5  Rx     0011CD19  5  01 00 00 19 CD 
  1593)    134320.4  Rx     0001CC6A  7  01 00 00 0F 03 6A CC 
  1594)    134320.5  Rx     0011CC6A  5  01 00 00 6A CC 
  1595)    134325.4  Rx     0001459D  7  01 00 00 0F 03 9D 45 
  1596)    134325.5  Rx     0011459D  5  01 00 00 9D 45 
  1597)    134330.4  Rx     00011B2F  7  01 00 00 0F 03 2F 1B 
  1598)    134330.5  Rx     00111B2F  5  01 00 00 2F 1B 
  1599)    134335.4  Rx     00011836  7  01 00 00 0F 03 36 18 
  1600)    134335.5  Rx     00111836  5  01 00 00 36 18 
  1601)    134340.4  Rx     0001D26B  7  01 00 00 0F 03 6B D2 
  1602)    134340.5  Rx     0011D26B  5  01 00 00 6B D2 
  1603)    134345.4  Rx     00015F03  7  01 00 00 0F 03 03 5F 
  1604)    134345.5  Rx     00115F03  5  01 00 00 03 5F 
  1605)    134350.4  Rx     0001C3EB  7  01 00 00 0F 03 EB C3 
  1606)    134350.5  Rx     0011C3EB  5  01 00 00 EB C3 
  1607)    134355.4  Rx     00010511  7  01 00 00 0F 03 11 05 
  1608)    134355.5  Rx     00110511  5  01 00 00 11 05 
  1609)    134360.4  Rx     00017AEE  7  01 00 00 0F 03 EE 7A 
  1610)    134360.5  Rx     00117AEE  5  01 00 00 EE 7A 
  1611)    134365.4  Rx     00013393  7  01 00 00 0F 03 93 33 
  1612)    134365.5  Rx     00113393  5  01 00 00 93 33 
  1613)    134370.4  Rx     0001ADBB  7  01 00 00 0F 03 BB AD 
  1614)    134370.5  Rx     0011ADBB  5  01 00 00 BB AD 
  1615)    134375.4  Rx     0001884D  7  01 00 00 0F 03 4D 88 
  1616)    134375.5  Rx     0011884D  5  01 00 00 4D 88 
  1617)    134380.4  Rx     0001A978  7  01 00 00 0F 03 78 A9 
  1618)    134380.5  Rx     0011A978  5  01 00 00 78 A9 
  1619)    134385.4  Rx     00016BB2  7  01 00 00 0F 03 B2 6B 
  1620)    134385.5  Rx     00116BB2  5  01 00 00 B2 6B 
  1621)    134390.4  Rx     0001065D  7  01 00 00 0F 03 5D 06 
  1622)    134390.5  Rx     0011065D  5  01 00 00 5D 06 
  1623)    134395.4  Rx     00019506  7  01 00 00 0F 03 06 95 
  1624)    134395.5  Rx     00119506  5  01 00 00 06 95 
  1625)    134400.4  Rx     0001BD38  7  01 00 00 0F 03 38 BD 
  1626)    134400.5  Rx     0011BD38  5  01 00 00 38 BD 
  1627)    134405.4  Rx     0001D081  7  01 00 00 0F 03 81 D0 
  1628)    134405.5  Rx     0011D081  5  01 00 00 81 D0 
  1629)    134410.4  Rx     0001B7E3  7  01 00 00 0F 03 E3 B7 
  1630)    134410.5  Rx     0011B7E3  5  01 00 00 E3 B7 
  1631)    134415.4  Rx     00013344  7  01 00 00 0F 03 44 33 
