;$FILEVERSION=1.1
;$STARTTIME=46290.6871224306
;
;   Start time: 25/09/2026 16:29:27.378.0
;   Generated by PCAN-View v5.3.3.958
;
;   Message Number
;   |         Time Offset (ms)
;   |         |        Type
;   |         |        |        ID (hex)
;   |         |        |        |     Data Length
;   |         |        |        |     |   Data Bytes (hex) ...
;   |         |        |        |     |   |
;---+--   ----+----  --+--  ----+---  +  -+ -- -- -- -- -- -- --
     1)      9574.0  Rx     0001101A  7  01 00 00 0F 00 1A 10 
     2)      9574.2  Rx     0011101A  5  01 00 00 1A 10 
     3)      9579.0  Rx     0001910E  7  01 00 00 0F 03 0E 91 
     4)      9579.2  Rx     0011910E  5  01 00 00 0E 91 
     5)      9584.0  Rx     0001034F  7  01 00 00 0F 03 4F 03 
     6)      9584.2  Rx     0011034F  5  01 00 00 4F 03 
     7)      9589.0  Rx     00018C5D  7  01 00 00 0F 03 5D 8C 
     8)      9589.1  Rx     00118C5D  5  01 00 00 5D 8C 
     9)      9594.1  Rx     0001A385  7  01 00 00 0F 03 85 A3 
    10)      9594.1  Rx     0011A385  5  01 00 00 85 A3 
    11)      9599.0  Rx     0001D9B7  7  01 00 00 0F 03 B7 D9 
    12)      9599.2  Rx     0011D9B7  5  01 00 00 B7 D9 
    13)      9604.0  Rx     000119D0  7  01 00 00 0F 03 D0 19 
    14)      9604.2  Rx     001119D0  5  01 00 00 D0 19 
    15)      9609.0  Rx     0001291F  7  01 00 00 0F 03 1F 29 
    16)      9609.2  Rx     0011291F  5  01 00 00 1F 29 
    17)      9614.0  Rx     0001F5DE  7  01 00 00 0F 03 DE F5 
    18)      9614.1  Rx     0011F5DE  5  01 00 00 DE F5 
    19)      9619.1  Rx     00010BDD  7  01 00 00 0F 03 DD 0B 
    20)      9619.1  Rx     00110BDD  5  01 00 00 DD 0B 
    21)      9624.0  Rx     0001BF44  7  01 00 00 0F 03 44 BF 
    22)      9624.2  Rx     0011BF44  5  01 00 00 44 BF 
    23)      9629.0  Rx     00019F0A  7  01 00 00 0F 03 0A 9F 
    24)      9629.2  Rx     00119F0A  5  01 00 00 0A 9F 
    25)      9634.0  Rx     00013B75  7  01 00 00 0F 03 75 3B 
    26)      9634.2  Rx     00113B75  5  01 00 00 75 3B 
    27)      9639.0  Rx     00012CAA  7  01 00 00 0F 03 AA 2C 
    28)      9639.2  Rx     00112CAA  5  01 00 00 AA 2C 
    29)      9644.0  Rx     00012EDE  7  01 00 00 0F 03 DE 2E 
    30)      9644.1  Rx     00112EDE  5  01 00 00 DE 2E 
    31)      9649.1  Rx     0001D6E4  7  01 00 00 0F 03 E4 D6 
    32)      9649.1  Rx     0011D6E4  5  01 00 00 E4 D6 
    33)      9654.0  Rx     0001E840  7  01 00 00 0F 03 40 E8 
    34)      9654.2  Rx     0011E840  5  01 00 00 40 E8 
    35)      9659.0  Rx     00013894  7  01 00 00 0F 03 94 38 
    36)      9659.2  Rx     00113894  5  01 00 00 94 38 
    37)      9664.0  Rx     00019435  7  01 00 00 0F 03 35 94 
    38)      9664.2  Rx     00119435  5  01 00 00 35 94 
    39)      9669.0  Rx     0001C045  7  01 00 00 0F 03 45 C0 
    40)      9669.1  Rx     0011C045  5  01 00 00 45 C0 
    41)      9674.1  Rx     0001A386  7  01 00 00 0F 03 86 A3 
    42)      9674.1  Rx     0011A386  5  01 00 00 86 A3 
    43)      9679.0  Rx     00010659  7  01 00 00 0F 03 59 06 
    44)      9679.1  Rx     00110659  5  01 00 00 59 06 
    45)      9684.0  Rx     000135C5  7  01 00 00 0F 03 C5 35 
    46)      9684.2  Rx     001135C5  5  01 00 00 C5 35 
    47)      9689.0  Rx     0001ECEA  7  01 00 00 0F 03 EA EC 
    48)      9689.2  Rx     0011ECEA  5  01 00 00 EA EC 
    49)      9694.0  Rx     0001E63D  7  01 00 00 0F 03 3D E6 
    50)      9694.1  Rx     0011E63D  5  01 00 00 3D E6 
    51)      9699.0  Rx     00016BAB  7  01 00 00 0F 03 AB 6B 
    52)      9699.1  Rx     00116BAB  5  01 00 00 AB 6B 
    53)      9704.0  Rx     0001CC36  7  01 00 00 0F 03 36 CC 
    54)      9704.1  Rx     0011CC36  5  01 00 00 36 CC 
    55)      9709.0  Rx     000103CB  7  01 00 00 0F 03 CB 03 
    56)      9709.1  Rx     001103CB  5  01 00 00 CB 03 
    57)      9714.0  Rx     0001042D  7  01 00 00 0F 03 2D 04 
    58)      9714.2  Rx     0011042D  5  01 00 00 2D 04 
    59)      9719.0  Rx     000147AA  7  01 00 00 0F 03 AA 47 
    60)      9719.2  Rx     001147AA  5  01 00 00 AA 47 
    61)      9724.0  Rx     0001E65F  7  01 00 00 0F 03 5F E6 
    62)      9724.1  Rx     0011E65F  5  01 00 00 5F E6 
    63)      9729.0  Rx     00015BEB  7  01 00 00 0F 03 EB 5B 
    64)      9729.1  Rx     00115BEB  5  01 00 00 EB 5B 
    65)      9734.0  Rx     0001D7DC  7  01 00 00 0F 03 DC D7 
    66)      9734.1  Rx     0011D7DC  5  01 00 00 DC D7 
    67)      9739.0  Rx     00019315  7  01 00 00 0F 03 15 93 
    68)      9739.1  Rx     00119315  5  01 00 00 15 93 
    69)      9744.0  Rx     00011A08  7  01 00 00 0F 03 08 1A 
    70)      9744.2  Rx     00111A08  5  01 00 00 08 1A 
    71)      9749.0  Rx     000192F1  7  01 00 00 0F 03 F1 92 
    72)      9749.1  Rx     001192F1  5  01 00 00 F1 92 
    73)      9754.0  Rx     00018929  7  01 00 00 0F 03 29 89 
    74)      9754.1  Rx     00118929  5  01 00 00 29 89 
    75)      9759.0  Rx     00017A3F  7  01 00 00 0F 03 3F 7A 
    76)      9759.1  Rx     00117A3F  5  01 00 00 3F 7A 
    77)      9764.0  Rx     00016972  7  01 00 00 0F 03 72 69 
    78)      9764.1  Rx     00116972  5  01 00 00 72 69 
    79)      9769.0  Rx     00011F79  7  01 00 00 0F 03 79 1F 
    80)      9769.2  Rx     00111F79  5  01 00 00 79 1F 
    81)      9774.0  Rx     000186B4  7  01 00 00 0F 03 B4 86 
    82)      9774.1  Rx     001186B4  5  01 00 00 B4 86 
    83)      9779.0  Rx     00015CC3  7  01 00 00 0F 03 C3 5C 
    84)      9779.1  Rx     00115CC3  5  01 00 00 C3 5C 
    85)      9784.0  Rx     00019997  7  01 00 00 0F 03 97 99 
    86)      9784.1  Rx     00119997  5  01 00 00 97 99 
    87)      9789.0  Rx     0001D32A  7  01 00 00 0F 03 2A D3 
    88)      9789.1  Rx     0011D32A  5  01 00 00 2A D3 
    89)      9794.0  Rx     00013604  7  01 00 00 0F 03 04 36 
    90)      9794.2  Rx     00113604  5  01 00 00 04 36 
    91)      9799.0  Rx     0001EAF6  7  01 00 00 0F 03 F6 EA 
    92)      9799.1  Rx     0011EAF6  5  01 00 00 F6 EA 
    93)      9804.0  Rx     00016130  7  01 00 00 0F 03 30 61 
    94)      9804.1  Rx     00116130  5  01 00 00 30 61 
    95)      9809.0  Rx     00017887  7  01 00 00 0F 03 87 78 
    96)      9809.1  Rx     00117887  5  01 00 00 87 78 
    97)      9814.0  Rx     0001C666  7  01 00 00 0F 03 66 C6 
    98)      9814.1  Rx     0011C666  5  01 00 00 66 C6 
    99)      9819.0  Rx     0001251E  7  01 00 00 0F 03 1E 25 
   100)      9819.1  Rx     0011251E  5  01 00 00 1E 25 
   101)      9824.0  Rx     0001E07A  7  01 00 00 0F 03 7A E0 
   102)      9824.2  Rx     0011E07A  5  01 00 00 7A E0 
   103)      9829.0  Rx     00015885  7  01 00 00 0F 03 85 58 
   104)      9829.1  Rx     00115885  5  01 00 00 85 58 
   105)      9834.0  Rx     00010E95  7  01 00 00 0F 03 95 0E 
   106)      9834.1  Rx     00110E95  5  01 00 00 95 0E 
   107)      9839.0  Rx     00018067  7  01 00 00 0F 03 67 80 
   108)      9839.1  Rx     00118067  5  01 00 00 67 80 
   109)      9844.0  Rx     0001D1B8  7  01 00 00 0F 03 B8 D1 
   110)      9844.1  Rx     0011D1B8  5  01 00 00 B8 D1 
   111)      9849.0  Rx     0001DBE0  7  01 00 00 0F 03 E0 DB 
   112)      9849.2  Rx     0011DBE0  5  01 00 00 E0 DB 
   113)      9854.0  Rx     0001491E  7  01 00 00 0F 03 1E 49 
   114)      9854.1  Rx     0011491E  5  01 00 00 1E 49 
   115)      9859.0  Rx     0001ED90  7  01 00 00 0F 03 90 ED 
   116)      9859.1  Rx     0011ED90  5  01 00 00 90 ED 
   117)      9864.0  Rx     0001F276  7  01 00 00 0F 03 76 F2 
   118)      9864.1  Rx     0011F276  5  01 00 00 76 F2 
   119)      9869.0  Rx     0001F02D  7  01 00 00 0F 03 2D F0 
   120)      9869.1  Rx     0011F02D  5  01 00 00 2D F0 
   121)      9874.0  Rx     0001FF81  7  01 00 00 0F 03 81 FF 
   122)      9874.2  Rx     0011FF81  5  01 00 00 81 FF 
   123)      9879.0  Rx     0001E168  7  01 00 00 0F 04 68 E1 
   124)      9879.1  Rx     0011E168  5  01 00 00 68 E1 
   125)      9884.0  Rx     00013993  7  01 00 00 0F 03 93 39 
   126)      9884.1  Rx     00113993  5  01 00 00 93 39 
   127)      9889.0  Rx     0001D8AE  7  01 00 00 0F 03 AE D8 
   128)      9889.1  Rx     0011D8AE  5  01 00 00 AE D8 
   129)      9894.0  Rx     0001B416  7  01 00 00 0F 03 16 B4 
   130)      9894.1  Rx     0011B416  5  01 00 00 16 B4 
   131)      9899.0  Rx     000172FC  7  01 00 00 0F 03 FC 72 
   132)      9899.1  Rx     001172FC  5  01 00 00 FC 72 
   133)      9904.0  Rx     000141FB  7  01 00 00 0F 03 FB 41 
   134)      9904.2  Rx     001141FB  5  01 00 00 FB 41 
   135)      9909.0  Rx     00018AE8  7  01 00 00 0F 03 E8 8A 
   136)      9909.1  Rx     00118AE8  5  01 00 00 E8 8A 
   137)      9914.0  Rx     0001E6B5  7  01 00 00 0F 03 B5 E6 
   138)      9914.1  Rx     0011E6B5  5  01 00 00 B5 E6 
   139)      9919.0  Rx     00015B8C  7  01 00 00 0F 03 8C 5B 
   140)      9919.1  Rx     00115B8C  5  01 00 00 8C 5B 
   141)      9924.0  Rx     00018237  7  01 00 00 0F 03 37 82 
   142)      9924.1  Rx     00118237  5  01 00 00 37 82 
   143)      9929.0  Rx     00014AF5  7  01 00 00 0F 03 F5 4A 
   144)      9929.1  Rx     00114AF5  5  01 00 00 F5 4A 
   145)      9934.0  Rx     0001A014  7  01 00 00 0F 03 14 A0 
   146)      9934.1  Rx     0011A014  5  01 00 00 14 A0 
   147)      9939.0  Rx     00011842  7  01 00 00 0F 03 42 18 
   148)      9939.1  Rx     00111842  5  01 00 00 42 18 
   149)      9944.0  Rx     0001ACA6  7  01 00 00 0F 03 A6 AC 
   150)      9944.1  Rx     0011ACA6  5  01 00 00 A6 AC 
   151)      9949.0  Rx     00014798  7  01 00 00 0F 03 98 47 
   152)      9949.1  Rx     00114798  5  01 00 00 98 47 
   153)      9954.0  Rx     000193ED  7  01 00 00 0F 03 ED 93 
   154)      9954.1  Rx     001193ED  5  01 00 00 ED 93 
   155)      9959.0  Rx     0001EDA0  7  01 00 00 0F 03 A0 ED 
   156)      9959.1  Rx     0011EDA0  5  01 00 00 A0 ED 
   157)      9964.0  Rx     00010087  7  01 00 00 0F 03 87 00 
   158)      9964.1  Rx     00110087  5  01 00 00 87 00 
   159)      9969.0  Rx     00012215  7  01 00 00 0F 03 15 22 
   160)      9969.1  Rx     00112215  5  01 00 00 15 22 
   161)      9974.0  Rx     000195E7  7  01 00 00 0F 03 E7 95 
   162)      9974.1  Rx     001195E7  5  01 00 00 E7 95 
   163)      9979.0  Rx     0001FCBC  7  01 00 00 0F 03 BC FC 
   164)      9979.1  Rx     0011FCBC  5  01 00 00 BC FC 
   165)      9984.0  Rx     00018FBD  7  01 00 00 0F 03 BD 8F 
   166)      9984.1  Rx     00118FBD  5  01 00 00 BD 8F 
   167)      9989.0  Rx     000179BD  7  01 00 00 0F 03 BD 79 
   168)      9989.1  Rx     001179BD  5  01 00 00 BD 79 
   169)      9994.0  Rx     0001C131  7  01 00 00 0F 03 31 C1 
   170)      9994.1  Rx     0011C131  5  01 00 00 31 C1 
   171)      9999.0  Rx     00014E2D  7  01 00 00 0F 03 2D 4E 
   172)      9999.1  Rx     00114E2D  5  01 00 00 2D 4E 
   173)     10004.0  Rx     00018951  7  01 00 00 0F 03 51 89 
   174)     10004.1  Rx     00118951  5  01 00 00 51 89 
   175)     10009.0  Rx     00018F4B  7  01 00 00 0F 03 4B 8F 
   176)     10009.1  Rx     00118F4B  5  01 00 00 4B 8F 
   177)     10014.0  Rx     000106ED  7  01 00 00 0F 03 ED 06 
   178)     10014.1  Rx     001106ED  5  01 00 00 ED 06 
   179)     10019.0  Rx     0001E6C3  7  01 00 00 0F 03 C3 E6 
   180)     10019.1  Rx     0011E6C3  5  01 00 00 C3 E6 
   181)     10024.0  Rx     0001A0B6  7  01 00 00 0F 03 B6 A0 
   182)     10024.1  Rx     0011A0B6  5  01 00 00 B6 A0 
   183)     10029.0  Rx     0001B3F1  7  01 00 00 0F 03 F1 B3 
   184)     10029.1  Rx     0011B3F1  5  01 00 00 F1 B3 
   185)     10034.0  Rx     00012353  7  01 00 00 0F 03 53 23 
   186)     10034.1  Rx     00112353  5  01 00 00 53 23 
   187)     10039.0  Rx     0001D5F9  7  01 00 00 0F 03 F9 D5 
   188)     10039.1  Rx     0011D5F9  5  01 00 00 F9 D5 
   189)     10044.0  Rx     000151CF  7  01 00 00 0F 03 CF 51 
   190)     10044.1  Rx     001151CF  5  01 00 00 CF 51 
   191)     10049.0  Rx     0001EC30  7  01 00 00 0F 03 30 EC 
   192)     10049.1  Rx     0011EC30  5  01 00 00 30 EC 
   193)     10054.0  Rx     00015990  7  01 00 00 0F 03 90 59 
   194)     10054.1  Rx     00115990  5  01 00 00 90 59 
   195)     10059.0  Rx     00014E2A  7  01 00 00 0F 03 2A 4E 
   196)     10059.1  Rx     00114E2A  5  01 00 00 2A 4E 
   197)     10064.0  Rx     00011DB1  7  01 00 00 0F 03 B1 1D 
   198)     10064.1  Rx     00111DB1  5  01 00 00 B1 1D 
   199)     10069.0  Rx     00019A6B  7  01 00 00 0F 03 6B 9A 
   200)     10069.1  Rx     00119A6B  5  01 00 00 6B 9A 
   201)     10074.0  Rx     00015672  7  01 00 00 0F 03 72 56 
   202)     10074.1  Rx     00115672  5  01 00 00 72 56 
   203)     10079.0  Rx     00019A86  7  01 00 00 0F 03 86 9A 
   204)     10079.1  Rx     00119A86  5  01 00 00 86 9A 
   205)     10084.0  Rx     00010027  7  01 00 00 0F 03 27 00 
   206)     10084.1  Rx     00110027  5  01 00 00 27 00 
   207)     10089.0  Rx     0001CD39  7  01 00 00 0F 03 39 CD 
   208)     10089.1  Rx     0011CD39  5  01 00 00 39 CD 
   209)     10094.0  Rx     0001E9C5  7  01 00 00 0F 03 C5 E9 
   210)     10094.1  Rx     0011E9C5  5  01 00 00 C5 E9 
   211)     10099.0  Rx     00015AC2  7  01 00 00 0F 03 C2 5A 
   212)     10099.1  Rx     00115AC2  5  01 00 00 C2 5A 
   213)     10104.0  Rx     0001A1F9  7  01 00 00 0F 03 F9 A1 
   214)     10104.1  Rx     0011A1F9  5  01 00 00 F9 A1 
   215)     10109.0  Rx     0001157D  7  01 00 00 0F 03 7D 15 
   216)     10109.1  Rx     0011157D  5  01 00 00 7D 15 
   217)     10114.0  Rx     0001EA7A  7  01 00 00 0F 03 7A EA 
   218)     10114.1  Rx     0011EA7A  5  01 00 00 7A EA 
   219)     10119.0  Rx     00015C91  7  01 00 00 0F 03 91 5C 
   220)     10119.1  Rx     00115C91  5  01 00 00 91 5C 
   221)     10124.0  Rx     0001B7EC  7  01 00 00 0F 03 EC B7 
   222)     10124.1  Rx     0011B7EC  5  01 00 00 EC B7 
   223)     10129.0  Rx     0001E836  7  01 00 00 0F 03 36 E8 
   224)     10129.1  Rx     0011E836  5  01 00 00 36 E8 
   225)     10134.0  Rx     0001F98C  7  01 00 00 0F 03 8C F9 
   226)     10134.1  Rx     0011F98C  5  01 00 00 8C F9 
   227)     10139.0  Rx     0001E2D5  7  01 00 00 0F 03 D5 E2 
   228)     10139.1  Rx     0011E2D5  5  01 00 00 D5 E2 
   229)     10144.0  Rx     00014287  7  01 00 00 0F 03 87 42 
   230)     10144.1  Rx     00114287  5  01 00 00 87 42 
   231)     10149.0  Rx     00014015  7  01 00 00 0F 03 15 40 
   232)     10149.1  Rx     00114015  5  01 00 00 15 40 
   233)     10154.0  Rx     00015BA1  7  01 00 00 0F 03 A1 5B 
   234)     10154.1  Rx     00115BA1  5  01 00 00 A1 5B 
   235)     10159.0  Rx     00018A94  7  01 00 00 0F 03 94 8A 
   236)     10159.1  Rx     00118A94  5  01 00 00 94 8A 
   237)     10164.0  Rx     0001FA9A  7  01 00 00 0F 03 9A FA 
   238)     10164.1  Rx     0011FA9A  5  01 00 00 9A FA 
   239)     10169.0  Rx     00012ED3  7  01 00 00 0F 03 D3 2E 
   240)     10169.1  Rx     00112ED3  5  01 00 00 D3 2E 
   241)     10174.0  Rx     0001BD72  7  01 00 00 0F 03 72 BD 
   242)     10174.1  Rx     0011BD72  5  01 00 00 72 BD 
   243)     10179.0  Rx     000171AB  7  01 00 00 0F 03 AB 71 
   244)     10179.1  Rx     001171AB  5  01 00 00 AB 71 
   245)     10184.0  Rx     0001827F  7  01 00 00 0F 03 7F 82 
   246)     10184.1  Rx     0011827F  5  01 00 00 7F 82 
   247)     10189.0  Rx     00015E40  7  01 00 00 0F 03 40 5E 
   248)     10189.1  Rx     00115E40  5  01 00 00 40 5E 
   249)     10194.0  Rx     000116EC  7  01 00 00 0F 03 EC 16 
   250)     10194.1  Rx     001116EC  5  01 00 00 EC 16 
   251)     10199.0  Rx     00014744  7  01 00 00 0F 03 44 47 
   252)     10199.1  Rx     00114744  5  01 00 00 44 47 
   253)     10204.0  Rx     0001C41D  7  01 00 00 0F 03 1D C4 
   254)     10204.1  Rx     0011C41D  5  01 00 00 1D C4 
   255)     10209.0  Rx     0001B51A  7  01 00 00 0F 03 1A B5 
   256)     10209.1  Rx     0011B51A  5  01 00 00 1A B5 
   257)     10214.0  Rx     00016112  7  01 00 00 0F 03 12 61 
   258)     10214.1  Rx     00116112  5  01 00 00 12 61 
   259)     10219.0  Rx     00014208  7  01 00 00 0F 03 08 42 
   260)     10219.1  Rx     00114208  5  01 00 00 08 42 
   261)     10224.0  Rx     00014FB1  7  01 00 00 0F 03 B1 4F 
   262)     10224.1  Rx     00114FB1  5  01 00 00 B1 4F 
   263)     10229.0  Rx     0001DFA2  7  01 00 00 0F 03 A2 DF 
   264)     10229.1  Rx     0011DFA2  5  01 00 00 A2 DF 
   265)     10234.0  Rx     00017EA8  7  01 00 00 0F 03 A8 7E 
   266)     10234.1  Rx     00117EA8  5  01 00 00 A8 7E 
   267)     10239.0  Rx     00015C14  7  01 00 00 0F 03 14 5C 
   268)     10239.1  Rx     00115C14  5  01 00 00 14 5C 
   269)     10244.0  Rx     0001874B  7  01 00 00 0F 03 4B 87 
   270)     10244.1  Rx     0011874B  5  01 00 00 4B 87 
   271)     10249.0  Rx     0001D3EE  7  01 00 00 0F 03 EE D3 
   272)     10249.1  Rx     0011D3EE  5  01 00 00 EE D3 
   273)     10254.0  Rx     0001FB90  7  01 00 00 0F 03 90 FB 
   274)     10254.1  Rx     0011FB90  5  01 00 00 90 FB 
   275)     10259.0  Rx     000138AC  7  01 00 00 0F 03 AC 38 
   276)     10259.1  Rx     001138AC  5  01 00 00 AC 38 
   277)     10264.0  Rx     00011318  7  01 00 00 0F 03 18 13 
   278)     10264.1  Rx     00111318  5  01 00 00 18 13 
   279)     10269.0  Rx     000169FF  7  01 00 00 0F 03 FF 69 
   280)     10269.1  Rx     001169FF  5  01 00 00 FF 69 
   281)     10274.0  Rx     0001DEF1  7  01 00 00 0F 03 F1 DE 
   282)     10274.1  Rx     0011DEF1  5  01 00 00 F1 DE 
   283)     10279.0  Rx     000153B0  7  01 00 00 0F 03 B0 53 
   284)     10279.1  Rx     001153B0  5  01 00 00 B0 53 
   285)     10284.0  Rx     00011665  7  01 00 00 0F 03 65 16 
   286)     10284.1  Rx     00111665  5  01 00 00 65 16 
   287)     10289.0  Rx     0001F791  7  01 00 00 0F 03 91 F7 
   288)     10289.1  Rx     0011F791  5  01 00 00 91 F7 
   289)     10294.0  Rx     0001881C  7  01 00 00 0F 03 1C 88 
   290)     10294.1  Rx     0011881C  5  01 00 00 1C 88 
   291)     10299.0  Rx     0001F6D1  7  01 00 00 0F 03 D1 F6 
   292)     10299.1  Rx     0011F6D1  5  01 00 00 D1 F6 
   293)     10304.0  Rx     0001995F  7  01 00 00 0F 03 5F 99 
   294)     10304.1  Rx     0011995F  5  01 00 00 5F 99 
   295)     10309.0  Rx     0001D3B5  7  01 00 00 0F 03 B5 D3 
   296)     10309.1  Rx     0011D3B5  5  01 00 00 B5 D3 
   297)     10314.0  Rx     00017A2E  7  01 00 00 0F 03 2E 7A 
   298)     10314.1  Rx     00117A2E  5  01 00 00 2E 7A 
   299)     10319.0  Rx     00015883  7  01 00 00 0F 03 83 58 
   300)     10319.1  Rx     00115883  5  01 00 00 83 58 
   301)     10324.0  Rx     0001BF9A  7  01 00 00 0F 03 9A BF 
   302)     10324.1  Rx     0011BF9A  5  01 00 00 9A BF 
   303)     10329.0  Rx     0001DA20  7  01 00 00 0F 03 20 DA 
   304)     10329.1  Rx     0011DA20  5  01 00 00 20 DA 
   305)     10334.0  Rx     00010E75  7  01 00 00 0F 03 75 0E 
   306)     10334.1  Rx     00110E75  5  01 00 00 75 0E 
   307)     10339.0  Rx     0001B4B1  7  01 00 00 0F 03 B1 B4 
   308)     10339.1  Rx     0011B4B1  5  01 00 00 B1 B4 
   309)     10344.0  Rx     00012B57  7  01 00 00 0F 03 57 2B 
   310)     10344.1  Rx     00112B57  5  01 00 00 57 2B 
   311)     10349.0  Rx     00011A40  7  01 00 00 0F 03 40 1A 
   312)     10349.1  Rx     00111A40  5  01 00 00 40 1A 
   313)     10354.0  Rx     00017593  7  01 00 00 0F 03 93 75 
   314)     10354.1  Rx     00117593  5  01 00 00 93 75 
   315)     10359.0  Rx     00014F32  7  01 00 00 0F 03 32 4F 
   316)     10359.1  Rx     00114F32  5  01 00 00 32 4F 
   317)     10364.0  Rx     00013984  7  01 00 00 0F 03 84 39 
   318)     10364.1  Rx     00113984  5  01 00 00 84 39 
   319)     10369.0  Rx     00015212  7  01 00 00 0F 03 12 52 
   320)     10369.1  Rx     00115212  5  01 00 00 12 52 
   321)     10373.9  Rx     00016B63  7  01 00 00 0F 03 63 6B 
   322)     10374.1  Rx     00116B63  5  01 00 00 63 6B 
   323)     10379.0  Rx     00017BFD  7  01 00 00 0F 03 FD 7B 
   324)     10379.1  Rx     00117BFD  5  01 00 00 FD 7B 
   325)     10384.0  Rx     00017282  7  01 00 00 0F 03 82 72 
   326)     10384.1  Rx     00117282  5  01 00 00 82 72 
   327)     10389.0  Rx     000178B5  7  01 00 00 0F 03 B5 78 
   328)     10389.1  Rx     001178B5  5  01 00 00 B5 78 
   329)     10394.0  Rx     0001F99E  7  01 00 00 0F 03 9E F9 
   330)     10394.1  Rx     0011F99E  5  01 00 00 9E F9 
   331)     10398.9  Rx     0001BD1E  7  01 00 00 0F 03 1E BD 
   332)     10399.1  Rx     0011BD1E  5  01 00 00 1E BD 
   333)     10403.9  Rx     0001B7A9  7  01 00 00 0F 03 A9 B7 
   334)     10404.1  Rx     0011B7A9  5  01 00 00 A9 B7 
   335)     10409.0  Rx     000168BD  7  01 00 00 0F 03 BD 68 
   336)     10409.1  Rx     001168BD  5  01 00 00 BD 68 
   337)     10414.0  Rx     0001713C  7  01 00 00 0F 03 3C 71 
   338)     10414.1  Rx     0011713C  5  01 00 00 3C 71 
   339)     10419.0  Rx     0001E667  7  01 00 00 0F 03 67 E6 
   340)     10419.1  Rx     0011E667  5  01 00 00 67 E6 
   341)     10423.9  Rx     0001998C  7  01 00 00 0F 03 8C 99 
   342)     10424.1  Rx     0011998C  5  01 00 00 8C 99 
   343)     10428.9  Rx     00015647  7  01 00 00 0F 03 47 56 
   344)     10429.1  Rx     00115647  5  01 00 00 47 56 
   345)     10434.0  Rx     0001129B  7  01 00 00 0F 03 9B 12 
   346)     10434.1  Rx     0011129B  5  01 00 00 9B 12 
   347)     10439.0  Rx     0001F2E6  7  01 00 00 0F 03 E6 F2 
   348)     10439.1  Rx     0011F2E6  5  01 00 00 E6 F2 
   349)     10444.0  Rx     0001C6FC  7  01 00 00 0F 03 FC C6 
   350)     10444.1  Rx     0011C6FC  5  01 00 00 FC C6 
   351)     10449.0  Rx     000164D0  7  01 00 00 0F 03 D0 64 
   352)     10449.1  Rx     001164D0  5  01 00 00 D0 64 
   353)     10453.9  Rx     0001F060  7  01 00 00 0F 03 60 F0 
   354)     10454.1  Rx     0011F060  5  01 00 00 60 F0 
   355)     10458.9  Rx     00015019  7  01 00 00 0F 03 19 50 
   356)     10459.1  Rx     00115019  5  01 00 00 19 50 
   357)     10464.0  Rx     000130CD  7  01 00 00 0F 03 CD 30 
   358)     10464.1  Rx     001130CD  5  01 00 00 CD 30 
   359)     10469.0  Rx     000144C5  7  01 00 00 0F 03 C5 44 
   360)     10469.0  Rx     001144C5  5  01 00 00 C5 44 
   361)     10474.0  Rx     0001BD20  7  01 00 00 0F 03 20 BD 
   362)     10474.1  Rx     0011BD20  5  01 00 00 20 BD 
   363)     10478.9  Rx     0001D6E3  7  01 00 00 0F 03 E3 D6 
   364)     10479.1  Rx     0011D6E3  5  01 00 00 E3 D6 
   365)     10483.9  Rx     00017E59  7  01 00 00 0F 03 59 7E 
   366)     10484.1  Rx     00117E59  5  01 00 00 59 7E 
   367)     10489.0  Rx     0001ACDA  7  01 00 00 0F 03 DA AC 
   368)     10489.1  Rx     0011ACDA  5  01 00 00 DA AC 
   369)     10494.0  Rx     00019BBD  7  01 00 00 0F 03 BD 9B 
   370)     10494.0  Rx     00119BBD  5  01 00 00 BD 9B 
   371)     10499.0  Rx     0001CE3C  7  01 00 00 0F 03 3C CE 
   372)     10499.1  Rx     0011CE3C  5  01 00 00 3C CE 
   373)     10503.9  Rx     00013EC8  7  01 00 00 0F 03 C8 3E 
   374)     10504.1  Rx     00113EC8  5  01 00 00 C8 3E 
   375)     10508.9  Rx     0001071A  7  01 00 00 0F 03 1A 07 
   376)     10509.1  Rx     0011071A  5  01 00 00 1A 07 
   377)     10513.9  Rx     0001E691  7  01 00 00 0F 03 91 E6 
   378)     10514.1  Rx     0011E691  5  01 00 00 91 E6 
   379)     10519.0  Rx     00010FAA  7  01 00 00 0F 03 AA 0F 
   380)     10519.1  Rx     00110FAA  5  01 00 00 AA 0F 
   381)     10524.0  Rx     00014F0D  7  01 00 00 0F 03 0D 4F 
   382)     10524.0  Rx     00114F0D  5  01 00 00 0D 4F 
   383)     10529.0  Rx     0001DDC1  7  01 00 00 0F 03 C1 DD 
   384)     10529.1  Rx     0011DDC1  5  01 00 00 C1 DD 
   385)     10533.9  Rx     0001114C  7  01 00 00 0F 03 4C 11 
   386)     10534.1  Rx     0011114C  5  01 00 00 4C 11 
   387)     10538.9  Rx     00010972  7  01 00 00 0F 03 72 09 
   388)     10539.1  Rx     00110972  5  01 00 00 72 09 
   389)     10544.0  Rx     000128AE  7  01 00 00 0F 03 AE 28 
   390)     10544.1  Rx     001128AE  5  01 00 00 AE 28 
   391)     10549.0  Rx     00018FCC  7  01 00 00 0F 03 CC 8F 
   392)     10549.0  Rx     00118FCC  5  01 00 00 CC 8F 
   393)     10554.0  Rx     00016D9D  7  01 00 00 0F 03 9D 6D 
   394)     10554.0  Rx     00116D9D  5  01 00 00 9D 6D 
   395)     10558.9  Rx     0001E28D  7  01 00 00 0F 03 8D E2 
   396)     10559.1  Rx     0011E28D  5  01 00 00 8D E2 
   397)     10563.9  Rx     0001294B  7  01 00 00 0F 03 4B 29 
   398)     10564.1  Rx     0011294B  5  01 00 00 4B 29 
   399)     10568.9  Rx     0001C14C  7  01 00 00 0F 03 4C C1 
   400)     10569.1  Rx     0011C14C  5  01 00 00 4C C1 
   401)     10574.0  Rx     0001F692  7  01 00 00 0F 03 92 F6 
   402)     10574.0  Rx     0011F692  5  01 00 00 92 F6 
   403)     10579.0  Rx     0001705C  7  01 00 00 0F 03 5C 70 
   404)     10579.0  Rx     0011705C  5  01 00 00 5C 70 
   405)     10583.9  Rx     0001E2DC  7  01 00 00 0F 03 DC E2 
   406)     10584.1  Rx     0011E2DC  5  01 00 00 DC E2 
   407)     10588.9  Rx     0001077D  7  01 00 00 0F 03 7D 07 
   408)     10589.1  Rx     0011077D  5  01 00 00 7D 07 
   409)     10593.9  Rx     000126BF  7  01 00 00 0F 03 BF 26 
   410)     10594.1  Rx     001126BF  5  01 00 00 BF 26 
   411)     10598.9  Rx     00015A1A  7  01 00 00 0F 03 1A 5A 
   412)     10599.1  Rx     00115A1A  5  01 00 00 1A 5A 
   413)     10604.0  Rx     000168B8  7  01 00 00 0F 03 B8 68 
   414)     10604.0  Rx     001168B8  5  01 00 00 B8 68 
   415)     10608.9  Rx     0001589A  7  01 00 00 0F 03 9A 58 
   416)     10609.1  Rx     0011589A  5  01 00 00 9A 58 
   417)     10613.9  Rx     0001C520  7  01 00 00 0F 03 20 C5 
   418)     10614.1  Rx     0011C520  5  01 00 00 20 C5 
   419)     10618.9  Rx     00011E15  7  01 00 00 0F 03 15 1E 
   420)     10619.1  Rx     00111E15  5  01 00 00 15 1E 
   421)     10623.9  Rx     0001B159  7  01 00 00 0F 03 59 B1 
   422)     10624.1  Rx     0011B159  5  01 00 00 59 B1 
   423)     10629.0  Rx     0001BF6D  7  01 00 00 0F 03 6D BF 
   424)     10629.0  Rx     0011BF6D  5  01 00 00 6D BF 
   425)     10634.0  Rx     0001C4BE  7  01 00 00 0F 03 BE C4 
   426)     10634.0  Rx     0011C4BE  5  01 00 00 BE C4 
   427)     10638.9  Rx     0001249B  7  01 00 00 0F 03 9B 24 
   428)     10639.1  Rx     0011249B  5  01 00 00 9B 24 
   429)     10643.9  Rx     0001D0E0  7  01 00 00 0F 03 E0 D0 
   430)     10644.1  Rx     0011D0E0  5  01 00 00 E0 D0 
   431)     10648.9  Rx     0001CEA8  7  01 00 00 0F 03 A8 CE 
   432)     10649.1  Rx     0011CEA8  5  01 00 00 A8 CE 
   433)     10653.9  Rx     0001FF13  7  01 00 00 0F 03 13 FF 
   434)     10654.0  Rx     0011FF13  5  01 00 00 13 FF 
   435)     10659.0  Rx     0001D8B4  7  01 00 00 0F 03 B4 D8 
   436)     10659.0  Rx     0011D8B4  5  01 00 00 B4 D8 
   437)     10663.9  Rx     00015C59  7  01 00 00 0F 03 59 5C 
   438)     10664.0  Rx     00115C59  5  01 00 00 59 5C 
   439)     10668.9  Rx     00013FF6  7  01 00 00 0F 03 F6 3F 
   440)     10669.1  Rx     00113FF6  5  01 00 00 F6 3F 
   441)     10673.9  Rx     0001012E  7  01 00 00 0F 03 2E 01 
   442)     10674.1  Rx     0011012E  5  01 00 00 2E 01 
   443)     10678.9  Rx     0001A694  7  01 00 00 0F 03 94 A6 
   444)     10679.0  Rx     0011A694  5  01 00 00 94 A6 
   445)     10684.0  Rx     0001A5BE  7  01 00 00 0F 03 BE A5 
   446)     10684.0  Rx     0011A5BE  5  01 00 00 BE A5 
   447)     10688.9  Rx     00017ECF  7  01 00 00 0F 03 CF 7E 
   448)     10689.0  Rx     00117ECF  5  01 00 00 CF 7E 
   449)     10693.9  Rx     0001FF95  7  01 00 00 0F 03 95 FF 
   450)     10694.1  Rx     0011FF95  5  01 00 00 95 FF 
   451)     10698.9  Rx     000117CE  7  01 00 00 0F 03 CE 17 
   452)     10699.1  Rx     001117CE  5  01 00 00 CE 17 
   453)     10703.9  Rx     000114BD  7  01 00 00 0F 03 BD 14 
   454)     10704.1  Rx     001114BD  5  01 00 00 BD 14 
   455)     10708.9  Rx     00013B0F  7  01 00 00 0F 03 0F 3B 
   456)     10709.0  Rx     00113B0F  5  01 00 00 0F 3B 
   457)     10713.9  Rx     000174ED  7  01 00 00 0F 03 ED 74 
   458)     10714.0  Rx     001174ED  5  01 00 00 ED 74 
   459)     10718.9  Rx     0001E548  7  01 00 00 0F 03 48 E5 
   460)     10719.0  Rx     0011E548  5  01 00 00 48 E5 
   461)     10723.9  Rx     00018838  7  01 00 00 0F 03 38 88 
   462)     10724.1  Rx     00118838  5  01 00 00 38 88 
   463)     10728.9  Rx     0001F744  7  01 00 00 0F 03 44 F7 
   464)     10729.1  Rx     0011F744  5  01 00 00 44 F7 
   465)     10733.9  Rx     0001235A  7  01 00 00 0F 03 5A 23 
   466)     10734.0  Rx     0011235A  5  01 00 00 5A 23 
   467)     10739.0  Rx     000106F2  7  01 00 00 0F 03 F2 06 
   468)     10739.0  Rx     001106F2  5  01 00 00 F2 06 
   469)     10743.9  Rx     00018090  7  01 00 00 0F 03 90 80 
   470)     10744.0  Rx     00118090  5  01 00 00 90 80 
   471)     10748.9  Rx     000192C9  7  01 00 00 0F 03 C9 92 
   472)     10749.0  Rx     001192C9  5  01 00 00 C9 92 
   473)     10753.9  Rx     0001B4A6  7  01 00 00 0F 03 A6 B4 
   474)     10754.1  Rx     0011B4A6  5  01 00 00 A6 B4 
   475)     10758.9  Rx     0001AD35  7  01 00 00 0F 03 35 AD 
   476)     10759.0  Rx     0011AD35  5  01 00 00 35 AD 
   477)     10763.9  Rx     00019AA1  7  01 00 00 0F 03 A1 9A 
   478)     10764.0  Rx     00119AA1  5  01 00 00 A1 9A 
   479)     10768.9  Rx     0001EF96  7  01 00 00 0F 03 96 EF 
   480)     10769.0  Rx     0011EF96  5  01 00 00 96 EF 
   481)     10773.9  Rx     0001AD24  7  01 00 00 0F 03 24 AD 
   482)     10774.0  Rx     0011AD24  5  01 00 00 24 AD 
   483)     10778.9  Rx     0001742B  7  01 00 00 0F 03 2B 74 
   484)     10779.0  Rx     0011742B  5  01 00 00 2B 74 
   485)     10783.9  Rx     0001B38B  7  01 00 00 0F 03 8B B3 
   486)     10784.1  Rx     0011B38B  5  01 00 00 8B B3 
   487)     10788.9  Rx     000163D5  7  01 00 00 0F 03 D5 63 
   488)     10789.0  Rx     001163D5  5  01 00 00 D5 63 
   489)     10793.9  Rx     00013551  7  01 00 00 0F 03 51 35 
   490)     10794.0  Rx     00113551  5  01 00 00 51 35 
   491)     10798.9  Rx     00016493  7  01 00 00 0F 03 93 64 
   492)     10799.0  Rx     00116493  5  01 00 00 93 64 
   493)     10803.9  Rx     00016135  7  01 00 00 0F 03 35 61 
   494)     10804.0  Rx     00116135  5  01 00 00 35 61 
   495)     10808.9  Rx     00015B34  7  01 00 00 0F 03 34 5B 
   496)     10809.1  Rx     00115B34  5  01 00 00 34 5B 
   497)     10813.9  Rx     0001DA3F  7  01 00 00 0F 03 3F DA 
   498)     10814.0  Rx     0011DA3F  5  01 00 00 3F DA 
   499)     10818.9  Rx     0001FA82  7  01 00 00 0F 03 82 FA 
   500)     10819.0  Rx     0011FA82  5  01 00 00 82 FA 
   501)     10823.9  Rx     00012B92  7  01 00 00 0F 03 92 2B 
   502)     10824.0  Rx     00112B92  5  01 00 00 92 2B 
   503)     10828.9  Rx     0001E7FC  7  01 00 00 0F 03 FC E7 
   504)     10829.0  Rx     0011E7FC  5  01 00 00 FC E7 
   505)     10833.9  Rx     00016CB1  7  01 00 00 0F 03 B1 6C 
   506)     10834.0  Rx     00116CB1  5  01 00 00 B1 6C 
   507)     10838.9  Rx     000135D9  7  01 00 00 0F 03 D9 35 
   508)     10839.0  Rx     001135D9  5  01 00 00 D9 35 
   509)     10843.9  Rx     0001DAA1  7  01 00 00 0F 03 A1 DA 
   510)     10844.0  Rx     0011DAA1  5  01 00 00 A1 DA 
   511)     10848.9  Rx     00014FE4  7  01 00 00 0F 03 E4 4F 
   512)     10849.0  Rx     00114FE4  5  01 00 00 E4 4F 
   513)     10853.9  Rx     0001CF05  7  01 00 00 0F 03 05 CF 
   514)     10854.0  Rx     0011CF05  5  01 00 00 05 CF 
   515)     10858.9  Rx     0001C079  7  01 00 00 0F 03 79 C0 
   516)     10859.0  Rx     0011C079  5  01 00 00 79 C0 
   517)     10863.9  Rx     0001D535  7  01 00 00 0F 03 35 D5 
   518)     10864.0  Rx     0011D535  5  01 00 00 35 D5 
   519)     10868.9  Rx     000198A5  7  01 00 00 0F 03 A5 98 
   520)     10869.0  Rx     001198A5  5  01 00 00 A5 98 
   521)     10873.9  Rx     0001B5D5  7  01 00 00 0F 03 D5 B5 
   522)     10874.0  Rx     0011B5D5  5  01 00 00 D5 B5 
   523)     10878.9  Rx     0001EA38  7  01 00 00 0F 03 38 EA 
   524)     10879.0  Rx     0011EA38  5  01 00 00 38 EA 
   525)     10883.9  Rx     00016C78  7  01 00 00 0F 03 78 6C 
   526)     10884.0  Rx     00116C78  5  01 00 00 78 6C 
   527)     10888.9  Rx     0001204D  7  01 00 00 0F 03 4D 20 
   528)     10889.1  Rx     0011204D  5  01 00 00 4D 20 
   529)     10893.9  Rx     00019B5C  7  01 00 00 0F 03 5C 9B 
   530)     10894.0  Rx     00119B5C  5  01 00 00 5C 9B 
   531)     10898.9  Rx     0001BA91  7  01 00 00 0F 03 91 BA 
   532)     10899.0  Rx     0011BA91  5  01 00 00 91 BA 
   533)     10903.9  Rx     00012030  7  01 00 00 0F 03 30 20 
   534)     10904.0  Rx     00112030  5  01 00 00 30 20 
   535)     10908.9  Rx     00011D53  7  01 00 00 0F 03 53 1D 
   536)     10909.0  Rx     00111D53  5  01 00 00 53 1D 
   537)     10913.9  Rx     00016198  7  01 00 00 0F 03 98 61 
   538)     10914.0  Rx     00116198  5  01 00 00 98 61 
   539)     10918.9  Rx     0001041E  7  01 00 00 0F 03 1E 04 
   540)     10919.0  Rx     0011041E  5  01 00 00 1E 04 
   541)     10923.9  Rx     0001FBBF  7  01 00 00 0F 03 BF FB 
   542)     10924.0  Rx     0011FBBF  5  01 00 00 BF FB 
   543)     10928.9  Rx     0001466E  7  01 00 00 0F 03 6E 46 
   544)     10929.0  Rx     0011466E  5  01 00 00 6E 46 
   545)     10933.9  Rx     00014B33  7  01 00 00 0F 03 33 4B 
   546)     10934.0  Rx     00114B33  5  01 00 00 33 4B 
   547)     10938.9  Rx     00017DC5  7  01 00 00 0F 03 C5 7D 
   548)     10939.0  Rx     00117DC5  5  01 00 00 C5 7D 
   549)     10943.9  Rx     0001D7EB  7  01 00 00 0F 03 EB D7 
   550)     10944.0  Rx     0011D7EB  5  01 00 00 EB D7 
   551)     10948.9  Rx     00014A25  7  01 00 00 0F 03 25 4A 
   552)     10949.0  Rx     00114A25  5  01 00 00 25 4A 
   553)     10953.9  Rx     0001AB21  7  01 00 00 0F 03 21 AB 
   554)     10954.0  Rx     0011AB21  5  01 00 00 21 AB 
   555)     10958.9  Rx     0001B5B4  7  01 00 00 0F 03 B4 B5 
   556)     10959.0  Rx     0011B5B4  5  01 00 00 B4 B5 
   557)     10963.9  Rx     0001C562  7  01 00 00 0F 03 62 C5 
   558)     10964.0  Rx     0011C562  5  01 00 00 62 C5 
   559)     10968.9  Rx     00016E24  7  01 00 00 0F 03 24 6E 
   560)     10969.0  Rx     00116E24  5  01 00 00 24 6E 
   561)     10973.9  Rx     0001D309  7  01 00 00 0F 03 09 D3 
   562)     10974.0  Rx     0011D309  5  01 00 00 09 D3 
   563)     10978.9  Rx     00014E0D  7  01 00 00 0F 03 0D 4E 
   564)     10979.0  Rx     00114E0D  5  01 00 00 0D 4E 
   565)     10983.9  Rx     00013FFB  7  01 00 00 0F 03 FB 3F 
   566)     10984.0  Rx     00113FFB  5  01 00 00 FB 3F 
   567)     10988.9  Rx     00011E54  7  01 00 00 0F 03 54 1E 
   568)     10989.0  Rx     00111E54  5  01 00 00 54 1E 
   569)     10993.9  Rx     0001C464  7  01 00 00 0F 03 64 C4 
   570)     10994.0  Rx     0011C464  5  01 00 00 64 C4 
   571)     10998.9  Rx     0001E360  7  01 00 00 0F 03 60 E3 
   572)     10999.0  Rx     0011E360  5  01 00 00 60 E3 
   573)     11003.9  Rx     00018EBD  7  01 00 00 0F 03 BD 8E 
   574)     11004.0  Rx     00118EBD  5  01 00 00 BD 8E 
   575)     11008.9  Rx     000177A8  7  01 00 00 0F 03 A8 77 
   576)     11009.0  Rx     001177A8  5  01 00 00 A8 77 
   577)     11013.9  Rx     00011865  7  01 00 00 0F 03 65 18 
   578)     11014.0  Rx     00111865  5  01 00 00 65 18 
   579)     11018.9  Rx     000128DC  7  01 00 00 0F 03 DC 28 
   580)     11019.0  Rx     001128DC  5  01 00 00 DC 28 
   581)     11023.9  Rx     0001089F  7  01 00 00 0F 03 9F 08 
   582)     11024.0  Rx     0011089F  5  01 00 00 9F 08 
   583)     11028.9  Rx     0001D2B8  7  01 00 00 0F 03 B8 D2 
   584)     11029.0  Rx     0011D2B8  5  01 00 00 B8 D2 
   585)     11033.9  Rx     0001CA9E  7  01 00 00 0F 03 9E CA 
   586)     11034.0  Rx     0011CA9E  5  01 00 00 9E CA 
   587)     11038.9  Rx     00011244  7  01 00 00 0F 03 44 12 
   588)     11039.0  Rx     00111244  5  01 00 00 44 12 
   589)     11043.9  Rx     00017A14  7  01 00 00 0F 03 14 7A 
   590)     11044.0  Rx     00117A14  5  01 00 00 14 7A 
   591)     11048.9  Rx     0001660F  7  01 00 00 0F 03 0F 66 
   592)     11049.0  Rx     0011660F  5  01 00 00 0F 66 
   593)     11053.9  Rx     0001FA5F  7  01 00 00 0F 03 5F FA 
   594)     11054.0  Rx     0011FA5F  5  01 00 00 5F FA 
   595)     11058.9  Rx     0001B7A2  7  01 00 00 0F 03 A2 B7 
   596)     11059.0  Rx     0011B7A2  5  01 00 00 A2 B7 
   597)     11063.9  Rx     00015B44  7  01 00 00 0F 03 44 5B 
   598)     11064.0  Rx     00115B44  5  01 00 00 44 5B 
   599)     11068.9  Rx     0001C843  7  01 00 00 0F 03 43 C8 
   600)     11069.0  Rx     0011C843  5  01 00 00 43 C8 
   601)     11073.9  Rx     0001CEDD  7  01 00 00 0F 03 DD CE 
   602)     11074.0  Rx     0011CEDD  5  01 00 00 DD CE 
   603)     11078.9  Rx     00018ABD  7  01 00 00 0F 03 BD 8A 
   604)     11079.0  Rx     00118ABD  5  01 00 00 BD 8A 
   605)     11083.9  Rx     00012B1A  7  01 00 00 0F 03 1A 2B 
   606)     11084.0  Rx     00112B1A  5  01 00 00 1A 2B 
   607)     11088.9  Rx     000181C9  7  01 00 00 0F 03 C9 81 
   608)     11089.0  Rx     001181C9  5  01 00 00 C9 81 
   609)     11093.9  Rx     00013616  7  01 00 00 0F 03 16 36 
   610)     11094.0  Rx     00113616  5  01 00 00 16 36 
   611)     11098.9  Rx     00014E4B  7  01 00 00 0F 03 4B 4E 
   612)     11099.0  Rx     00114E4B  5  01 00 00 4B 4E 
   613)     11103.9  Rx     0001C302  7  01 00 00 0F 03 02 C3 
   614)     11104.0  Rx     0011C302  5  01 00 00 02 C3 
   615)     11108.9  Rx     00019A84  7  01 00 00 0F 03 84 9A 
   616)     11109.0  Rx     00119A84  5  01 00 00 84 9A 
   617)     11113.9  Rx     0001C676  7  01 00 00 0F 03 76 C6 
   618)     11114.0  Rx     0011C676  5  01 00 00 76 C6 
   619)     11118.9  Rx     00013AE5  7  01 00 00 0F 03 E5 3A 
   620)     11119.0  Rx     00113AE5  5  01 00 00 E5 3A 
   621)     11123.9  Rx     0001A36E  7  01 00 00 0F 03 6E A3 
   622)     11124.0  Rx     0011A36E  5  01 00 00 6E A3 
   623)     11128.9  Rx     00012F22  7  01 00 00 0F 03 22 2F 
   624)     11129.0  Rx     00112F22  5  01 00 00 22 2F 
   625)     11133.9  Rx     00018338  7  01 00 00 0F 03 38 83 
   626)     11134.0  Rx     00118338  5  01 00 00 38 83 
   627)     11138.9  Rx     0001F9BE  7  01 00 00 0F 03 BE F9 
   628)     11139.0  Rx     0011F9BE  5  01 00 00 BE F9 
   629)     11143.9  Rx     0001411D  7  01 00 00 0F 03 1D 41 
   630)     11144.0  Rx     0011411D  5  01 00 00 1D 41 
   631)     11148.9  Rx     00010626  7  01 00 00 0F 03 26 06 
   632)     11149.0  Rx     00110626  5  01 00 00 26 06 
   633)     11153.9  Rx     0001AB8C  7  01 00 00 0F 03 8C AB 
   634)     11154.0  Rx     0011AB8C  5  01 00 00 8C AB 
   635)     11158.9  Rx     0001C112  7  01 00 00 0F 03 12 C1 
   636)     11159.0  Rx     0011C112  5  01 00 00 12 C1 
   637)     11163.9  Rx     0001631A  7  01 00 00 0F 03 1A 63 
   638)     11164.0  Rx     0011631A  5  01 00 00 1A 63 
   639)     11168.9  Rx     00010CC3  7  01 00 00 0F 03 C3 0C 
   640)     11169.0  Rx     00110CC3  5  01 00 00 C3 0C 
   641)     11173.9  Rx     0001887D  7  01 00 00 0F 03 7D 88 
   642)     11174.0  Rx     0011887D  5  01 00 00 7D 88 
   643)     11178.9  Rx     00016E5F  7  01 00 00 0F 03 5F 6E 
   644)     11179.0  Rx     00116E5F  5  01 00 00 5F 6E 
   645)     11183.9  Rx     00015184  7  01 00 00 0F 03 84 51 
   646)     11184.0  Rx     00115184  5  01 00 00 84 51 
   647)     11188.9  Rx     0001036F  7  01 00 00 0F 03 6F 03 
   648)     11189.0  Rx     0011036F  5  01 00 00 6F 03 
   649)     11193.9  Rx     00015590  7  01 00 00 0F 03 90 55 
   650)     11194.0  Rx     00115590  5  01 00 00 90 55 
   651)     11198.9  Rx     00017655  7  01 00 00 0F 03 55 76 
   652)     11199.0  Rx     00117655  5  01 00 00 55 76 
   653)     11203.9  Rx     00014D12  7  01 00 00 0F 03 12 4D 
   654)     11204.0  Rx     00114D12  5  01 00 00 12 4D 
   655)     11208.9  Rx     0001EA32  7  01 00 00 0F 03 32 EA 
   656)     11209.0  Rx     0011EA32  5  01 00 00 32 EA 
   657)     11213.9  Rx     0001E02C  7  01 00 00 0F 03 2C E0 
   658)     11214.0  Rx     0011E02C  5  01 00 00 2C E0 
   659)     11218.9  Rx     0001168D  7  01 00 00 0F 03 8D 16 
   660)     11219.0  Rx     0011168D  5  01 00 00 8D 16 
   661)     11223.9  Rx     0001CF55  7  01 00 00 0F 03 55 CF 
   662)     11224.0  Rx     0011CF55  5  01 00 00 55 CF 
   663)     11228.9  Rx     0001B0C1  7  01 00 00 0F 03 C1 B0 
   664)     11229.0  Rx     0011B0C1  5  01 00 00 C1 B0 
   665)     11233.9  Rx     000195BC  7  01 00 00 0F 03 BC 95 
   666)     11234.0  Rx     001195BC  5  01 00 00 BC 95 
   667)     11238.9  Rx     000150FB  7  01 00 00 0F 03 FB 50 
   668)     11239.0  Rx     001150FB  5  01 00 00 FB 50 
   669)     11243.9  Rx     0001CBBB  7  01 00 00 0F 03 BB CB 
   670)     11244.0  Rx     0011CBBB  5  01 00 00 BB CB 
   671)     11248.9  Rx     0001BE4E  7  01 00 00 0F 03 4E BE 
   672)     11249.0  Rx     0011BE4E  5  01 00 00 4E BE 
   673)     11253.9  Rx     00011094  7  01 00 00 0F 03 94 10 
   674)     11254.0  Rx     00111094  5  01 00 00 94 10 
   675)     11258.9  Rx     00010D24  7  01 00 00 0F 03 24 0D 
   676)     11259.0  Rx     00110D24  5  01 00 00 24 0D 
   677)     11263.9  Rx     00010D57  7  01 00 00 0F 03 57 0D 
   678)     11264.0  Rx     00110D57  5  01 00 00 57 0D 
   679)     11268.9  Rx     00016D1C  7  01 00 00 0F 03 1C 6D 
   680)     11269.0  Rx     00116D1C  5  01 00 00 1C 6D 
   681)     11273.9  Rx     00012B97  7  01 00 00 0F 03 97 2B 
   682)     11274.0  Rx     00112B97  5  01 00 00 97 2B 
   683)     11278.9  Rx     00010B0F  7  01 00 00 0F 03 0F 0B 
   684)     11279.0  Rx     00110B0F  5  01 00 00 0F 0B 
   685)     11283.9  Rx     00019561  7  01 00 00 0F 03 61 95 
   686)     11284.0  Rx     00119561  5  01 00 00 61 95 
   687)     11288.9  Rx     0001B9D4  7  01 00 00 0F 03 D4 B9 
   688)     11289.0  Rx     0011B9D4  5  01 00 00 D4 B9 
   689)     11293.9  Rx     00018C94  7  01 00 00 0F 03 94 8C 
   690)     11294.0  Rx     00118C94  5  01 00 00 94 8C 
   691)     11298.9  Rx     000117FC  7  01 00 00 0F 03 FC 17 
   692)     11299.0  Rx     001117FC  5  01 00 00 FC 17 
   693)     11303.9  Rx     0001D27E  7  01 00 00 0F 03 7E D2 
   694)     11304.0  Rx     0011D27E  5  01 00 00 7E D2 
   695)     11308.9  Rx     0001BA9A  7  01 00 00 0F 03 9A BA 
   696)     11309.0  Rx     0011BA9A  5  01 00 00 9A BA 
   697)     11313.9  Rx     0001BD74  7  01 00 00 0F 03 74 BD 
   698)     11314.0  Rx     0011BD74  5  01 00 00 74 BD 
   699)     11318.9  Rx     0001FCD6  7  01 00 00 0F 03 D6 FC 
   700)     11319.0  Rx     0011FCD6  5  01 00 00 D6 FC 
   701)     11323.9  Rx     0001F4C0  7  01 00 00 0F 03 C0 F4 
   702)     11324.0  Rx     0011F4C0  5  01 00 00 C0 F4 
   703)     11328.9  Rx     000135DD  7  01 00 00 0F 03 DD 35 
   704)     11329.0  Rx     001135DD  5  01 00 00 DD 35 
   705)     11333.9  Rx     0001BC15  7  01 00 00 0F 03 15 BC 
   706)     11334.0  Rx     0011BC15  5  01 00 00 15 BC 
   707)     11338.9  Rx     0001AE68  7  01 00 00 0F 03 68 AE 
   708)     11339.0  Rx     0011AE68  5  01 00 00 68 AE 
   709)     11343.9  Rx     00014E6B  7  01 00 00 0F 03 6B 4E 
   710)     11344.0  Rx     00114E6B  5  01 00 00 6B 4E 
   711)     11348.9  Rx     000144F1  7  01 00 00 0F 03 F1 44 
   712)     11349.0  Rx     001144F1  5  01 00 00 F1 44 
   713)     11353.9  Rx     0001F4F3  7  01 00 00 0F 03 F3 F4 
   714)     11354.0  Rx     0011F4F3  5  01 00 00 F3 F4 
   715)     11358.9  Rx     00013F52  7  01 00 00 0F 03 52 3F 
   716)     11359.0  Rx     00113F52  5  01 00 00 52 3F 
   717)     11363.9  Rx     00018D7C  7  01 00 00 0F 03 7C 8D 
   718)     11364.0  Rx     00118D7C  5  01 00 00 7C 8D 
   719)     11368.9  Rx     0001C65E  7  01 00 00 0F 03 5E C6 
   720)     11369.0  Rx     0011C65E  5  01 00 00 5E C6 
   721)     11373.9  Rx     0001F48A  7  01 00 00 0F 03 8A F4 
   722)     11374.0  Rx     0011F48A  5  01 00 00 8A F4 
   723)     11378.9  Rx     0001FFB9  7  01 00 00 0F 03 B9 FF 
   724)     11379.0  Rx     0011FFB9  5  01 00 00 B9 FF 
   725)     11383.9  Rx     00011DEA  7  01 00 00 0F 03 EA 1D 
   726)     11384.0  Rx     00111DEA  5  01 00 00 EA 1D 
   727)     11388.9  Rx     0001FBF5  7  01 00 00 0F 03 F5 FB 
   728)     11389.0  Rx     0011FBF5  5  01 00 00 F5 FB 
   729)     11393.9  Rx     00015B7E  7  01 00 00 0F 03 7E 5B 
   730)     11394.0  Rx     00115B7E  5  01 00 00 7E 5B 
   731)     11398.9  Rx     000186C0  7  01 00 00 0F 03 C0 86 
   732)     11399.0  Rx     001186C0  5  01 00 00 C0 86 
   733)     11403.9  Rx     000178A9  7  01 00 00 0F 03 A9 78 
   734)     11404.0  Rx     001178A9  5  01 00 00 A9 78 
   735)     11408.9  Rx     00011CA6  7  01 00 00 0F 03 A6 1C 
   736)     11409.0  Rx     00111CA6  5  01 00 00 A6 1C 
   737)     11413.9  Rx     00018177  7  01 00 00 0F 03 77 81 
   738)     11414.0  Rx     00118177  5  01 00 00 77 81 
   739)     11418.9  Rx     0001D5B9  7  01 00 00 0F 03 B9 D5 
   740)     11419.0  Rx     0011D5B9  5  01 00 00 B9 D5 
   741)     11423.9  Rx     00015F72  7  01 00 00 0F 03 72 5F 
   742)     11424.0  Rx     00115F72  5  01 00 00 72 5F 
   743)     11428.9  Rx     0001EA13  7  01 00 00 0F 03 13 EA 
   744)     11429.0  Rx     0011EA13  5  01 00 00 13 EA 
   745)     11433.9  Rx     00016ECD  7  01 00 00 0F 03 CD 6E 
   746)     11434.0  Rx     00116ECD  5  01 00 00 CD 6E 
   747)     11438.9  Rx     00014D19  7  01 00 00 0F 03 19 4D 
   748)     11439.0  Rx     00114D19  5  01 00 00 19 4D 
   749)     11443.9  Rx     00014144  7  01 00 00 0F 03 44 41 
   750)     11444.0  Rx     00114144  5  01 00 00 44 41 
   751)     11448.9  Rx     00012DE4  7  01 00 00 0F 03 E4 2D 
   752)     11449.0  Rx     00112DE4  5  01 00 00 E4 2D 
   753)     11453.9  Rx     000190E7  7  01 00 00 0F 03 E7 90 
   754)     11454.0  Rx     001190E7  5  01 00 00 E7 90 
   755)     11458.9  Rx     0001CB30  7  01 00 00 0F 03 30 CB 
   756)     11459.0  Rx     0011CB30  5  01 00 00 30 CB 
   757)     11463.9  Rx     00018FA8  7  01 00 00 0F 03 A8 8F 
   758)     11464.0  Rx     00118FA8  5  01 00 00 A8 8F 
   759)     11468.9  Rx     00015ED7  7  01 00 00 0F 03 D7 5E 
   760)     11469.0  Rx     00115ED7  5  01 00 00 D7 5E 
   761)     11473.9  Rx     00019D62  7  01 00 00 0F 03 62 9D 
   762)     11474.0  Rx     00119D62  5  01 00 00 62 9D 
   763)     11478.9  Rx     0001B095  7  01 00 00 0F 03 95 B0 
   764)     11479.0  Rx     0011B095  5  01 00 00 95 B0 
   765)     11483.9  Rx     0001E4B7  7  01 00 00 0F 03 B7 E4 
   766)     11484.0  Rx     0011E4B7  5  01 00 00 B7 E4 
   767)     11488.9  Rx     0001159E  7  01 00 00 0F 03 9E 15 
   768)     11489.0  Rx     0011159E  5  01 00 00 9E 15 
   769)     11493.9  Rx     000153F4  7  01 00 00 0F 03 F4 53 
   770)     11494.0  Rx     001153F4  5  01 00 00 F4 53 
   771)     11498.9  Rx     00010E62  7  01 00 00 0F 03 62 0E 
   772)     11499.0  Rx     00110E62  5  01 00 00 62 0E 
   773)     11503.9  Rx     000199DC  7  01 00 00 0F 03 DC 99 
   774)     11504.0  Rx     001199DC  5  01 00 00 DC 99 
   775)     11508.9  Rx     0001C168  7  01 00 00 0F 03 68 C1 
   776)     11509.0  Rx     0011C168  5  01 00 00 68 C1 
   777)     11513.9  Rx     00014B0E  7  01 00 00 0F 03 0E 4B 
   778)     11514.0  Rx     00114B0E  5  01 00 00 0E 4B 
   779)     11518.9  Rx     00018623  7  01 00 00 0F 03 23 86 
   780)     11519.0  Rx     00118623  5  01 00 00 23 86 
   781)     11523.9  Rx     0001D359  7  01 00 00 0F 03 59 D3 
   782)     11524.0  Rx     0011D359  5  01 00 00 59 D3 
   783)     11528.9  Rx     00011C3B  7  01 00 00 0F 03 3B 1C 
   784)     11529.0  Rx     00111C3B  5  01 00 00 3B 1C 
   785)     11533.9  Rx     0001D743  7  01 00 00 0F 03 43 D7 
   786)     11534.0  Rx     0011D743  5  01 00 00 43 D7 
   787)     11538.9  Rx     0001878E  7  01 00 00 0F 03 8E 87 
   788)     11539.0  Rx     0011878E  5  01 00 00 8E 87 
   789)     11543.9  Rx     0001EC8B  7  01 00 00 0F 03 8B EC 
   790)     11544.0  Rx     0011EC8B  5  01 00 00 8B EC 
   791)     11548.9  Rx     0001C307  7  01 00 00 0F 03 07 C3 
   792)     11549.0  Rx     0011C307  5  01 00 00 07 C3 
   793)     11553.9  Rx     0001BD6A  7  01 00 00 0F 03 6A BD 
   794)     11554.0  Rx     0011BD6A  5  01 00 00 6A BD 
   795)     11558.9  Rx     000147F2  7  01 00 00 0F 03 F2 47 
   796)     11559.0  Rx     001147F2  5  01 00 00 F2 47 
   797)     11563.9  Rx     0001D4EC  7  01 00 00 0F 03 EC D4 
   798)     11564.0  Rx     0011D4EC  5  01 00 00 EC D4 
   799)     11568.9  Rx     0001C17A  7  01 00 00 0F 03 7A C1 
   800)     11569.0  Rx     0011C17A  5  01 00 00 7A C1 
   801)     11573.9  Rx     00012385  7  01 00 00 0F 03 85 23 
   802)     11574.0  Rx     00112385  5  01 00 00 85 23 
   803)     11578.9  Rx     0001D371  7  01 00 00 0F 03 71 D3 
   804)     11579.0  Rx     0011D371  5  01 00 00 71 D3 
   805)     11583.9  Rx     000151DB  7  01 00 00 0F 03 DB 51 
   806)     11584.0  Rx     001151DB  5  01 00 00 DB 51 
   807)     11588.9  Rx     00012D93  7  01 00 00 0F 03 93 2D 
   808)     11589.0  Rx     00112D93  5  01 00 00 93 2D 
   809)     11593.9  Rx     0001385F  7  01 00 00 0F 03 5F 38 
   810)     11594.0  Rx     0011385F  5  01 00 00 5F 38 
   811)     11598.9  Rx     000123EC  7  01 00 00 0F 03 EC 23 
   812)     11599.0  Rx     001123EC  5  01 00 00 EC 23 
   813)     11603.9  Rx     0001451D  7  01 00 00 0F 03 1D 45 
   814)     11604.0  Rx     0011451D  5  01 00 00 1D 45 
   815)     11608.9  Rx     0001AEF8  7  01 00 00 0F 03 F8 AE 
   816)     11609.0  Rx     0011AEF8  5  01 00 00 F8 AE 
   817)     11613.9  Rx     000131F7  7  01 00 00 0F 03 F7 31 
   818)     11614.0  Rx     001131F7  5  01 00 00 F7 31 
   819)     11618.9  Rx     000131C1  7  01 00 00 0F 03 C1 31 
   820)     11619.0  Rx     001131C1  5  01 00 00 C1 31 
   821)     11623.9  Rx     00011022  7  01 00 00 0F 03 22 10 
   822)     11624.0  Rx     00111022  5  01 00 00 22 10 
   823)     11628.9  Rx     00010E07  7  01 00 00 0F 03 07 0E 
   824)     11629.0  Rx     00110E07  5  01 00 00 07 0E 
   825)     11633.9  Rx     0001EE9F  7  01 00 00 0F 03 9F EE 
   826)     11634.0  Rx     0011EE9F  5  01 00 00 9F EE 
   827)     11638.9  Rx     00010236  7  01 00 00 0F 03 36 02 
   828)     11639.0  Rx     00110236  5  01 00 00 36 02 
   829)     11643.9  Rx     0001D808  7  01 00 00 0F 03 08 D8 
   830)     11644.0  Rx     0011D808  5  01 00 00 08 D8 
   831)     11648.9  Rx     0001C6AE  7  01 00 00 0F 03 AE C6 
   832)     11649.0  Rx     0011C6AE  5  01 00 00 AE C6 
   833)     11653.9  Rx     0001E8E3  7  01 00 00 0F 03 E3 E8 
   834)     11654.0  Rx     0011E8E3  5  01 00 00 E3 E8 
   835)     11658.9  Rx     0001A7B2  7  01 00 00 0F 03 B2 A7 
   836)     11659.0  Rx     0011A7B2  5  01 00 00 B2 A7 
   837)     11663.9  Rx     0001DE60  7  01 00 00 0F 03 60 DE 
   838)     11664.0  Rx     0011DE60  5  01 00 00 60 DE 
   839)     11668.9  Rx     000196FA  7  01 00 00 0F 03 FA 96 
   840)     11669.0  Rx     001196FA  5  01 00 00 FA 96 
   841)     11673.9  Rx     0001F62A  7  01 00 00 0F 03 2A F6 
   842)     11674.0  Rx     0011F62A  5  01 00 00 2A F6 
   843)     11678.9  Rx     00016FB1  7  01 00 00 0F 03 B1 6F 
   844)     11679.0  Rx     00116FB1  5  01 00 00 B1 6F 
   845)     11683.9  Rx     0001BEB1  7  01 00 00 0F 03 B1 BE 
   846)     11684.0  Rx     0011BEB1  5  01 00 00 B1 BE 
   847)     11688.9  Rx     00010D70  7  01 00 00 0F 03 70 0D 
   848)     11689.0  Rx     00110D70  5  01 00 00 70 0D 
   849)     11693.8  Rx     00011C1D  7  01 00 00 0F 03 1D 1C 
   850)     11694.0  Rx     00111C1D  5  01 00 00 1D 1C 
   851)     11698.9  Rx     0001D675  7  01 00 00 0F 03 75 D6 
   852)     11699.0  Rx     0011D675  5  01 00 00 75 D6 
   853)     11703.9  Rx     0001D4C0  7  01 00 00 0F 03 C0 D4 
   854)     11704.0  Rx     0011D4C0  5  01 00 00 C0 D4 
   855)     11708.9  Rx     0001271E  7  01 00 00 0F 03 1E 27 
   856)     11709.0  Rx     0011271E  5  01 00 00 1E 27 
   857)     11713.9  Rx     000160CA  7  01 00 00 0F 03 CA 60 
   858)     11714.0  Rx     001160CA  5  01 00 00 CA 60 
   859)     11718.8  Rx     0001A87C  7  01 00 00 0F 03 7C A8 
   860)     11719.0  Rx     0011A87C  5  01 00 00 7C A8 
   861)     11723.9  Rx     0001878C  7  01 00 00 0F 03 8C 87 
   862)     11724.0  Rx     0011878C  5  01 00 00 8C 87 
   863)     11728.9  Rx     0001C570  7  01 00 00 0F 03 70 C5 
   864)     11729.0  Rx     0011C570  5  01 00 00 70 C5 
   865)     11733.9  Rx     00019586  7  01 00 00 0F 03 86 95 
   866)     11734.0  Rx     00119586  5  01 00 00 86 95 
   867)     11738.9  Rx     000115B4  7  01 00 00 0F 03 B4 15 
   868)     11739.0  Rx     001115B4  5  01 00 00 B4 15 
   869)     11743.9  Rx     0001891B  7  01 00 00 0F 03 1B 89 
   870)     11744.0  Rx     0011891B  5  01 00 00 1B 89 
   871)     11748.8  Rx     00015BC2  7  01 00 00 0F 03 C2 5B 
   872)     11749.0  Rx     00115BC2  5  01 00 00 C2 5B 
   873)     11753.9  Rx     00012C96  7  01 00 00 0F 03 96 2C 
   874)     11754.0  Rx     00112C96  5  01 00 00 96 2C 
   875)     11758.9  Rx     0001A66F  7  01 00 00 0F 03 6F A6 
   876)     11759.0  Rx     0011A66F  5  01 00 00 6F A6 
   877)     11763.9  Rx     000142F6  7  01 00 00 0F 03 F6 42 
   878)     11764.0  Rx     001142F6  5  01 00 00 F6 42 
   879)     11768.9  Rx     000158B9  7  01 00 00 0F 03 B9 58 
   880)     11769.0  Rx     001158B9  5  01 00 00 B9 58 
   881)     11773.8  Rx     0001098D  7  01 00 00 0F 03 8D 09 
   882)     11774.0  Rx     0011098D  5  01 00 00 8D 09 
   883)     11778.8  Rx     00016E17  7  01 00 00 0F 03 17 6E 
   884)     11779.0  Rx     00116E17  5  01 00 00 17 6E 
   885)     11783.9  Rx     00010774  7  01 00 00 0F 03 74 07 
   886)     11784.0  Rx     00110774  5  01 00 00 74 07 
   887)     11788.9  Rx     0001EF51  7  01 00 00 0F 03 51 EF 
   888)     11788.9  Rx     0011EF51  5  01 00 00 51 EF 
   889)     11793.9  Rx     00014873  7  01 00 00 0F 03 73 48 
   890)     11794.0  Rx     00114873  5  01 00 00 73 48 
   891)     11798.8  Rx     000107A1  7  01 00 00 0F 03 A1 07 
   892)     11799.0  Rx     001107A1  5  01 00 00 A1 07 
   893)     11803.8  Rx     00016FBA  7  01 00 00 0F 03 BA 6F 
   894)     11804.0  Rx     00116FBA  5  01 00 00 BA 6F 
   895)     11808.9  Rx     00016BB5  7  01 00 00 0F 03 B5 6B 
   896)     11809.0  Rx     00116BB5  5  01 00 00 B5 6B 
   897)     11813.9  Rx     00011FA9  7  01 00 00 0F 03 A9 1F 
   898)     11814.0  Rx     00111FA9  5  01 00 00 A9 1F 
   899)     11818.9  Rx     00019FC2  7  01 00 00 0F 03 C2 9F 
   900)     11819.0  Rx     00119FC2  5  01 00 00 C2 9F 
   901)     11823.9  Rx     0001B27D  7  01 00 00 0F 03 7D B2 
   902)     11824.0  Rx     0011B27D  5  01 00 00 7D B2 
   903)     11828.8  Rx     0001DFD1  7  01 00 00 0F 03 D1 DF 
   904)     11829.0  Rx     0011DFD1  5  01 00 00 D1 DF 
   905)     11833.8  Rx     0001948E  7  01 00 00 0F 03 8E 94 
   906)     11834.0  Rx     0011948E  5  01 00 00 8E 94 
   907)     11838.9  Rx     000114E3  7  01 00 00 0F 03 E3 14 
   908)     11839.0  Rx     001114E3  5  01 00 00 E3 14 
   909)     11843.9  Rx     0001F38D  7  01 00 00 0F 03 8D F3 
   910)     11843.9  Rx     0011F38D  5  01 00 00 8D F3 
   911)     11848.9  Rx     0001BBA7  7  01 00 00 0F 03 A7 BB 
   912)     11849.0  Rx     0011BBA7  5  01 00 00 A7 BB 
   913)     11853.8  Rx     00016EE0  7  01 00 00 0F 03 E0 6E 
   914)     11854.0  Rx     00116EE0  5  01 00 00 E0 6E 
   915)     11858.8  Rx     000108D5  7  01 00 00 0F 03 D5 08 
   916)     11859.0  Rx     001108D5  5  01 00 00 D5 08 
   917)     11863.9  Rx     00017811  7  01 00 00 0F 03 11 78 
   918)     11864.0  Rx     00117811  5  01 00 00 11 78 
   919)     11868.9  Rx     00014964  7  01 00 00 0F 03 64 49 
   920)     11868.9  Rx     00114964  5  01 00 00 64 49 
   921)     11873.9  Rx     0001E2E3  7  01 00 00 0F 03 E3 E2 
   922)     11874.0  Rx     0011E2E3  5  01 00 00 E3 E2 
   923)     11878.8  Rx     0001D843  7  01 00 00 0F 03 43 D8 
   924)     11879.0  Rx     0011D843  5  01 00 00 43 D8 
   925)     11883.8  Rx     00012791  7  01 00 00 0F 03 91 27 
   926)     11884.0  Rx     00112791  5  01 00 00 91 27 
   927)     11888.8  Rx     00014D31  7  01 00 00 0F 03 31 4D 
   928)     11889.0  Rx     00114D31  5  01 00 00 31 4D 
   929)     11893.9  Rx     00017A44  7  01 00 00 0F 03 44 7A 
   930)     11894.0  Rx     00117A44  5  01 00 00 44 7A 
   931)     11898.9  Rx     0001C7EB  7  01 00 00 0F 03 EB C7 
   932)     11898.9  Rx     0011C7EB  5  01 00 00 EB C7 
   933)     11903.8  Rx     0001A5B8  7  01 00 00 0F 03 B8 A5 
   934)     11904.0  Rx     0011A5B8  5  01 00 00 B8 A5 
   935)     11908.8  Rx     000188CA  7  01 00 00 0F 03 CA 88 
   936)     11909.0  Rx     001188CA  5  01 00 00 CA 88 
   937)     11913.8  Rx     0001E7BA  7  01 00 00 0F 03 BA E7 
   938)     11914.0  Rx     0011E7BA  5  01 00 00 BA E7 
   939)     11918.9  Rx     0001FF8B  7  01 00 00 0F 03 8B FF 
   940)     11919.0  Rx     0011FF8B  5  01 00 00 8B FF 
   941)     11923.9  Rx     0001D4D6  7  01 00 00 0F 03 D6 D4 
   942)     11923.9  Rx     0011D4D6  5  01 00 00 D6 D4 
   943)     11928.9  Rx     000152CF  7  01 00 00 0F 03 CF 52 
   944)     11928.9  Rx     001152CF  5  01 00 00 CF 52 
   945)     11933.8  Rx     0001BD70  7  01 00 00 0F 03 70 BD 
   946)     11934.0  Rx     0011BD70  5  01 00 00 70 BD 
   947)     11938.8  Rx     0001A29B  7  01 00 00 0F 03 9B A2 
   948)     11939.0  Rx     0011A29B  5  01 00 00 9B A2 
   949)     11943.8  Rx     00010127  7  01 00 00 0F 03 27 01 
   950)     11944.0  Rx     00110127  5  01 00 00 27 01 
   951)     11948.9  Rx     00011DDC  7  01 00 00 0F 03 DC 1D 
   952)     11948.9  Rx     00111DDC  5  01 00 00 DC 1D 
   953)     11953.9  Rx     00015625  7  01 00 00 0F 03 25 56 
   954)     11953.9  Rx     00115625  5  01 00 00 25 56 
   955)     11958.8  Rx     0001E6BF  7  01 00 00 0F 03 BF E6 
   956)     11959.0  Rx     0011E6BF  5  01 00 00 BF E6 
   957)     11963.8  Rx     000140D5  7  01 00 00 0F 03 D5 40 
   958)     11964.0  Rx     001140D5  5  01 00 00 D5 40 
   959)     11968.8  Rx     00011F5A  7  01 00 00 0F 03 5A 1F 
   960)     11969.0  Rx     00111F5A  5  01 00 00 5A 1F 
   961)     11973.8  Rx     0001990F  7  01 00 00 0F 03 0F 99 
   962)     11973.9  Rx     0011990F  5  01 00 00 0F 99 
   963)     11978.9  Rx     000113FA  7  01 00 00 0F 03 FA 13 
   964)     11978.9  Rx     001113FA  5  01 00 00 FA 13 
   965)     11983.8  Rx     0001BCBD  7  01 00 00 0F 03 BD BC 
   966)     11983.9  Rx     0011BCBD  5  01 00 00 BD BC 
   967)     11988.8  Rx     0001BE13  7  01 00 00 0F 03 13 BE 
   968)     11989.0  Rx     0011BE13  5  01 00 00 13 BE 
   969)     11993.8  Rx     0001CC83  7  01 00 00 0F 03 83 CC 
   970)     11994.0  Rx     0011CC83  5  01 00 00 83 CC 
   971)     11998.8  Rx     0001A2A2  7  01 00 00 0F 03 A2 A2 
   972)     11999.0  Rx     0011A2A2  5  01 00 00 A2 A2 
   973)     12003.9  Rx     00010DF3  7  01 00 00 0F 03 F3 0D 
   974)     12003.9  Rx     00110DF3  5  01 00 00 F3 0D 
   975)     12008.9  Rx     00014087  7  01 00 00 0F 03 87 40 
   976)     12008.9  Rx     00114087  5  01 00 00 87 40 
   977)     12013.8  Rx     00016B56  7  01 00 00 0F 03 56 6B 
   978)     12014.0  Rx     00116B56  5  01 00 00 56 6B 
   979)     12018.8  Rx     00014317  7  01 00 00 0F 03 17 43 
   980)     12019.0  Rx     00114317  5  01 00 00 17 43 
   981)     12023.8  Rx     00017806  7  01 00 00 0F 03 06 78 
   982)     12024.0  Rx     00117806  5  01 00 00 06 78 
   983)     12028.8  Rx     00014EFF  7  01 00 00 0F 03 FF 4E 
   984)     12028.9  Rx     00114EFF  5  01 00 00 FF 4E 
   985)     12033.9  Rx     0001DD00  7  01 00 00 0F 03 00 DD 
   986)     12033.9  Rx     0011DD00  5  01 00 00 00 DD 
   987)     12038.8  Rx     0001EF32  7  01 00 00 0F 03 32 EF 
   988)     12038.9  Rx     0011EF32  5  01 00 00 32 EF 
   989)     12043.8  Rx     00015004  7  01 00 00 0F 03 04 50 
   990)     12044.0  Rx     00115004  5  01 00 00 04 50 
   991)     12048.8  Rx     00017965  7  01 00 00 0F 03 65 79 
   992)     12049.0  Rx     00117965  5  01 00 00 65 79 
   993)     12053.8  Rx     00017085  7  01 00 00 0F 03 85 70 
   994)     12053.9  Rx     00117085  5  01 00 00 85 70 
   995)     12058.9  Rx     0001057D  7  01 00 00 0F 03 7D 05 
   996)     12058.9  Rx     0011057D  5  01 00 00 7D 05 
   997)     12063.8  Rx     0001443C  7  01 00 00 0F 03 3C 44 
   998)     12063.9  Rx     0011443C  5  01 00 00 3C 44 
   999)     12068.8  Rx     0001E0D1  7  01 00 00 0F 03 D1 E0 
  1000)     12069.0  Rx     0011E0D1  5  01 00 00 D1 E0 
  1001)     12073.8  Rx     00010213  7  01 00 00 0F 03 13 02 
  1002)     12074.0  Rx     00110213  5  01 00 00 13 02 
  1003)     12078.8  Rx     00014227  7  01 00 00 0F 03 27 42 
  1004)     12079.0  Rx     00114227  5  01 00 00 27 42 
  1005)     12083.8  Rx     0001A0C5  7  01 00 00 0F 03 C5 A0 
  1006)     12083.9  Rx     0011A0C5  5  01 00 00 C5 A0 
  1007)     12088.8  Rx     0001B0E2  7  01 00 00 0F 03 E2 B0 
  1008)     12088.9  Rx     0011B0E2  5  01 00 00 E2 B0 
  1009)     12093.8  Rx     0001E769  7  01 00 00 0F 03 69 E7 
  1010)     12093.9  Rx     0011E769  5  01 00 00 69 E7 
  1011)     12098.8  Rx     0001E9B5  7  01 00 00 0F 03 B5 E9 
  1012)     12099.0  Rx     0011E9B5  5  01 00 00 B5 E9 
  1013)     12103.8  Rx     0001ACC1  7  01 00 00 0F 03 C1 AC 
  1014)     12104.0  Rx     0011ACC1  5  01 00 00 C1 AC 
  1015)     12108.8  Rx     0001BCD2  7  01 00 00 0F 03 D2 BC 
  1016)     12108.9  Rx     0011BCD2  5  01 00 00 D2 BC 
  1017)     12113.8  Rx     0001AEFE  7  01 00 00 0F 03 FE AE 
  1018)     12113.9  Rx     0011AEFE  5  01 00 00 FE AE 
  1019)     12118.8  Rx     0001BD78  7  01 00 00 0F 03 78 BD 
  1020)     12118.9  Rx     0011BD78  5  01 00 00 78 BD 
  1021)     12123.8  Rx     0001F061  7  01 00 00 0F 03 61 F0 
  1022)     12124.0  Rx     0011F061  5  01 00 00 61 F0 
  1023)     12128.8  Rx     00010447  7  01 00 00 0F 03 47 04 
  1024)     12129.0  Rx     00110447  5  01 00 00 47 04 
  1025)     12133.8  Rx     0001F5DD  7  01 00 00 0F 03 DD F5 
  1026)     12133.9  Rx     0011F5DD  5  01 00 00 DD F5 
  1027)     12138.8  Rx     000121C1  7  01 00 00 0F 03 C1 21 
  1028)     12138.9  Rx     001121C1  5  01 00 00 C1 21 
  1029)     12143.8  Rx     00019BA7  7  01 00 00 0F 03 A7 9B 
  1030)     12143.9  Rx     00119BA7  5  01 00 00 A7 9B 
  1031)     12148.8  Rx     000157E9  7  01 00 00 0F 03 E9 57 
  1032)     12148.9  Rx     001157E9  5  01 00 00 E9 57 
  1033)     12153.8  Rx     00013851  7  01 00 00 0F 03 51 38 
  1034)     12153.9  Rx     00113851  5  01 00 00 51 38 
  1035)     12158.8  Rx     000129D5  7  01 00 00 0F 03 D5 29 
  1036)     12158.9  Rx     001129D5  5  01 00 00 D5 29 
  1037)     12163.8  Rx     0001ADED  7  01 00 00 0F 03 ED AD 
  1038)     12163.9  Rx     0011ADED  5  01 00 00 ED AD 
  1039)     12168.8  Rx     0001C5B7  7  01 00 00 0F 03 B7 C5 
  1040)     12168.9  Rx     0011C5B7  5  01 00 00 B7 C5 
  1041)     12173.8  Rx     0001AD45  7  01 00 00 0F 03 45 AD 
  1042)     12173.9  Rx     0011AD45  5  01 00 00 45 AD 
  1043)     12178.8  Rx     00019DA2  7  01 00 00 0F 03 A2 9D 
  1044)     12178.9  Rx     00119DA2  5  01 00 00 A2 9D 
  1045)     12183.8  Rx     00017228  7  01 00 00 0F 03 28 72 
  1046)     12184.0  Rx     00117228  5  01 00 00 28 72 
  1047)     12188.8  Rx     00014D19  7  01 00 00 0F 03 19 4D 
  1048)     12188.9  Rx     00114D19  5  01 00 00 19 4D 
  1049)     12193.8  Rx     0001F867  7  01 00 00 0F 03 67 F8 
  1050)     12193.9  Rx     0011F867  5  01 00 00 67 F8 
  1051)     12198.8  Rx     00010D2E  7  01 00 00 0F 03 2E 0D 
  1052)     12198.9  Rx     00110D2E  5  01 00 00 2E 0D 
  1053)     12203.8  Rx     0001B3EC  7  01 00 00 0F 03 EC B3 
  1054)     12203.9  Rx     0011B3EC  5  01 00 00 EC B3 
  1055)     12208.8  Rx     000166B4  7  01 00 00 0F 03 B4 66 
  1056)     12209.0  Rx     001166B4  5  01 00 00 B4 66 
  1057)     12213.8  Rx     00011B11  7  01 00 00 0F 03 11 1B 
  1058)     12213.9  Rx     00111B11  5  01 00 00 11 1B 
  1059)     12218.8  Rx     0001EDD3  7  01 00 00 0F 03 D3 ED 
  1060)     12218.9  Rx     0011EDD3  5  01 00 00 D3 ED 
  1061)     12223.8  Rx     0001092E  7  01 00 00 0F 03 2E 09 
  1062)     12223.9  Rx     0011092E  5  01 00 00 2E 09 
  1063)     12228.8  Rx     00017C00  7  01 00 00 0F 03 00 7C 
  1064)     12228.9  Rx     00117C00  5  01 00 00 00 7C 
  1065)     12233.8  Rx     000127E8  7  01 00 00 0F 04 E8 27 
  1066)     12233.9  Rx     001127E8  5  01 00 00 E8 27 
  1067)     12238.8  Rx     0001992B  7  01 00 00 0F 03 2B 99 
  1068)     12238.9  Rx     0011992B  5  01 00 00 2B 99 
  1069)     12243.8  Rx     000144CB  7  01 00 00 0F 03 CB 44 
  1070)     12243.9  Rx     001144CB  5  01 00 00 CB 44 
  1071)     12248.8  Rx     00019E9A  7  01 00 00 0F 03 9A 9E 
  1072)     12248.9  Rx     00119E9A  5  01 00 00 9A 9E 
  1073)     12253.8  Rx     00012D40  7  01 00 00 0F 03 40 2D 
  1074)     12253.9  Rx     00112D40  5  01 00 00 40 2D 
  1075)     12258.8  Rx     000161CB  7  01 00 00 0F 03 CB 61 
  1076)     12258.9  Rx     001161CB  5  01 00 00 CB 61 
  1077)     12263.8  Rx     0001A1CC  7  01 00 00 0F 03 CC A1 
  1078)     12263.9  Rx     0011A1CC  5  01 00 00 CC A1 
  1079)     12268.8  Rx     0001EB59  7  01 00 00 0F 03 59 EB 
  1080)     12268.9  Rx     0011EB59  5  01 00 00 59 EB 
  1081)     12273.8  Rx     0001F246  7  01 00 00 0F 03 46 F2 
  1082)     12273.9  Rx     0011F246  5  01 00 00 46 F2 
  1083)     12278.8  Rx     0001ADB2  7  01 00 00 0F 03 B2 AD 
  1084)     12278.9  Rx     0011ADB2  5  01 00 00 B2 AD 
  1085)     12283.8  Rx     00012766  7  01 00 00 0F 03 66 27 
  1086)     12283.9  Rx     00112766  5  01 00 00 66 27 
  1087)     12288.8  Rx     00014122  7  01 00 00 0F 03 22 41 
  1088)     12288.9  Rx     00114122  5  01 00 00 22 41 
  1089)     12293.8  Rx     0001D2DB  7  01 00 00 0F 03 DB D2 
  1090)     12293.9  Rx     0011D2DB  5  01 00 00 DB D2 
  1091)     12298.8  Rx     0001F27F  7  01 00 00 0F 03 7F F2 
  1092)     12298.9  Rx     0011F27F  5  01 00 00 7F F2 
  1093)     12303.8  Rx     0001EDC3  7  01 00 00 0F 03 C3 ED 
  1094)     12303.9  Rx     0011EDC3  5  01 00 00 C3 ED 
  1095)     12308.8  Rx     0001C37B  7  01 00 00 0F 03 7B C3 
  1096)     12308.9  Rx     0011C37B  5  01 00 00 7B C3 
  1097)     12313.8  Rx     00017E40  7  01 00 00 0F 03 40 7E 
  1098)     12313.9  Rx     00117E40  5  01 00 00 40 7E 
  1099)     12318.8  Rx     0001D765  7  01 00 00 0F 03 65 D7 
  1100)     12318.9  Rx     0011D765  5  01 00 00 65 D7 
  1101)     12323.8  Rx     00017B82  7  01 00 00 0F 03 82 7B 
  1102)     12323.9  Rx     00117B82  5  01 00 00 82 7B 
  1103)     12328.8  Rx     000160E1  7  01 00 00 0F 03 E1 60 
  1104)     12328.9  Rx     001160E1  5  01 00 00 E1 60 
  1105)     12333.8  Rx     0001D875  7  01 00 00 0F 03 75 D8 
  1106)     12333.9  Rx     0011D875  5  01 00 00 75 D8 
  1107)     12338.8  Rx     00013CDE  7  01 00 00 0F 03 DE 3C 
  1108)     12338.9  Rx     00113CDE  5  01 00 00 DE 3C 
  1109)     12343.8  Rx     00010BFE  7  01 00 00 0F 03 FE 0B 
  1110)     12343.9  Rx     00110BFE  5  01 00 00 FE 0B 
  1111)     12348.8  Rx     000170D8  7  01 00 00 0F 03 D8 70 
  1112)     12348.9  Rx     001170D8  5  01 00 00 D8 70 
  1113)     12353.8  Rx     0001D261  7  01 00 00 0F 03 61 D2 
  1114)     12353.9  Rx     0011D261  5  01 00 00 61 D2 
  1115)     12358.8  Rx     00015621  7  01 00 00 0F 03 21 56 
  1116)     12358.9  Rx     00115621  5  01 00 00 21 56 
  1117)     12363.8  Rx     0001E251  7  01 00 00 0F 03 51 E2 
  1118)     12363.9  Rx     0011E251  5  01 00 00 51 E2 
  1119)     12368.8  Rx     000139C6  7  01 00 00 0F 03 C6 39 
  1120)     12368.9  Rx     001139C6  5  01 00 00 C6 39 
  1121)     12373.8  Rx     000110B2  7  01 00 00 0F 03 B2 10 
  1122)     12373.9  Rx     001110B2  5  01 00 00 B2 10 
  1123)     12378.8  Rx     0001A454  7  01 00 00 0F 03 54 A4 
  1124)     12378.9  Rx     0011A454  5  01 00 00 54 A4 
  1125)     12383.8  Rx     00019116  7  01 00 00 0F 03 16 91 
  1126)     12383.9  Rx     00119116  5  01 00 00 16 91 
  1127)     12388.8  Rx     0001867F  7  01 00 00 0F 03 7F 86 
  1128)     12388.9  Rx     0011867F  5  01 00 00 7F 86 
  1129)     12393.8  Rx     0001F182  7  01 00 00 0F 03 82 F1 
  1130)     12393.9  Rx     0011F182  5  01 00 00 82 F1 
  1131)     12398.8  Rx     00012380  7  01 00 00 0F 03 80 23 
  1132)     12398.9  Rx     00112380  5  01 00 00 80 23 
  1133)     12403.8  Rx     000162F1  7  01 00 00 0F 03 F1 62 
  1134)     12403.9  Rx     001162F1  5  01 00 00 F1 62 
  1135)     12408.8  Rx     0001339F  7  01 00 00 0F 03 9F 33 
  1136)     12408.9  Rx     0011339F  5  01 00 00 9F 33 
  1137)     12413.8  Rx     00012CBD  7  01 00 00 0F 03 BD 2C 
  1138)     12413.9  Rx     00112CBD  5  01 00 00 BD 2C 
  1139)     12418.8  Rx     00013148  7  01 00 00 0F 03 48 31 
  1140)     12418.9  Rx     00113148  5  01 00 00 48 31 
  1141)     12423.8  Rx     000183CF  7  01 00 00 0F 03 CF 83 
  1142)     12423.9  Rx     001183CF  5  01 00 00 CF 83 
  1143)     12428.8  Rx     0001C49B  7  01 00 00 0F 03 9B C4 
  1144)     12428.9  Rx     0011C49B  5  01 00 00 9B C4 
  1145)     12433.8  Rx     0001C744  7  01 00 00 0F 03 44 C7 
  1146)     12433.9  Rx     0011C744  5  01 00 00 44 C7 
  1147)     12438.8  Rx     0001D558  7  01 00 00 0F 03 58 D5 
  1148)     12438.9  Rx     0011D558  5  01 00 00 58 D5 
  1149)     12443.8  Rx     000176ED  7  01 00 00 0F 03 ED 76 
  1150)     12443.9  Rx     001176ED  5  01 00 00 ED 76 
  1151)     12448.8  Rx     0001EC95  7  01 00 00 0F 03 95 EC 
  1152)     12448.9  Rx     0011EC95  5  01 00 00 95 EC 
  1153)     12453.8  Rx     0001D0D0  7  01 00 00 0F 03 D0 D0 
  1154)     12453.9  Rx     0011D0D0  5  01 00 00 D0 D0 
  1155)     12458.8  Rx     00019B9D  7  01 00 00 0F 03 9D 9B 
  1156)     12458.9  Rx     00119B9D  5  01 00 00 9D 9B 
  1157)     12463.8  Rx     00015199  7  01 00 00 0F 03 99 51 
  1158)     12463.9  Rx     00115199  5  01 00 00 99 51 
  1159)     12468.8  Rx     00012AF1  7  01 00 00 0F 03 F1 2A 
  1160)     12468.9  Rx     00112AF1  5  01 00 00 F1 2A 
  1161)     12473.8  Rx     00013497  7  01 00 00 0F 03 97 34 
  1162)     12473.9  Rx     00113497  5  01 00 00 97 34 
  1163)     12478.8  Rx     0001C039  7  01 00 00 0F 03 39 C0 
  1164)     12478.9  Rx     0011C039  5  01 00 00 39 C0 
  1165)     12483.8  Rx     00010EBA  7  01 00 00 0F 03 BA 0E 
  1166)     12483.9  Rx     00110EBA  5  01 00 00 BA 0E 
  1167)     12488.8  Rx     00013BAB  7  01 00 00 0F 03 AB 3B 
  1168)     12488.9  Rx     00113BAB  5  01 00 00 AB 3B 
  1169)     12493.8  Rx     000190B0  7  01 00 00 0F 03 B0 90 
  1170)     12493.9  Rx     001190B0  5  01 00 00 B0 90 
  1171)     12498.8  Rx     00014534  7  01 00 00 0F 03 34 45 
  1172)     12498.9  Rx     00114534  5  01 00 00 34 45 
  1173)     12503.8  Rx     0001DF10  7  01 00 00 0F 03 10 DF 
  1174)     12503.9  Rx     0011DF10  5  01 00 00 10 DF 
  1175)     12508.8  Rx     0001CF66  7  01 00 00 0F 03 66 CF 
  1176)     12508.9  Rx     0011CF66  5  01 00 00 66 CF 
  1177)     12513.8  Rx     00010836  7  01 00 00 0F 03 36 08 
  1178)     12513.9  Rx     00110836  5  01 00 00 36 08 
  1179)     12518.8  Rx     0001E9F3  7  01 00 00 0F 03 F3 E9 
  1180)     12518.9  Rx     0011E9F3  5  01 00 00 F3 E9 
  1181)     12523.8  Rx     00017E3B  7  01 00 00 0F 03 3B 7E 
  1182)     12523.9  Rx     00117E3B  5  01 00 00 3B 7E 
  1183)     12528.8  Rx     00010B43  7  01 00 00 0F 03 43 0B 
  1184)     12528.9  Rx     00110B43  5  01 00 00 43 0B 
  1185)     12533.8  Rx     0001FC2E  7  01 00 00 0F 03 2E FC 
  1186)     12533.9  Rx     0011FC2E  5  01 00 00 2E FC 
  1187)     12538.8  Rx     00014C68  7  01 00 00 0F 03 68 4C 
  1188)     12538.9  Rx     00114C68  5  01 00 00 68 4C 
  1189)     12543.8  Rx     00017C7C  7  01 00 00 0F 03 7C 7C 
  1190)     12543.9  Rx     00117C7C  5  01 00 00 7C 7C 
  1191)     12548.8  Rx     00011076  7  01 00 00 0F 03 76 10 
  1192)     12548.9  Rx     00111076  5  01 00 00 76 10 
  1193)     12553.8  Rx     0001FF28  7  01 00 00 0F 03 28 FF 
  1194)     12553.9  Rx     0011FF28  5  01 00 00 28 FF 
  1195)     12558.8  Rx     0001F80D  7  01 00 00 0F 03 0D F8 
  1196)     12558.9  Rx     0011F80D  5  01 00 00 0D F8 
  1197)     12563.8  Rx     0001913E  7  01 00 00 0F 03 3E 91 
  1198)     12563.9  Rx     0011913E  5  01 00 00 3E 91 
  1199)     12568.8  Rx     00019799  7  01 00 00 0F 03 99 97 
  1200)     12568.9  Rx     00119799  5  01 00 00 99 97 
  1201)     12573.8  Rx     000187A7  7  01 00 00 0F 03 A7 87 
  1202)     12573.9  Rx     001187A7  5  01 00 00 A7 87 
  1203)     12578.8  Rx     00017A91  7  01 00 00 0F 03 91 7A 
  1204)     12578.9  Rx     00117A91  5  01 00 00 91 7A 
  1205)     12583.8  Rx     0001F252  7  01 00 00 0F 03 52 F2 
  1206)     12583.9  Rx     0011F252  5  01 00 00 52 F2 
  1207)     12588.8  Rx     000173BE  7  01 00 00 0F 03 BE 73 
  1208)     12588.9  Rx     001173BE  5  01 00 00 BE 73 
  1209)     12593.8  Rx     0001C941  7  01 00 00 0F 03 41 C9 
  1210)     12593.9  Rx     0011C941  5  01 00 00 41 C9 
  1211)     12598.8  Rx     0001564F  7  01 00 00 0F 03 4F 56 
  1212)     12598.9  Rx     0011564F  5  01 00 00 4F 56 
  1213)     12603.8  Rx     00018BFC  7  01 00 00 0F 03 FC 8B 
  1214)     12603.9  Rx     00118BFC  5  01 00 00 FC 8B 
  1215)     12608.8  Rx     00013146  7  01 00 00 0F 03 46 31 
  1216)     12608.9  Rx     00113146  5  01 00 00 46 31 
  1217)     12613.8  Rx     00019085  7  01 00 00 0F 03 85 90 
  1218)     12613.9  Rx     00119085  5  01 00 00 85 90 
  1219)     12618.8  Rx     00014282  7  01 00 00 0F 03 82 42 
  1220)     12618.9  Rx     00114282  5  01 00 00 82 42 
  1221)     12623.8  Rx     000169B1  7  01 00 00 0F 03 B1 69 
  1222)     12623.9  Rx     001169B1  5  01 00 00 B1 69 
  1223)     12628.8  Rx     0001A073  7  01 00 00 0F 03 73 A0 
  1224)     12628.9  Rx     0011A073  5  01 00 00 73 A0 
  1225)     12633.8  Rx     0001019F  7  01 00 00 0F 03 9F 01 
  1226)     12633.9  Rx     0011019F  5  01 00 00 9F 01 
  1227)     12638.8  Rx     00010D3A  7  01 00 00 0F 03 3A 0D 
  1228)     12638.9  Rx     00110D3A  5  01 00 00 3A 0D 
  1229)     12643.8  Rx     0001079D  7  01 00 00 0F 03 9D 07 
  1230)     12643.9  Rx     0011079D  5  01 00 00 9D 07 
  1231)     12648.7  Rx     00016BBE  7  01 00 00 0F 03 BE 6B 
  1232)     12648.9  Rx     00116BBE  5  01 00 00 BE 6B 
  1233)     12653.8  Rx     000175BC  7  01 00 00 0F 03 BC 75 
  1234)     12653.9  Rx     001175BC  5  01 00 00 BC 75 
  1235)     12658.8  Rx     0001D30C  7  01 00 00 0F 03 0C D3 
  1236)     12658.9  Rx     0011D30C  5  01 00 00 0C D3 
  1237)     12663.8  Rx     00018CE6  7  01 00 00 0F 03 E6 8C 
  1238)     12663.9  Rx     00118CE6  5  01 00 00 E6 8C 
  1239)     12668.8  Rx     00018DE9  7  01 00 00 0F 03 E9 8D 
  1240)     12668.9  Rx     00118DE9  5  01 00 00 E9 8D 
  1241)     12673.7  Rx     00013F2D  7  01 00 00 0F 03 2D 3F 
  1242)     12673.9  Rx     00113F2D  5  01 00 00 2D 3F 
  1243)     12678.8  Rx     0001E08A  7  01 00 00 0F 03 8A E0 
  1244)     12678.9  Rx     0011E08A  5  01 00 00 8A E0 
  1245)     12683.8  Rx     00012AB2  7  01 00 00 0F 03 B2 2A 
  1246)     12683.9  Rx     00112AB2  5  01 00 00 B2 2A 
  1247)     12688.8  Rx     000103D3  7  01 00 00 0F 03 D3 03 
  1248)     12688.9  Rx     001103D3  5  01 00 00 D3 03 
  1249)     12693.8  Rx     0001784E  7  01 00 00 0F 03 4E 78 
  1250)     12693.9  Rx     0011784E  5  01 00 00 4E 78 
  1251)     12698.8  Rx     0001FD78  7  01 00 00 0F 03 78 FD 
  1252)     12698.9  Rx     0011FD78  5  01 00 00 78 FD 
  1253)     12703.7  Rx     00016BE9  7  01 00 00 0F 03 E9 6B 
  1254)     12703.9  Rx     00116BE9  5  01 00 00 E9 6B 
  1255)     12708.8  Rx     0001420D  7  01 00 00 0F 03 0D 42 
  1256)     12708.9  Rx     0011420D  5  01 00 00 0D 42 
  1257)     12713.8  Rx     0001F524  7  01 00 00 0F 03 24 F5 
  1258)     12713.9  Rx     0011F524  5  01 00 00 24 F5 
  1259)     12718.8  Rx     000141BB  7  01 00 00 0F 03 BB 41 
  1260)     12718.9  Rx     001141BB  5  01 00 00 BB 41 
  1261)     12723.8  Rx     00017DB9  7  01 00 00 0F 03 B9 7D 
  1262)     12723.9  Rx     00117DB9  5  01 00 00 B9 7D 
  1263)     12728.7  Rx     0001E230  7  01 00 00 0F 03 30 E2 
  1264)     12728.9  Rx     0011E230  5  01 00 00 30 E2 
  1265)     12733.8  Rx     0001DBC7  7  01 00 00 0F 03 C7 DB 
  1266)     12733.9  Rx     0011DBC7  5  01 00 00 C7 DB 
  1267)     12738.8  Rx     00015010  7  01 00 00 0F 03 10 50 
  1268)     12738.9  Rx     00115010  5  01 00 00 10 50 
  1269)     12743.8  Rx     000188DD  7  01 00 00 0F 03 DD 88 
  1270)     12743.8  Rx     001188DD  5  01 00 00 DD 88 
  1271)     12748.8  Rx     00010BEB  7  01 00 00 0F 03 EB 0B 
  1272)     12748.9  Rx     00110BEB  5  01 00 00 EB 0B 
  1273)     12753.7  Rx     00019B85  7  01 00 00 0F 03 85 9B 
  1274)     12753.9  Rx     00119B85  5  01 00 00 85 9B 
  1275)     12758.7  Rx     00015281  7  01 00 00 0F 03 81 52 
  1276)     12758.9  Rx     00115281  5  01 00 00 81 52 
  1277)     12763.8  Rx     0001FB9D  7  01 00 00 0F 03 9D FB 
  1278)     12763.9  Rx     0011FB9D  5  01 00 00 9D FB 
  1279)     12768.8  Rx     000125DE  7  01 00 00 0F 03 DE 25 
  1280)     12768.9  Rx     001125DE  5  01 00 00 DE 25 
  1281)     12773.8  Rx     0001B2C1  7  01 00 00 0F 03 C1 B2 
  1282)     12773.9  Rx     0011B2C1  5  01 00 00 C1 B2 
  1283)     12778.7  Rx     00010497  7  01 00 00 0F 03 97 04 
  1284)     12778.9  Rx     00110497  5  01 00 00 97 04 
  1285)     12783.7  Rx     0001D494  7  01 00 00 0F 03 94 D4 
  1286)     12783.9  Rx     0011D494  5  01 00 00 94 D4 
  1287)     12788.7  Rx     00015629  7  01 00 00 0F 03 29 56 
  1288)     12788.9  Rx     00115629  5  01 00 00 29 56 
  1289)     12793.8  Rx     000187A0  7  01 00 00 0F 03 A0 87 
  1290)     12793.9  Rx     001187A0  5  01 00 00 A0 87 
  1291)     12798.8  Rx     0001DF4F  7  01 00 00 0F 03 4F DF 
  1292)     12798.9  Rx     0011DF4F  5  01 00 00 4F DF 
  1293)     12803.8  Rx     00010A34  7  01 00 00 0F 03 34 0A 
  1294)     12803.9  Rx     00110A34  5  01 00 00 34 0A 
  1295)     12808.7  Rx     00011AC3  7  01 00 00 0F 03 C3 1A 
  1296)     12808.9  Rx     00111AC3  5  01 00 00 C3 1A 
  1297)     12813.7  Rx     00012362  7  01 00 00 0F 03 62 23 
  1298)     12813.9  Rx     00112362  5  01 00 00 62 23 
  1299)     12818.8  Rx     000102CC  7  01 00 00 0F 03 CC 02 
  1300)     12818.9  Rx     001102CC  5  01 00 00 CC 02 
  1301)     12823.8  Rx     0001B709  7  01 00 00 0F 03 09 B7 
  1302)     12823.8  Rx     0011B709  5  01 00 00 09 B7 
  1303)     12828.8  Rx     0001C98A  7  01 00 00 0F 03 8A C9 
  1304)     12828.9  Rx     0011C98A  5  01 00 00 8A C9 
  1305)     12833.7  Rx     00010C90  7  01 00 00 0F 03 90 0C 
  1306)     12833.9  Rx     00110C90  5  01 00 00 90 0C 
  1307)     12838.7  Rx     000165D1  7  01 00 00 0F 03 D1 65 
  1308)     12838.9  Rx     001165D1  5  01 00 00 D1 65 
  1309)     12843.7  Rx     00018ABF  7  01 00 00 0F 03 BF 8A 
  1310)     12843.9  Rx     00118ABF  5  01 00 00 BF 8A 
  1311)     12848.8  Rx     0001381E  7  01 00 00 0F 03 1E 38 
  1312)     12848.8  Rx     0011381E  5  01 00 00 1E 38 
  1313)     12853.8  Rx     00012BD9  7  01 00 00 0F 03 D9 2B 
  1314)     12853.8  Rx     00112BD9  5  01 00 00 D9 2B 
  1315)     12858.7  Rx     0001DAEC  7  01 00 00 0F 03 EC DA 
  1316)     12858.9  Rx     0011DAEC  5  01 00 00 EC DA 
  1317)     12863.7  Rx     0001FFE4  7  01 00 00 0F 03 E4 FF 
  1318)     12863.9  Rx     0011FFE4  5  01 00 00 E4 FF 
  1319)     12868.7  Rx     00013F6C  7  01 00 00 0F 03 6C 3F 
  1320)     12868.9  Rx     00113F6C  5  01 00 00 6C 3F 
  1321)     12873.8  Rx     00016FBC  7  01 00 00 0F 03 BC 6F 
  1322)     12873.9  Rx     00116FBC  5  01 00 00 BC 6F 
  1323)     12878.8  Rx     00011F71  7  01 00 00 0F 03 71 1F 
  1324)     12878.8  Rx     00111F71  5  01 00 00 71 1F 
  1325)     12883.8  Rx     0001C26C  7  01 00 00 0F 03 6C C2 
  1326)     12883.8  Rx     0011C26C  5  01 00 00 6C C2 
  1327)     12888.7  Rx     0001370C  7  01 00 00 0F 03 0C 37 
  1328)     12888.9  Rx     0011370C  5  01 00 00 0C 37 
  1329)     12893.7  Rx     0001C6E5  7  01 00 00 0F 03 E5 C6 
  1330)     12893.9  Rx     0011C6E5  5  01 00 00 E5 C6 
  1331)     12898.7  Rx     0001DC2D  7  01 00 00 0F 03 2D DC 
  1332)     12898.9  Rx     0011DC2D  5  01 00 00 2D DC 
  1333)     12903.8  Rx     0001EEF9  7  01 00 00 0F 03 F9 EE 
  1334)     12903.8  Rx     0011EEF9  5  01 00 00 F9 EE 
  1335)     12908.8  Rx     0001B04B  7  01 00 00 0F 03 4B B0 
  1336)     12908.8  Rx     0011B04B  5  01 00 00 4B B0 
  1337)     12913.7  Rx     0001D557  7  01 00 00 0F 03 57 D5 
  1338)     12913.9  Rx     0011D557  5  01 00 00 57 D5 
  1339)     12918.7  Rx     0001E7D6  7  01 00 00 0F 03 D6 E7 
  1340)     12918.9  Rx     0011E7D6  5  01 00 00 D6 E7 
  1341)     12923.7  Rx     00016AD7  7  01 00 00 0F 03 D7 6A 
  1342)     12923.9  Rx     00116AD7  5  01 00 00 D7 6A 
  1343)     12928.7  Rx     0001E906  7  01 00 00 0F 03 06 E9 
  1344)     12928.8  Rx     0011E906  5  01 00 00 06 E9 
  1345)     12933.8  Rx     0001D44E  7  01 00 00 0F 03 4E D4 
  1346)     12933.8  Rx     0011D44E  5  01 00 00 4E D4 
  1347)     12938.7  Rx     00010743  7  01 00 00 0F 03 43 07 
  1348)     12938.9  Rx     00110743  5  01 00 00 43 07 
  1349)     12943.7  Rx     000134C9  7  01 00 00 0F 03 C9 34 
  1350)     12943.9  Rx     001134C9  5  01 00 00 C9 34 
  1351)     12948.7  Rx     00015E3B  7  01 00 00 0F 03 3B 5E 
  1352)     12948.9  Rx     00115E3B  5  01 00 00 3B 5E 
  1353)     12953.7  Rx     000160E1  7  01 00 00 0F 03 E1 60 
  1354)     12953.9  Rx     001160E1  5  01 00 00 E1 60 
  1355)     12958.8  Rx     00014B60  7  01 00 00 0F 03 60 4B 
  1356)     12958.8  Rx     00114B60  5  01 00 00 60 4B 
  1357)     12963.7  Rx     0001B685  7  01 00 00 0F 03 85 B6 
  1358)     12963.8  Rx     0011B685  5  01 00 00 85 B6 
  1359)     12968.7  Rx     00016260  7  01 00 00 0F 03 60 62 
  1360)     12968.9  Rx     00116260  5  01 00 00 60 62 
  1361)     12973.7  Rx     00013569  7  01 00 00 0F 03 69 35 
  1362)     12973.9  Rx     00113569  5  01 00 00 69 35 
  1363)     12978.7  Rx     0001F4DF  7  01 00 00 0F 03 DF F4 
  1364)     12978.9  Rx     0011F4DF  5  01 00 00 DF F4 
  1365)     12983.7  Rx     0001FEFF  7  01 00 00 0F 03 FF FE 
  1366)     12983.8  Rx     0011FEFF  5  01 00 00 FF FE 
  1367)     12988.8  Rx     0001A771  7  01 00 00 0F 03 71 A7 
  1368)     12988.8  Rx     0011A771  5  01 00 00 71 A7 
  1369)     12993.7  Rx     00011DA4  7  01 00 00 0F 03 A4 1D 
  1370)     12993.8  Rx     00111DA4  5  01 00 00 A4 1D 
  1371)     12998.7  Rx     000191AE  7  01 00 00 0F 03 AE 91 
  1372)     12998.9  Rx     001191AE  5  01 00 00 AE 91 
  1373)     13003.7  Rx     00013568  7  01 00 00 0F 03 68 35 
  1374)     13003.9  Rx     00113568  5  01 00 00 68 35 
  1375)     13008.7  Rx     0001D4CB  7  01 00 00 0F 03 CB D4 
  1376)     13008.8  Rx     0011D4CB  5  01 00 00 CB D4 
  1377)     13013.7  Rx     0001A998  7  01 00 00 0F 03 98 A9 
  1378)     13013.8  Rx     0011A998  5  01 00 00 98 A9 
  1379)     13018.7  Rx     0001042B  7  01 00 00 0F 03 2B 04 
  1380)     13018.8  Rx     0011042B  5  01 00 00 2B 04 
  1381)     13023.7  Rx     0001D4F4  7  01 00 00 0F 03 F4 D4 
  1382)     13023.8  Rx     0011D4F4  5  01 00 00 F4 D4 
  1383)     13028.7  Rx     00011CBB  7  01 00 00 0F 03 BB 1C 
  1384)     13028.9  Rx     00111CBB  5  01 00 00 BB 1C 
  1385)     13033.7  Rx     00010F38  7  01 00 00 0F 03 38 0F 
  1386)     13033.8  Rx     00110F38  5  01 00 00 38 0F 
  1387)     13038.7  Rx     0001A418  7  01 00 00 0F 03 18 A4 
  1388)     13038.8  Rx     0011A418  5  01 00 00 18 A4 
  1389)     13043.7  Rx     0001F95F  7  01 00 00 0F 03 5F F9 
  1390)     13043.8  Rx     0011F95F  5  01 00 00 5F F9 
  1391)     13048.7  Rx     0001B9D5  7  01 00 00 0F 03 D5 B9 
  1392)     13048.8  Rx     0011B9D5  5  01 00 00 D5 B9 
  1393)     13053.7  Rx     0001EAC8  7  01 00 00 0F 03 C8 EA 
  1394)     13053.9  Rx     0011EAC8  5  01 00 00 C8 EA 
  1395)     13058.7  Rx     0001414F  7  01 00 00 0F 03 4F 41 
  1396)     13058.9  Rx     0011414F  5  01 00 00 4F 41 
  1397)     13063.7  Rx     0001BC2D  7  01 00 00 0F 03 2D BC 
  1398)     13063.8  Rx     0011BC2D  5  01 00 00 2D BC 
  1399)     13068.7  Rx     00018804  7  01 00 00 0F 03 04 88 
  1400)     13068.8  Rx     00118804  5  01 00 00 04 88 
  1401)     13073.7  Rx     00011E00  7  01 00 00 0F 03 00 1E 
  1402)     13073.8  Rx     00111E00  5  01 00 00 00 1E 
  1403)     13078.7  Rx     00013035  7  01 00 00 0F 03 35 30 
  1404)     13078.8  Rx     00113035  5  01 00 00 35 30 
  1405)     13083.7  Rx     00017EB3  7  01 00 00 0F 03 B3 7E 
  1406)     13083.9  Rx     00117EB3  5  01 00 00 B3 7E 
  1407)     13088.7  Rx     0001A164  7  01 00 00 0F 03 64 A1 
  1408)     13088.8  Rx     0011A164  5  01 00 00 64 A1 
  1409)     13093.7  Rx     00019DF2  7  01 00 00 0F 03 F2 9D 
  1410)     13093.8  Rx     00119DF2  5  01 00 00 F2 9D 
  1411)     13098.7  Rx     000163EF  7  01 00 00 0F 03 EF 63 
  1412)     13098.8  Rx     001163EF  5  01 00 00 EF 63 
  1413)     13103.7  Rx     000128D8  7  01 00 00 0F 03 D8 28 
  1414)     13103.8  Rx     001128D8  5  01 00 00 D8 28 
  1415)     13108.7  Rx     0001DED1  7  01 00 00 0F 03 D1 DE 
  1416)     13108.8  Rx     0011DED1  5  01 00 00 D1 DE 
  1417)     13113.7  Rx     00012FAB  7  01 00 00 0F 03 AB 2F 
  1418)     13113.8  Rx     00112FAB  5  01 00 00 AB 2F 
  1419)     13118.7  Rx     00017A56  7  01 00 00 0F 03 56 7A 
  1420)     13118.8  Rx     00117A56  5  01 00 00 56 7A 
  1421)     13123.7  Rx     0001A49A  7  01 00 00 0F 03 9A A4 
  1422)     13123.8  Rx     0011A49A  5  01 00 00 9A A4 
  1423)     13128.7  Rx     0001603E  7  01 00 00 0F 03 3E 60 
  1424)     13128.8  Rx     0011603E  5  01 00 00 3E 60 
  1425)     13133.7  Rx     0001579A  7  01 00 00 0F 03 9A 57 
  1426)     13133.8  Rx     0011579A  5  01 00 00 9A 57 
  1427)     13138.7  Rx     0001CDAA  7  01 00 00 0F 03 AA CD 
  1428)     13138.9  Rx     0011CDAA  5  01 00 00 AA CD 
  1429)     13143.7  Rx     00010252  7  01 00 00 0F 03 52 02 
  1430)     13143.8  Rx     00110252  5  01 00 00 52 02 
  1431)     13148.7  Rx     000140C7  7  01 00 00 0F 03 C7 40 
  1432)     13148.8  Rx     001140C7  5  01 00 00 C7 40 
  1433)     13153.7  Rx     00010FB4  7  01 00 00 0F 03 B4 0F 
  1434)     13153.8  Rx     00110FB4  5  01 00 00 B4 0F 
  1435)     13158.7  Rx     00018409  7  01 00 00 0F 03 09 84 
  1436)     13158.8  Rx     00118409  5  01 00 00 09 84 
  1437)     13163.7  Rx     0001D1B7  7  01 00 00 0F 03 B7 D1 
  1438)     13163.8  Rx     0011D1B7  5  01 00 00 B7 D1 
  1439)     13168.7  Rx     0001F684  7  01 00 00 0F 03 84 F6 
  1440)     13168.8  Rx     0011F684  5  01 00 00 84 F6 
  1441)     13173.7  Rx     00019C53  7  01 00 00 0F 03 53 9C 
  1442)     13173.8  Rx     00119C53  5  01 00 00 53 9C 
  1443)     13178.7  Rx     00019C9D  7  01 00 00 0F 03 9D 9C 
  1444)     13178.8  Rx     00119C9D  5  01 00 00 9D 9C 
  1445)     13183.7  Rx     00018FA4  7  01 00 00 0F 03 A4 8F 
  1446)     13183.8  Rx     00118FA4  5  01 00 00 A4 8F 
  1447)     13188.7  Rx     00010622  7  01 00 00 0F 03 22 06 
  1448)     13188.8  Rx     00110622  5  01 00 00 22 06 
  1449)     13193.7  Rx     000177E2  7  01 00 00 0F 03 E2 77 
  1450)     13193.8  Rx     001177E2  5  01 00 00 E2 77 
  1451)     13198.7  Rx     00010297  7  01 00 00 0F 03 97 02 
  1452)     13198.8  Rx     00110297  5  01 00 00 97 02 
  1453)     13203.7  Rx     0001C898  7  01 00 00 0F 03 98 C8 
  1454)     13203.8  Rx     0011C898  5  01 00 00 98 C8 
  1455)     13208.7  Rx     00018632  7  01 00 00 0F 03 32 86 
  1456)     13208.8  Rx     00118632  5  01 00 00 32 86 
  1457)     13213.7  Rx     0001E939  7  01 00 00 0F 03 39 E9 
  1458)     13213.8  Rx     0011E939  5  01 00 00 39 E9 
  1459)     13218.7  Rx     000199DE  7  01 00 00 0F 03 DE 99 
  1460)     13218.8  Rx     001199DE  5  01 00 00 DE 99 
  1461)     13223.7  Rx     00019801  7  01 00 00 0F 03 01 98 
  1462)     13223.8  Rx     00119801  5  01 00 00 01 98 
  1463)     13228.7  Rx     0001AE3F  7  01 00 00 0F 03 3F AE 
  1464)     13228.8  Rx     0011AE3F  5  01 00 00 3F AE 
  1465)     13233.7  Rx     000118C8  7  01 00 00 0F 03 C8 18 
  1466)     13233.8  Rx     001118C8  5  01 00 00 C8 18 
  1467)     13238.7  Rx     00015586  7  01 00 00 0F 03 86 55 
  1468)     13238.8  Rx     00115586  5  01 00 00 86 55 
  1469)     13243.7  Rx     0001CC37  7  01 00 00 0F 03 37 CC 
  1470)     13243.8  Rx     0011CC37  5  01 00 00 37 CC 
  1471)     13248.7  Rx     00016DA1  7  01 00 00 0F 03 A1 6D 
  1472)     13248.8  Rx     00116DA1  5  01 00 00 A1 6D 
  1473)     13253.7  Rx     0001A075  7  01 00 00 0F 03 75 A0 
  1474)     13253.8  Rx     0011A075  5  01 00 00 75 A0 
  1475)     13258.7  Rx     00013C02  7  01 00 00 0F 03 02 3C 
  1476)     13258.8  Rx     00113C02  5  01 00 00 02 3C 
  1477)     13263.7  Rx     00015349  7  01 00 00 0F 03 49 53 
  1478)     13263.8  Rx     00115349  5  01 00 00 49 53 
  1479)     13268.7  Rx     0001F613  7  01 00 00 0F 03 13 F6 
  1480)     13268.8  Rx     0011F613  5  01 00 00 13 F6 
  1481)     13273.7  Rx     00019646  7  01 00 00 0F 03 46 96 
  1482)     13273.8  Rx     00119646  5  01 00 00 46 96 
  1483)     13278.7  Rx     00018918  7  01 00 00 0F 03 18 89 
  1484)     13278.8  Rx     00118918  5  01 00 00 18 89 
  1485)     13283.7  Rx     00017C7A  7  01 00 00 0F 03 7A 7C 
  1486)     13283.8  Rx     00117C7A  5  01 00 00 7A 7C 
  1487)     13288.7  Rx     00014205  7  01 00 00 0F 03 05 42 
  1488)     13288.8  Rx     00114205  5  01 00 00 05 42 
  1489)     13293.7  Rx     00011DBD  7  01 00 00 0F 03 BD 1D 
  1490)     13293.8  Rx     00111DBD  5  01 00 00 BD 1D 
  1491)     13298.7  Rx     0001AD97  7  01 00 00 0F 03 97 AD 
  1492)     13298.8  Rx     0011AD97  5  01 00 00 97 AD 
  1493)     13303.7  Rx     00015E89  7  01 00 00 0F 03 89 5E 
  1494)     13303.8  Rx     00115E89  5  01 00 00 89 5E 
  1495)     13308.7  Rx     0001BAB2  7  01 00 00 0F 03 B2 BA 
  1496)     13308.8  Rx     0011BAB2  5  01 00 00 B2 BA 
  1497)     13313.7  Rx     00017406  7  01 00 00 0F 03 06 74 
  1498)     13313.8  Rx     00117406  5  01 00 00 06 74 
  1499)     13318.7  Rx     000160CA  7  01 00 00 0F 03 CA 60 
  1500)     13318.8  Rx     001160CA  5  01 00 00 CA 60 
  1501)     13323.7  Rx     0001FEB3  7  01 00 00 0F 03 B3 FE 
  1502)     13323.8  Rx     0011FEB3  5  01 00 00 B3 FE 
  1503)     13328.7  Rx     0001B5F0  7  01 00 00 0F 03 F0 B5 
  1504)     13328.8  Rx     0011B5F0  5  01 00 00 F0 B5 
  1505)     13333.7  Rx     0001A2D2  7  01 00 00 0F 03 D2 A2 
  1506)     13333.8  Rx     0011A2D2  5  01 00 00 D2 A2 
  1507)     13338.7  Rx     0001C3AB  7  01 00 00 0F 03 AB C3 
  1508)     13338.8  Rx     0011C3AB  5  01 00 00 AB C3 
  1509)     13343.7  Rx     0001CC79  7  01 00 00 0F 03 79 CC 
  1510)     13343.8  Rx     0011CC79  5  01 00 00 79 CC 
  1511)     13348.7  Rx     000113C9  7  01 00 00 0F 03 C9 13 
  1512)     13348.8  Rx     001113C9  5  01 00 00 C9 13 
  1513)     13353.7  Rx     00014200  7  01 00 00 0F 03 00 42 
  1514)     13353.8  Rx     00114200  5  01 00 00 00 42 
  1515)     13358.7  Rx     00014DD6  7  01 00 00 0F 03 D6 4D 
  1516)     13358.8  Rx     00114DD6  5  01 00 00 D6 4D 
  1517)     13363.7  Rx     0001D621  7  01 00 00 0F 03 21 D6 
  1518)     13363.8  Rx     0011D621  5  01 00 00 21 D6 
  1519)     13368.7  Rx     0001BBCD  7  01 00 00 0F 03 CD BB 
  1520)     13368.8  Rx     0011BBCD  5  01 00 00 CD BB 
  1521)     13373.7  Rx     00016400  7  01 00 00 0F 03 00 64 
  1522)     13373.8  Rx     00116400  5  01 00 00 00 64 
  1523)     13378.7  Rx     00010443  7  01 00 00 0F 03 43 04 
  1524)     13378.8  Rx     00110443  5  01 00 00 43 04 
  1525)     13383.7  Rx     000121FD  7  01 00 00 0F 03 FD 21 
  1526)     13383.8  Rx     001121FD  5  01 00 00 FD 21 
  1527)     13388.7  Rx     00014224  7  01 00 00 0F 03 24 42 
  1528)     13388.8  Rx     00114224  5  01 00 00 24 42 
  1529)     13393.7  Rx     00015CF6  7  01 00 00 0F 03 F6 5C 
  1530)     13393.8  Rx     00115CF6  5  01 00 00 F6 5C 
  1531)     13398.7  Rx     000171B2  7  01 00 00 0F 03 B2 71 
  1532)     13398.8  Rx     001171B2  5  01 00 00 B2 71 
  1533)     13403.7  Rx     0001FC6D  7  01 00 00 0F 03 6D FC 
  1534)     13403.8  Rx     0011FC6D  5  01 00 00 6D FC 
  1535)     13408.7  Rx     00016C65  7  01 00 00 0F 03 65 6C 
  1536)     13408.8  Rx     00116C65  5  01 00 00 65 6C 
  1537)     13413.7  Rx     00018CA1  7  01 00 00 0F 03 A1 8C 
  1538)     13413.8  Rx     00118CA1  5  01 00 00 A1 8C 
  1539)     13418.7  Rx     0001B0E4  7  01 00 00 0F 03 E4 B0 
  1540)     13418.8  Rx     0011B0E4  5  01 00 00 E4 B0 
  1541)     13423.7  Rx     00014EA4  7  01 00 00 0F 03 A4 4E 
  1542)     13423.8  Rx     00114EA4  5  01 00 00 A4 4E 
  1543)     13428.7  Rx     0001C229  7  01 00 00 0F 03 29 C2 
  1544)     13428.8  Rx     0011C229  5  01 00 00 29 C2 
  1545)     13433.7  Rx     00012EF9  7  01 00 00 0F 03 F9 2E 
  1546)     13433.8  Rx     00112EF9  5  01 00 00 F9 2E 
  1547)     13438.7  Rx     0001988F  7  01 00 00 0F 03 8F 98 
  1548)     13438.8  Rx     0011988F  5  01 00 00 8F 98 
  1549)     13443.7  Rx     0001E22D  7  01 00 00 0F 03 2D E2 
  1550)     13443.8  Rx     0011E22D  5  01 00 00 2D E2 
  1551)     13448.7  Rx     0001195D  7  01 00 00 0F 03 5D 19 
  1552)     13448.8  Rx     0011195D  5  01 00 00 5D 19 
  1553)     13453.7  Rx     0001339A  7  01 00 00 0F 03 9A 33 
  1554)     13453.8  Rx     0011339A  5  01 00 00 9A 33 
  1555)     13458.7  Rx     0001AD0E  7  01 00 00 0F 03 0E AD 
  1556)     13458.8  Rx     0011AD0E  5  01 00 00 0E AD 
  1557)     13463.7  Rx     0001B52C  7  01 00 00 0F 03 2C B5 
  1558)     13463.8  Rx     0011B52C  5  01 00 00 2C B5 
  1559)     13468.7  Rx     0001325B  7  01 00 00 0F 03 5B 32 
  1560)     13468.8  Rx     0011325B  5  01 00 00 5B 32 
  1561)     13473.7  Rx     000103E3  7  01 00 00 0F 03 E3 03 
  1562)     13473.8  Rx     001103E3  5  01 00 00 E3 03 
  1563)     13478.7  Rx     000147DA  7  01 00 00 0F 03 DA 47 
  1564)     13478.8  Rx     001147DA  5  01 00 00 DA 47 
  1565)     13483.7  Rx     00015B65  7  01 00 00 0F 03 65 5B 
  1566)     13483.8  Rx     00115B65  5  01 00 00 65 5B 
  1567)     13488.7  Rx     00013BB6  7  01 00 00 0F 03 B6 3B 
  1568)     13488.8  Rx     00113BB6  5  01 00 00 B6 3B 
  1569)     13493.7  Rx     00015BDC  7  01 00 00 0F 03 DC 5B 
  1570)     13493.8  Rx     00115BDC  5  01 00 00 DC 5B 
  1571)     13498.7  Rx     000190BC  7  01 00 00 0F 03 BC 90 
  1572)     13498.8  Rx     001190BC  5  01 00 00 BC 90 
  1573)     13503.7  Rx     00012FFC  7  01 00 00 0F 03 FC 2F 
  1574)     13503.8  Rx     00112FFC  5  01 00 00 FC 2F 
  1575)     13508.7  Rx     000165D8  7  01 00 00 0F 03 D8 65 
  1576)     13508.8  Rx     001165D8  5  01 00 00 D8 65 
  1577)     13513.7  Rx     000111DB  7  01 00 00 0F 03 DB 11 
  1578)     13513.8  Rx     001111DB  5  01 00 00 DB 11 
  1579)     13518.7  Rx     0001ACBE  7  01 00 00 0F 03 BE AC 
  1580)     13518.8  Rx     0011ACBE  5  01 00 00 BE AC 
  1581)     13523.7  Rx     0001B401  7  01 00 00 0F 03 01 B4 
  1582)     13523.8  Rx     0011B401  5  01 00 00 01 B4 
  1583)     13528.7  Rx     00017E4C  7  01 00 00 0F 03 4C 7E 
  1584)     13528.8  Rx     00117E4C  5  01 00 00 4C 7E 
  1585)     13533.7  Rx     0001F8E4  7  01 00 00 0F 03 E4 F8 
  1586)     13533.8  Rx     0011F8E4  5  01 00 00 E4 F8 
  1587)     13538.7  Rx     0001AAE5  7  01 00 00 0F 03 E5 AA 
  1588)     13538.8  Rx     0011AAE5  5  01 00 00 E5 AA 
  1589)     13543.7  Rx     0001F5A9  7  01 00 00 0F 03 A9 F5 
  1590)     13543.8  Rx     0011F5A9  5  01 00 00 A9 F5 
  1591)     13548.7  Rx     000166DB  7  01 00 00 0F 03 DB 66 
  1592)     13548.8  Rx     001166DB  5  01 00 00 DB 66 
  1593)     13553.7  Rx     000191D4  7  01 00 00 0F 03 D4 91 
  1594)     13553.8  Rx     001191D4  5  01 00 00 D4 91 
  1595)     13558.7  Rx     0001AAA0  7  01 00 00 0F 03 A0 AA 
  1596)     13558.8  Rx     0011AAA0  5  01 00 00 A0 AA 
  1597)     13563.7  Rx     0001AC5C  7  01 00 00 0F 03 5C AC 
  1598)     13563.8  Rx     0011AC5C  5  01 00 00 5C AC 
  1599)     13568.7  Rx     0001BC58  7  01 00 00 0F 03 58 BC 
  1600)     13568.8  Rx     0011BC58  5  01 00 00 58 BC 
  1601)     13573.7  Rx     0001FB3C  7  01 00 00 0F 03 3C FB 
  1602)     13573.8  Rx     0011FB3C  5  01 00 00 3C FB 
  1603)     13578.7  Rx     0001E7FE  7  01 00 00 0F 03 FE E7 
  1604)     13578.8  Rx     0011E7FE  5  01 00 00 FE E7 
  1605)     13583.7  Rx     0001BD72  7  01 00 00 0F 03 72 BD 
  1606)     13583.8  Rx     0011BD72  5  01 00 00 72 BD 
  1607)     13588.7  Rx     0001653B  7  01 00 00 0F 03 3B 65 
  1608)     13588.8  Rx     0011653B  5  01 00 00 3B 65 
  1609)     13593.7  Rx     00019C0D  7  01 00 00 0F 03 0D 9C 
  1610)     13593.8  Rx     00119C0D  5  01 00 00 0D 9C 
  1611)     13598.7  Rx     0001C9A2  7  01 00 00 0F 03 A2 C9 
  1612)     13598.8  Rx     0011C9A2  5  01 00 00 A2 C9 
  1613)     13603.6  Rx     000169BC  7  01 00 00 0F 03 BC 69 
  1614)     13603.8  Rx     001169BC  5  01 00 00 BC 69 
  1615)     13608.7  Rx     00010BEE  7  01 00 00 0F 03 EE 0B 
  1616)     13608.8  Rx     00110BEE  5  01 00 00 EE 0B 
  1617)     13613.7  Rx     00012CF8  7  01 00 00 0F 03 F8 2C 
  1618)     13613.8  Rx     00112CF8  5  01 00 00 F8 2C 
  1619)     13618.7  Rx     0001F476  7  01 00 00 0F 03 76 F4 
  1620)     13618.8  Rx     0011F476  5  01 00 00 76 F4 
  1621)     13623.7  Rx     0001AFC4  7  01 00 00 0F 03 C4 AF 
  1622)     13623.8  Rx     0011AFC4  5  01 00 00 C4 AF 
  1623)     13628.7  Rx     0001C4EA  7  01 00 00 0F 03 EA C4 
  1624)     13628.8  Rx     0011C4EA  5  01 00 00 EA C4 
  1625)     13633.7  Rx     00014492  7  01 00 00 0F 03 92 44 
  1626)     13633.8  Rx     00114492  5  01 00 00 92 44 
  1627)     13638.7  Rx     00015521  7  01 00 00 0F 03 21 55 
  1628)     13638.8  Rx     00115521  5  01 00 00 21 55 
  1629)     13643.7  Rx     000186D3  7  01 00 00 0F 03 D3 86 
  1630)     13643.8  Rx     001186D3  5  01 00 00 D3 86 
  1631)     13648.7  Rx     0001A080  7  01 00 00 0F 03 80 A0 
