;$FILEVERSION=1.1
;$STARTTIME=46290.6807944907
;
;   Start time: 25/09/2026 16:20:20.644.0
;   Generated by PCAN-View v5.3.3.958
;
;   Message Number
;   |         Time Offset (ms)
;   |         |        Type
;   |         |        |        ID (hex)
;   |         |        |        |     Data Length
;   |         |        |        |     |   Data Bytes (hex) ...
;   |         |        |        |     |   |
;---+--   ----+----  --+--  ----+---  +  -+ -- -- -- -- -- -- --
     1)      8433.2  Rx     00019C48  7  01 00 00 0F 00 48 9C 
     2)      8433.4  Rx     00119C48  5  01 00 00 48 9C 
     3)      8438.2  Rx     000142A4  7  01 00 00 0F 03 A4 42 
     4)      8438.3  Rx     001142A4  5  01 00 00 A4 42 
     5)      8443.2  Rx     00012952  7  01 00 00 0F 03 52 29 
     6)      8443.3  Rx     00112952  5  01 00 00 52 29 
     7)      8448.2  Rx     00019535  7  01 00 00 0F 03 35 95 
     8)      8448.3  Rx     00119535  5  01 00 00 35 95 
     9)      8453.2  Rx     0001C0D2  7  01 00 00 0F 03 D2 C0 
    10)      8453.3  Rx     0011C0D2  5  01 00 00 D2 C0 
    11)      8458.2  Rx     00018B71  7  01 00 00 0F 03 71 8B 
    12)      8458.3  Rx     00118B71  5  01 00 00 71 8B 
    13)      8463.2  Rx     0001494E  7  01 00 00 0F 03 4E 49 
    14)      8463.3  Rx     0011494E  5  01 00 00 4E 49 
    15)      8468.2  Rx     000150E6  7  01 00 00 0F 03 E6 50 
    16)      8468.3  Rx     001150E6  5  01 00 00 E6 50 
    17)      8473.2  Rx     0001979A  7  01 00 00 0F 03 9A 97 
    18)      8473.3  Rx     0011979A  5  01 00 00 9A 97 
    19)      8478.2  Rx     000151A2  7  01 00 00 0F 03 A2 51 
    20)      8478.3  Rx     001151A2  5  01 00 00 A2 51 
    21)      8483.2  Rx     00014C1E  7  01 00 00 0F 03 1E 4C 
    22)      8483.3  Rx     00114C1E  5  01 00 00 1E 4C 
    23)      8488.2  Rx     00010A64  7  01 00 00 0F 03 64 0A 
    24)      8488.3  Rx     00110A64  5  01 00 00 64 0A 
    25)      8493.2  Rx     0001B0D3  7  01 00 00 0F 03 D3 B0 
    26)      8493.3  Rx     0011B0D3  5  01 00 00 D3 B0 
    27)      8498.2  Rx     00016E33  7  01 00 00 0F 03 33 6E 
    28)      8498.3  Rx     00116E33  5  01 00 00 33 6E 
    29)      8503.2  Rx     00019E49  7  01 00 00 0F 03 49 9E 
    30)      8503.3  Rx     00119E49  5  01 00 00 49 9E 
    31)      8508.2  Rx     00014A3D  7  01 00 00 0F 03 3D 4A 
    32)      8508.3  Rx     00114A3D  5  01 00 00 3D 4A 
    33)      8513.2  Rx     0001D3A6  7  01 00 00 0F 03 A6 D3 
    34)      8513.3  Rx     0011D3A6  5  01 00 00 A6 D3 
    35)      8518.2  Rx     000179B1  7  01 00 00 0F 03 B1 79 
    36)      8518.3  Rx     001179B1  5  01 00 00 B1 79 
    37)      8523.2  Rx     0001A982  7  01 00 00 0F 03 82 A9 
    38)      8523.3  Rx     0011A982  5  01 00 00 82 A9 
    39)      8528.2  Rx     000169EA  7  01 00 00 0F 03 EA 69 
    40)      8528.3  Rx     001169EA  5  01 00 00 EA 69 
    41)      8533.2  Rx     00015D0D  7  01 00 00 0F 03 0D 5D 
    42)      8533.3  Rx     00115D0D  5  01 00 00 0D 5D 
    43)      8538.2  Rx     00019823  7  01 00 00 0F 03 23 98 
    44)      8538.3  Rx     00119823  5  01 00 00 23 98 
    45)      8543.2  Rx     0001F8DE  7  01 00 00 0F 03 DE F8 
    46)      8543.3  Rx     0011F8DE  5  01 00 00 DE F8 
    47)      8548.2  Rx     0001D098  7  01 00 00 0F 03 98 D0 
    48)      8548.3  Rx     0011D098  5  01 00 00 98 D0 
    49)      8553.2  Rx     00010662  7  01 00 00 0F 03 62 06 
    50)      8553.3  Rx     00110662  5  01 00 00 62 06 
    51)      8558.2  Rx     00015BAF  7  01 00 00 0F 03 AF 5B 
    52)      8558.3  Rx     00115BAF  5  01 00 00 AF 5B 
    53)      8563.2  Rx     000146C1  7  01 00 00 0F 03 C1 46 
    54)      8563.3  Rx     001146C1  5  01 00 00 C1 46 
    55)      8568.2  Rx     000158AB  7  01 00 00 0F 03 AB 58 
    56)      8568.3  Rx     001158AB  5  01 00 00 AB 58 
    57)      8573.2  Rx     00014FB5  7  01 00 00 0F 03 B5 4F 
    58)      8573.3  Rx     00114FB5  5  01 00 00 B5 4F 
    59)      8578.2  Rx     000169F7  7  01 00 00 0F 03 F7 69 
    60)      8578.3  Rx     001169F7  5  01 00 00 F7 69 
    61)      8583.2  Rx     0001809C  7  01 00 00 0F 03 9C 80 
    62)      8583.3  Rx     0011809C  5  01 00 00 9C 80 
    63)      8588.1  Rx     00018A02  7  01 00 00 0F 03 02 8A 
    64)      8588.2  Rx     00118A02  5  01 00 00 02 8A 
    65)      8593.1  Rx     00011DE0  7  01 00 00 0F 03 E0 1D 
    66)      8593.2  Rx     00111DE0  5  01 00 00 E0 1D 
    67)      8598.1  Rx     00018047  7  01 00 00 0F 03 47 80 
    68)      8598.2  Rx     00118047  5  01 00 00 47 80 
    69)      8603.1  Rx     0001E859  7  01 00 00 0F 03 59 E8 
    70)      8603.2  Rx     0011E859  5  01 00 00 59 E8 
    71)      8608.1  Rx     0001F4FA  7  01 00 00 0F 03 FA F4 
    72)      8608.2  Rx     0011F4FA  5  01 00 00 FA F4 
    73)      8613.1  Rx     0001445A  7  01 00 00 0F 03 5A 44 
    74)      8613.2  Rx     0011445A  5  01 00 00 5A 44 
    75)      8618.1  Rx     00012270  7  01 00 00 0F 03 70 22 
    76)      8618.2  Rx     00112270  5  01 00 00 70 22 
    77)      8623.1  Rx     00011391  7  01 00 00 0F 03 91 13 
    78)      8623.2  Rx     00111391  5  01 00 00 91 13 
    79)      8628.1  Rx     00018634  7  01 00 00 0F 03 34 86 
    80)      8628.2  Rx     00118634  5  01 00 00 34 86 
    81)      8633.1  Rx     000126CE  7  01 00 00 0F 03 CE 26 
    82)      8633.2  Rx     001126CE  5  01 00 00 CE 26 
    83)      8638.1  Rx     00017071  7  01 00 00 0F 03 71 70 
    84)      8638.2  Rx     00117071  5  01 00 00 71 70 
    85)      8643.1  Rx     0001FC82  7  01 00 00 0F 03 82 FC 
    86)      8643.2  Rx     0011FC82  5  01 00 00 82 FC 
    87)      8648.1  Rx     0001CB16  7  01 00 00 0F 04 16 CB 
    88)      8648.2  Rx     0011CB16  5  01 00 00 16 CB 
    89)      8653.1  Rx     00012E6B  7  01 00 00 0F 03 6B 2E 
    90)      8653.2  Rx     00112E6B  5  01 00 00 6B 2E 
    91)      8658.1  Rx     0001FADB  7  01 00 00 0F 03 DB FA 
    92)      8658.2  Rx     0011FADB  5  01 00 00 DB FA 
    93)      8663.1  Rx     00012CC2  7  01 00 00 0F 03 C2 2C 
    94)      8663.2  Rx     00112CC2  5  01 00 00 C2 2C 
    95)      8668.1  Rx     00014712  7  01 00 00 0F 03 12 47 
    96)      8668.2  Rx     00114712  5  01 00 00 12 47 
    97)      8673.1  Rx     00016AF8  7  01 00 00 0F 03 F8 6A 
    98)      8673.2  Rx     00116AF8  5  01 00 00 F8 6A 
    99)      8678.1  Rx     000191F0  7  01 00 00 0F 03 F0 91 
   100)      8678.2  Rx     001191F0  5  01 00 00 F0 91 
   101)      8683.1  Rx     0001A9B3  7  01 00 00 0F 03 B3 A9 
   102)      8683.2  Rx     0011A9B3  5  01 00 00 B3 A9 
   103)      8688.1  Rx     0001CDA8  7  01 00 00 0F 03 A8 CD 
   104)      8688.2  Rx     0011CDA8  5  01 00 00 A8 CD 
   105)      8693.1  Rx     00011FAE  7  01 00 00 0F 03 AE 1F 
   106)      8693.2  Rx     00111FAE  5  01 00 00 AE 1F 
   107)      8698.1  Rx     00011B90  7  01 00 00 0F 03 90 1B 
   108)      8698.2  Rx     00111B90  5  01 00 00 90 1B 
   109)      8703.1  Rx     000116B5  7  01 00 00 0F 03 B5 16 
   110)      8703.2  Rx     001116B5  5  01 00 00 B5 16 
   111)      8708.1  Rx     0001C12C  7  01 00 00 0F 03 2C C1 
   112)      8708.2  Rx     0011C12C  5  01 00 00 2C C1 
   113)      8713.1  Rx     000157C5  7  01 00 00 0F 03 C5 57 
   114)      8713.2  Rx     001157C5  5  01 00 00 C5 57 
   115)      8718.1  Rx     00014BD3  7  01 00 00 0F 03 D3 4B 
   116)      8718.2  Rx     00114BD3  5  01 00 00 D3 4B 
   117)      8723.1  Rx     0001B91D  7  01 00 00 0F 03 1D B9 
   118)      8723.2  Rx     0011B91D  5  01 00 00 1D B9 
   119)      8728.1  Rx     00016E47  7  01 00 00 0F 03 47 6E 
   120)      8728.2  Rx     00116E47  5  01 00 00 47 6E 
   121)      8733.1  Rx     00016ACA  7  01 00 00 0F 03 CA 6A 
   122)      8733.2  Rx     00116ACA  5  01 00 00 CA 6A 
   123)      8738.1  Rx     00019075  7  01 00 00 0F 03 75 90 
   124)      8738.2  Rx     00119075  5  01 00 00 75 90 
   125)      8743.1  Rx     0001A9E8  7  01 00 00 0F 03 E8 A9 
   126)      8743.2  Rx     0011A9E8  5  01 00 00 E8 A9 
   127)      8748.1  Rx     0001543E  7  01 00 00 0F 03 3E 54 
   128)      8748.2  Rx     0011543E  5  01 00 00 3E 54 
   129)      8753.1  Rx     000198B6  7  01 00 00 0F 03 B6 98 
   130)      8753.2  Rx     001198B6  5  01 00 00 B6 98 
   131)      8758.1  Rx     0001DEF5  7  01 00 00 0F 03 F5 DE 
   132)      8758.2  Rx     0011DEF5  5  01 00 00 F5 DE 
   133)      8763.1  Rx     0001B12E  7  01 00 00 0F 03 2E B1 
   134)      8763.2  Rx     0011B12E  5  01 00 00 2E B1 
   135)      8768.1  Rx     000185F5  7  01 00 00 0F 03 F5 85 
   136)      8768.2  Rx     001185F5  5  01 00 00 F5 85 
   137)      8773.1  Rx     00018DBE  7  01 00 00 0F 03 BE 8D 
   138)      8773.2  Rx     00118DBE  5  01 00 00 BE 8D 
   139)      8778.1  Rx     00016D7B  7  01 00 00 0F 03 7B 6D 
   140)      8778.2  Rx     00116D7B  5  01 00 00 7B 6D 
   141)      8783.1  Rx     00018757  7  01 00 00 0F 03 57 87 
   142)      8783.2  Rx     00118757  5  01 00 00 57 87 
   143)      8788.1  Rx     0001DBB1  7  01 00 00 0F 03 B1 DB 
   144)      8788.2  Rx     0011DBB1  5  01 00 00 B1 DB 
   145)      8793.1  Rx     0001FDEA  7  01 00 00 0F 03 EA FD 
   146)      8793.2  Rx     0011FDEA  5  01 00 00 EA FD 
   147)      8798.1  Rx     0001967D  7  01 00 00 0F 03 7D 96 
   148)      8798.2  Rx     0011967D  5  01 00 00 7D 96 
   149)      8803.1  Rx     0001C00F  7  01 00 00 0F 03 0F C0 
   150)      8803.2  Rx     0011C00F  5  01 00 00 0F C0 
   151)      8808.1  Rx     00015D9F  7  01 00 00 0F 03 9F 5D 
   152)      8808.2  Rx     00115D9F  5  01 00 00 9F 5D 
   153)      8813.1  Rx     00013067  7  01 00 00 0F 03 67 30 
   154)      8813.2  Rx     00113067  5  01 00 00 67 30 
   155)      8818.1  Rx     0001A320  7  01 00 00 0F 03 20 A3 
   156)      8818.2  Rx     0011A320  5  01 00 00 20 A3 
   157)      8823.1  Rx     0001F6FA  7  01 00 00 0F 03 FA F6 
   158)      8823.2  Rx     0011F6FA  5  01 00 00 FA F6 
   159)      8828.1  Rx     00018F17  7  01 00 00 0F 03 17 8F 
   160)      8828.2  Rx     00118F17  5  01 00 00 17 8F 
   161)      8833.1  Rx     00018E9C  7  01 00 00 0F 03 9C 8E 
   162)      8833.2  Rx     00118E9C  5  01 00 00 9C 8E 
   163)      8838.1  Rx     0001985E  7  01 00 00 0F 03 5E 98 
   164)      8838.2  Rx     0011985E  5  01 00 00 5E 98 
   165)      8843.1  Rx     0001C626  7  01 00 00 0F 03 26 C6 
   166)      8843.2  Rx     0011C626  5  01 00 00 26 C6 
   167)      8848.1  Rx     0001B2A0  7  01 00 00 0F 03 A0 B2 
   168)      8848.2  Rx     0011B2A0  5  01 00 00 A0 B2 
   169)      8853.1  Rx     000136FE  7  01 00 00 0F 03 FE 36 
   170)      8853.2  Rx     001136FE  5  01 00 00 FE 36 
   171)      8858.1  Rx     000116EC  7  01 00 00 0F 03 EC 16 
   172)      8858.2  Rx     001116EC  5  01 00 00 EC 16 
   173)      8863.1  Rx     0001EE44  7  01 00 00 0F 03 44 EE 
   174)      8863.2  Rx     0011EE44  5  01 00 00 44 EE 
   175)      8868.1  Rx     000126B3  7  01 00 00 0F 03 B3 26 
   176)      8868.2  Rx     001126B3  5  01 00 00 B3 26 
   177)      8873.1  Rx     00017FA3  7  01 00 00 0F 03 A3 7F 
   178)      8873.2  Rx     00117FA3  5  01 00 00 A3 7F 
   179)      8878.1  Rx     00010DD8  7  01 00 00 0F 03 D8 0D 
   180)      8878.2  Rx     00110DD8  5  01 00 00 D8 0D 
   181)      8883.1  Rx     00015095  7  01 00 00 0F 03 95 50 
   182)      8883.2  Rx     00115095  5  01 00 00 95 50 
   183)      8888.1  Rx     0001AB3E  7  01 00 00 0F 03 3E AB 
   184)      8888.2  Rx     0011AB3E  5  01 00 00 3E AB 
   185)      8893.1  Rx     0001A098  7  01 00 00 0F 03 98 A0 
   186)      8893.2  Rx     0011A098  5  01 00 00 98 A0 
   187)      8898.1  Rx     0001A3F4  7  01 00 00 0F 03 F4 A3 
   188)      8898.2  Rx     0011A3F4  5  01 00 00 F4 A3 
   189)      8903.1  Rx     000116A5  7  01 00 00 0F 03 A5 16 
   190)      8903.2  Rx     001116A5  5  01 00 00 A5 16 
   191)      8908.1  Rx     0001C3EF  7  01 00 00 0F 03 EF C3 
   192)      8908.2  Rx     0011C3EF  5  01 00 00 EF C3 
   193)      8913.1  Rx     000131F1  7  01 00 00 0F 03 F1 31 
   194)      8913.2  Rx     001131F1  5  01 00 00 F1 31 
   195)      8918.1  Rx     0001FBF6  7  01 00 00 0F 03 F6 FB 
   196)      8918.2  Rx     0011FBF6  5  01 00 00 F6 FB 
   197)      8923.1  Rx     0001A7B9  7  01 00 00 0F 03 B9 A7 
   198)      8923.2  Rx     0011A7B9  5  01 00 00 B9 A7 
   199)      8928.1  Rx     0001E72C  7  01 00 00 0F 03 2C E7 
   200)      8928.2  Rx     0011E72C  5  01 00 00 2C E7 
   201)      8933.1  Rx     0001B9A4  7  01 00 00 0F 03 A4 B9 
   202)      8933.2  Rx     0011B9A4  5  01 00 00 A4 B9 
   203)      8938.1  Rx     00010B5A  7  01 00 00 0F 03 5A 0B 
   204)      8938.2  Rx     00110B5A  5  01 00 00 5A 0B 
   205)      8943.1  Rx     0001C809  7  01 00 00 0F 03 09 C8 
   206)      8943.2  Rx     0011C809  5  01 00 00 09 C8 
   207)      8948.1  Rx     0001F5E3  7  01 00 00 0F 03 E3 F5 
   208)      8948.2  Rx     0011F5E3  5  01 00 00 E3 F5 
   209)      8953.1  Rx     00013D16  7  01 00 00 0F 03 16 3D 
   210)      8953.2  Rx     00113D16  5  01 00 00 16 3D 
   211)      8958.1  Rx     0001600D  7  01 00 00 0F 03 0D 60 
   212)      8958.2  Rx     0011600D  5  01 00 00 0D 60 
   213)      8963.1  Rx     0001B1AC  7  01 00 00 0F 03 AC B1 
   214)      8963.2  Rx     0011B1AC  5  01 00 00 AC B1 
   215)      8968.1  Rx     00016807  7  01 00 00 0F 03 07 68 
   216)      8968.2  Rx     00116807  5  01 00 00 07 68 
   217)      8973.1  Rx     0001E271  7  01 00 00 0F 03 71 E2 
   218)      8973.2  Rx     0011E271  5  01 00 00 71 E2 
   219)      8978.1  Rx     000100CB  7  01 00 00 0F 03 CB 00 
   220)      8978.2  Rx     001100CB  5  01 00 00 CB 00 
   221)      8983.1  Rx     00010F56  7  01 00 00 0F 03 56 0F 
   222)      8983.2  Rx     00110F56  5  01 00 00 56 0F 
   223)      8988.1  Rx     0001C1D5  7  01 00 00 0F 03 D5 C1 
   224)      8988.2  Rx     0011C1D5  5  01 00 00 D5 C1 
   225)      8993.1  Rx     000165BA  7  01 00 00 0F 03 BA 65 
   226)      8993.2  Rx     001165BA  5  01 00 00 BA 65 
   227)      8998.1  Rx     00013043  7  01 00 00 0F 03 43 30 
   228)      8998.2  Rx     00113043  5  01 00 00 43 30 
   229)      9003.1  Rx     000114C4  7  01 00 00 0F 03 C4 14 
   230)      9003.2  Rx     001114C4  5  01 00 00 C4 14 
   231)      9008.1  Rx     0001B5D9  7  01 00 00 0F 03 D9 B5 
   232)      9008.2  Rx     0011B5D9  5  01 00 00 D9 B5 
   233)      9013.1  Rx     0001BDA5  7  01 00 00 0F 03 A5 BD 
   234)      9013.2  Rx     0011BDA5  5  01 00 00 A5 BD 
   235)      9018.1  Rx     00013700  7  01 00 00 0F 03 00 37 
   236)      9018.2  Rx     00113700  5  01 00 00 00 37 
   237)      9023.1  Rx     0001A0F2  7  01 00 00 0F 03 F2 A0 
   238)      9023.2  Rx     0011A0F2  5  01 00 00 F2 A0 
   239)      9028.1  Rx     00019FB3  7  01 00 00 0F 03 B3 9F 
   240)      9028.2  Rx     00119FB3  5  01 00 00 B3 9F 
   241)      9033.1  Rx     00019C26  7  01 00 00 0F 03 26 9C 
   242)      9033.2  Rx     00119C26  5  01 00 00 26 9C 
   243)      9038.1  Rx     00014406  7  01 00 00 0F 03 06 44 
   244)      9038.2  Rx     00114406  5  01 00 00 06 44 
   245)      9043.1  Rx     00012612  7  01 00 00 0F 03 12 26 
   246)      9043.2  Rx     00112612  5  01 00 00 12 26 
   247)      9048.1  Rx     0001B399  7  01 00 00 0F 03 99 B3 
   248)      9048.2  Rx     0011B399  5  01 00 00 99 B3 
   249)      9053.1  Rx     000116C7  7  01 00 00 0F 03 C7 16 
   250)      9053.2  Rx     001116C7  5  01 00 00 C7 16 
   251)      9058.1  Rx     0001383D  7  01 00 00 0F 03 3D 38 
   252)      9058.2  Rx     0011383D  5  01 00 00 3D 38 
   253)      9063.1  Rx     0001E73B  7  01 00 00 0F 03 3B E7 
   254)      9063.2  Rx     0011E73B  5  01 00 00 3B E7 
   255)      9068.1  Rx     0001669B  7  01 00 00 0F 03 9B 66 
   256)      9068.2  Rx     0011669B  5  01 00 00 9B 66 
   257)      9073.1  Rx     00010EBB  7  01 00 00 0F 03 BB 0E 
   258)      9073.2  Rx     00110EBB  5  01 00 00 BB 0E 
   259)      9078.1  Rx     00017091  7  01 00 00 0F 03 91 70 
   260)      9078.2  Rx     00117091  5  01 00 00 91 70 
   261)      9083.1  Rx     0001E3E3  7  01 00 00 0F 03 E3 E3 
   262)      9083.2  Rx     0011E3E3  5  01 00 00 E3 E3 
   263)      9088.1  Rx     0001B7A9  7  01 00 00 0F 03 A9 B7 
   264)      9088.2  Rx     0011B7A9  5  01 00 00 A9 B7 
   265)      9093.1  Rx     0001E4B6  7  01 00 00 0F 03 B6 E4 
   266)      9093.2  Rx     0011E4B6  5  01 00 00 B6 E4 
   267)      9098.0  Rx     000196D5  7  01 00 00 0F 03 D5 96 
   268)      9098.2  Rx     001196D5  5  01 00 00 D5 96 
   269)      9103.1  Rx     0001F50E  7  01 00 00 0F 03 0E F5 
   270)      9103.2  Rx     0011F50E  5  01 00 00 0E F5 
   271)      9108.1  Rx     00017154  7  01 00 00 0F 03 54 71 
   272)      9108.2  Rx     00117154  5  01 00 00 54 71 
   273)      9113.1  Rx     00010479  7  01 00 00 0F 03 79 04 
   274)      9113.2  Rx     00110479  5  01 00 00 79 04 
   275)      9118.1  Rx     0001716B  7  01 00 00 0F 03 6B 71 
   276)      9118.2  Rx     0011716B  5  01 00 00 6B 71 
   277)      9123.0  Rx     0001F442  7  01 00 00 0F 03 42 F4 
   278)      9123.2  Rx     0011F442  5  01 00 00 42 F4 
   279)      9128.1  Rx     00019056  7  01 00 00 0F 03 56 90 
   280)      9128.2  Rx     00119056  5  01 00 00 56 90 
   281)      9133.1  Rx     00015C2F  7  01 00 00 0F 03 2F 5C 
   282)      9133.2  Rx     00115C2F  5  01 00 00 2F 5C 
   283)      9138.1  Rx     0001BDA4  7  01 00 00 0F 03 A4 BD 
   284)      9138.2  Rx     0011BDA4  5  01 00 00 A4 BD 
   285)      9143.1  Rx     00019C41  7  01 00 00 0F 03 41 9C 
   286)      9143.2  Rx     00119C41  5  01 00 00 41 9C 
   287)      9148.1  Rx     000182D2  7  01 00 00 0F 03 D2 82 
   288)      9148.2  Rx     001182D2  5  01 00 00 D2 82 
   289)      9153.0  Rx     00010B7A  7  01 00 00 0F 03 7A 0B 
   290)      9153.2  Rx     00110B7A  5  01 00 00 7A 0B 
   291)      9158.1  Rx     0001F4E7  7  01 00 00 0F 03 E7 F4 
   292)      9158.2  Rx     0011F4E7  5  01 00 00 E7 F4 
   293)      9163.1  Rx     0001C374  7  01 00 00 0F 03 74 C3 
   294)      9163.2  Rx     0011C374  5  01 00 00 74 C3 
   295)      9168.1  Rx     0001785B  7  01 00 00 0F 03 5B 78 
   296)      9168.2  Rx     0011785B  5  01 00 00 5B 78 
   297)      9173.1  Rx     0001D64B  7  01 00 00 0F 03 4B D6 
   298)      9173.2  Rx     0011D64B  5  01 00 00 4B D6 
   299)      9178.0  Rx     00011893  7  01 00 00 0F 03 93 18 
   300)      9178.2  Rx     00111893  5  01 00 00 93 18 
   301)      9183.1  Rx     00015028  7  01 00 00 0F 03 28 50 
   302)      9183.2  Rx     00115028  5  01 00 00 28 50 
   303)      9188.1  Rx     0001C6B6  7  01 00 00 0F 03 B6 C6 
   304)      9188.2  Rx     0011C6B6  5  01 00 00 B6 C6 
   305)      9193.1  Rx     0001D374  7  01 00 00 0F 03 74 D3 
   306)      9193.2  Rx     0011D374  5  01 00 00 74 D3 
   307)      9198.1  Rx     000194A4  7  01 00 00 0F 03 A4 94 
   308)      9198.2  Rx     001194A4  5  01 00 00 A4 94 
   309)      9203.0  Rx     00015E7B  7  01 00 00 0F 03 7B 5E 
   310)      9203.2  Rx     00115E7B  5  01 00 00 7B 5E 
   311)      9208.0  Rx     00011F5F  7  01 00 00 0F 03 5F 1F 
   312)      9208.2  Rx     00111F5F  5  01 00 00 5F 1F 
   313)      9213.1  Rx     0001E2FF  7  01 00 00 0F 03 FF E2 
   314)      9213.2  Rx     0011E2FF  5  01 00 00 FF E2 
   315)      9218.1  Rx     0001FD18  7  01 00 00 0F 03 18 FD 
   316)      9218.2  Rx     0011FD18  5  01 00 00 18 FD 
   317)      9223.1  Rx     00013813  7  01 00 00 0F 03 13 38 
   318)      9223.2  Rx     00113813  5  01 00 00 13 38 
   319)      9228.0  Rx     0001E5CC  7  01 00 00 0F 03 CC E5 
   320)      9228.2  Rx     0011E5CC  5  01 00 00 CC E5 
   321)      9233.0  Rx     0001443B  7  01 00 00 0F 03 3B 44 
   322)      9233.2  Rx     0011443B  5  01 00 00 3B 44 
   323)      9238.1  Rx     0001EA0F  7  01 00 00 0F 03 0F EA 
   324)      9238.2  Rx     0011EA0F  5  01 00 00 0F EA 
   325)      9243.1  Rx     00018594  7  01 00 00 0F 03 94 85 
   326)      9243.2  Rx     00118594  5  01 00 00 94 85 
   327)      9248.1  Rx     00019672  7  01 00 00 0F 03 72 96 
   328)      9248.2  Rx     00119672  5  01 00 00 72 96 
   329)      9253.1  Rx     0001379A  7  01 00 00 0F 03 9A 37 
   330)      9253.2  Rx     0011379A  5  01 00 00 9A 37 
   331)      9258.0  Rx     0001B6B3  7  01 00 00 0F 03 B3 B6 
   332)      9258.2  Rx     0011B6B3  5  01 00 00 B3 B6 
   333)      9263.0  Rx     000131CE  7  01 00 00 0F 03 CE 31 
   334)      9263.2  Rx     001131CE  5  01 00 00 CE 31 
   335)      9268.1  Rx     0001F28B  7  01 00 00 0F 03 8B F2 
   336)      9268.2  Rx     0011F28B  5  01 00 00 8B F2 
   337)      9273.1  Rx     0001703D  7  01 00 00 0F 03 3D 70 
   338)      9273.1  Rx     0011703D  5  01 00 00 3D 70 
   339)      9278.1  Rx     00016ADC  7  01 00 00 0F 03 DC 6A 
   340)      9278.2  Rx     00116ADC  5  01 00 00 DC 6A 
   341)      9283.0  Rx     0001A6B8  7  01 00 00 0F 03 B8 A6 
   342)      9283.2  Rx     0011A6B8  5  01 00 00 B8 A6 
   343)      9288.0  Rx     00016C94  7  01 00 00 0F 03 94 6C 
   344)      9288.2  Rx     00116C94  5  01 00 00 94 6C 
   345)      9293.0  Rx     0001C14A  7  01 00 00 0F 03 4A C1 
   346)      9293.2  Rx     0011C14A  5  01 00 00 4A C1 
   347)      9298.1  Rx     00017372  7  01 00 00 0F 03 72 73 
   348)      9298.1  Rx     00117372  5  01 00 00 72 73 
   349)      9303.1  Rx     0001C020  7  01 00 00 0F 03 20 C0 
   350)      9303.2  Rx     0011C020  5  01 00 00 20 C0 
   351)      9308.0  Rx     00016998  7  01 00 00 0F 03 98 69 
   352)      9308.2  Rx     00116998  5  01 00 00 98 69 
   353)      9313.0  Rx     00019F04  7  01 00 00 0F 03 04 9F 
   354)      9313.2  Rx     00119F04  5  01 00 00 04 9F 
   355)      9318.0  Rx     00018591  7  01 00 00 0F 04 91 85 
   356)      9318.2  Rx     00118591  5  01 00 00 91 85 
   357)      9323.1  Rx     0001E41F  7  01 00 00 0F 03 1F E4 
   358)      9323.2  Rx     0011E41F  5  01 00 00 1F E4 
   359)      9328.1  Rx     00019F2F  7  01 00 00 0F 03 2F 9F 
   360)      9328.1  Rx     00119F2F  5  01 00 00 2F 9F 
   361)      9333.1  Rx     0001A798  7  01 00 00 0F 03 98 A7 
   362)      9333.2  Rx     0011A798  5  01 00 00 98 A7 
   363)      9338.0  Rx     00015C6E  7  01 00 00 0F 03 6E 5C 
   364)      9338.2  Rx     00115C6E  5  01 00 00 6E 5C 
   365)      9343.0  Rx     00011D4D  7  01 00 00 0F 03 4D 1D 
   366)      9343.2  Rx     00111D4D  5  01 00 00 4D 1D 
   367)      9348.0  Rx     00014643  7  01 00 00 0F 03 43 46 
   368)      9348.2  Rx     00114643  5  01 00 00 43 46 
   369)      9353.1  Rx     00013FB7  7  01 00 00 0F 03 B7 3F 
   370)      9353.1  Rx     00113FB7  5  01 00 00 B7 3F 
   371)      9358.1  Rx     00019DFC  7  01 00 00 0F 03 FC 9D 
   372)      9358.1  Rx     00119DFC  5  01 00 00 FC 9D 
   373)      9363.0  Rx     000116B8  7  01 00 00 0F 03 B8 16 
   374)      9363.2  Rx     001116B8  5  01 00 00 B8 16 
   375)      9368.0  Rx     00019298  7  01 00 00 0F 03 98 92 
   376)      9368.2  Rx     00119298  5  01 00 00 98 92 
   377)      9373.0  Rx     000126E7  7  01 00 00 0F 03 E7 26 
   378)      9373.2  Rx     001126E7  5  01 00 00 E7 26 
   379)      9378.0  Rx     00018E4C  7  01 00 00 0F 03 4C 8E 
   380)      9378.1  Rx     00118E4C  5  01 00 00 4C 8E 
   381)      9383.1  Rx     00013595  7  01 00 00 0F 03 95 35 
   382)      9383.1  Rx     00113595  5  01 00 00 95 35 
   383)      9388.0  Rx     0001E309  7  01 00 00 0F 03 09 E3 
   384)      9388.1  Rx     0011E309  5  01 00 00 09 E3 
   385)      9393.0  Rx     0001FB99  7  01 00 00 0F 03 99 FB 
   386)      9393.2  Rx     0011FB99  5  01 00 00 99 FB 
   387)      9398.0  Rx     0001FDB7  7  01 00 00 0F 03 B7 FD 
   388)      9398.2  Rx     0011FDB7  5  01 00 00 B7 FD 
   389)      9403.0  Rx     0001B0B3  7  01 00 00 0F 03 B3 B0 
   390)      9403.2  Rx     0011B0B3  5  01 00 00 B3 B0 
   391)      9408.1  Rx     00012691  7  01 00 00 0F 03 91 26 
   392)      9408.1  Rx     00112691  5  01 00 00 91 26 
   393)      9413.0  Rx     0001CAF9  7  01 00 00 0F 03 F9 CA 
   394)      9413.1  Rx     0011CAF9  5  01 00 00 F9 CA 
   395)      9418.0  Rx     000105BD  7  01 00 00 0F 03 BD 05 
   396)      9418.2  Rx     001105BD  5  01 00 00 BD 05 
   397)      9423.0  Rx     000199B2  7  01 00 00 0F 03 B2 99 
   398)      9423.2  Rx     001199B2  5  01 00 00 B2 99 
   399)      9428.0  Rx     00011610  7  01 00 00 0F 03 10 16 
   400)      9428.2  Rx     00111610  5  01 00 00 10 16 
   401)      9433.0  Rx     0001A488  7  01 00 00 0F 03 88 A4 
   402)      9433.1  Rx     0011A488  5  01 00 00 88 A4 
   403)      9438.1  Rx     0001E4AB  7  01 00 00 0F 03 AB E4 
   404)      9438.1  Rx     0011E4AB  5  01 00 00 AB E4 
   405)      9443.0  Rx     0001EBF7  7  01 00 00 0F 03 F7 EB 
   406)      9443.1  Rx     0011EBF7  5  01 00 00 F7 EB 
   407)      9448.0  Rx     0001A2CA  7  01 00 00 0F 03 CA A2 
   408)      9448.2  Rx     0011A2CA  5  01 00 00 CA A2 
   409)      9453.0  Rx     0001316B  7  01 00 00 0F 03 6B 31 
   410)      9453.2  Rx     0011316B  5  01 00 00 6B 31 
   411)      9458.0  Rx     0001C3FE  7  01 00 00 0F 03 FE C3 
   412)      9458.1  Rx     0011C3FE  5  01 00 00 FE C3 
   413)      9463.0  Rx     0001995D  7  01 00 00 0F 03 5D 99 
   414)      9463.1  Rx     0011995D  5  01 00 00 5D 99 
   415)      9468.0  Rx     000121AE  7  01 00 00 0F 03 AE 21 
   416)      9468.1  Rx     001121AE  5  01 00 00 AE 21 
   417)      9473.0  Rx     00013F7F  7  01 00 00 0F 03 7F 3F 
   418)      9473.2  Rx     00113F7F  5  01 00 00 7F 3F 
   419)      9478.0  Rx     0001858A  7  01 00 00 0F 03 8A 85 
   420)      9478.2  Rx     0011858A  5  01 00 00 8A 85 
   421)      9483.0  Rx     0001A4AC  7  01 00 00 0F 03 AC A4 
   422)      9483.1  Rx     0011A4AC  5  01 00 00 AC A4 
   423)      9488.0  Rx     0001C35B  7  01 00 00 0F 03 5B C3 
   424)      9488.1  Rx     0011C35B  5  01 00 00 5B C3 
   425)      9493.0  Rx     00014434  7  01 00 00 0F 03 34 44 
   426)      9493.1  Rx     00114434  5  01 00 00 34 44 
   427)      9498.0  Rx     0001A759  7  01 00 00 0F 03 59 A7 
   428)      9498.1  Rx     0011A759  5  01 00 00 59 A7 
   429)      9503.0  Rx     000129CA  7  01 00 00 0F 03 CA 29 
   430)      9503.2  Rx     001129CA  5  01 00 00 CA 29 
   431)      9508.0  Rx     0001B8E3  7  01 00 00 0F 03 E3 B8 
   432)      9508.2  Rx     0011B8E3  5  01 00 00 E3 B8 
   433)      9513.0  Rx     00010315  7  01 00 00 0F 03 15 03 
   434)      9513.1  Rx     00110315  5  01 00 00 15 03 
   435)      9518.0  Rx     0001FA53  7  01 00 00 0F 03 53 FA 
   436)      9518.1  Rx     0011FA53  5  01 00 00 53 FA 
   437)      9523.0  Rx     00016FB2  7  01 00 00 0F 03 B2 6F 
   438)      9523.1  Rx     00116FB2  5  01 00 00 B2 6F 
   439)      9528.0  Rx     0001AD4C  7  01 00 00 0F 03 4C AD 
   440)      9528.1  Rx     0011AD4C  5  01 00 00 4C AD 
   441)      9533.0  Rx     00010829  7  01 00 00 0F 03 29 08 
   442)      9533.2  Rx     00110829  5  01 00 00 29 08 
   443)      9538.0  Rx     000187A2  7  01 00 00 0F 03 A2 87 
   444)      9538.1  Rx     001187A2  5  01 00 00 A2 87 
   445)      9543.0  Rx     0001F027  7  01 00 00 0F 03 27 F0 
   446)      9543.1  Rx     0011F027  5  01 00 00 27 F0 
   447)      9548.0  Rx     0001FBDA  7  01 00 00 0F 03 DA FB 
   448)      9548.1  Rx     0011FBDA  5  01 00 00 DA FB 
   449)      9553.0  Rx     000151FD  7  01 00 00 0F 03 FD 51 
   450)      9553.1  Rx     001151FD  5  01 00 00 FD 51 
   451)      9558.0  Rx     00014CD2  7  01 00 00 0F 03 D2 4C 
   452)      9558.2  Rx     00114CD2  5  01 00 00 D2 4C 
   453)      9563.0  Rx     00018528  7  01 00 00 0F 03 28 85 
   454)      9563.1  Rx     00118528  5  01 00 00 28 85 
   455)      9568.0  Rx     0001030E  7  01 00 00 0F 03 0E 03 
   456)      9568.1  Rx     0011030E  5  01 00 00 0E 03 
   457)      9573.0  Rx     0001BF7C  7  01 00 00 0F 03 7C BF 
   458)      9573.1  Rx     0011BF7C  5  01 00 00 7C BF 
   459)      9578.0  Rx     00012ABB  7  01 00 00 0F 03 BB 2A 
   460)      9578.1  Rx     00112ABB  5  01 00 00 BB 2A 
   461)      9583.0  Rx     00014C21  7  01 00 00 0F 03 21 4C 
   462)      9583.1  Rx     00114C21  5  01 00 00 21 4C 
   463)      9588.0  Rx     00017C6C  7  01 00 00 0F 03 6C 7C 
   464)      9588.2  Rx     00117C6C  5  01 00 00 6C 7C 
   465)      9593.0  Rx     0001BD84  7  01 00 00 0F 03 84 BD 
   466)      9593.1  Rx     0011BD84  5  01 00 00 84 BD 
   467)      9598.0  Rx     0001871E  7  01 00 00 0F 03 1E 87 
   468)      9598.1  Rx     0011871E  5  01 00 00 1E 87 
   469)      9603.0  Rx     0001E2E6  7  01 00 00 0F 03 E6 E2 
   470)      9603.1  Rx     0011E2E6  5  01 00 00 E6 E2 
   471)      9608.0  Rx     0001CCFF  7  01 00 00 0F 03 FF CC 
   472)      9608.1  Rx     0011CCFF  5  01 00 00 FF CC 
   473)      9613.0  Rx     0001CC38  7  01 00 00 0F 03 38 CC 
   474)      9613.2  Rx     0011CC38  5  01 00 00 38 CC 
   475)      9618.0  Rx     00014910  7  01 00 00 0F 03 10 49 
   476)      9618.1  Rx     00114910  5  01 00 00 10 49 
   477)      9623.0  Rx     00014660  7  01 00 00 0F 03 60 46 
   478)      9623.1  Rx     00114660  5  01 00 00 60 46 
   479)      9628.0  Rx     0001469C  7  01 00 00 0F 03 9C 46 
   480)      9628.1  Rx     0011469C  5  01 00 00 9C 46 
   481)      9633.0  Rx     00011015  7  01 00 00 0F 03 15 10 
   482)      9633.1  Rx     00111015  5  01 00 00 15 10 
   483)      9638.0  Rx     0001901A  7  01 00 00 0F 03 1A 90 
   484)      9638.1  Rx     0011901A  5  01 00 00 1A 90 
   485)      9643.0  Rx     00011B03  7  01 00 00 0F 03 03 1B 
   486)      9643.1  Rx     00111B03  5  01 00 00 03 1B 
   487)      9648.0  Rx     000181E9  7  01 00 00 0F 03 E9 81 
   488)      9648.1  Rx     001181E9  5  01 00 00 E9 81 
   489)      9653.0  Rx     0001DAC6  7  01 00 00 0F 03 C6 DA 
   490)      9653.1  Rx     0011DAC6  5  01 00 00 C6 DA 
   491)      9658.0  Rx     00018E1B  7  01 00 00 0F 03 1B 8E 
   492)      9658.1  Rx     00118E1B  5  01 00 00 1B 8E 
   493)      9663.0  Rx     00019306  7  01 00 00 0F 03 06 93 
   494)      9663.1  Rx     00119306  5  01 00 00 06 93 
   495)      9668.0  Rx     0001BD1C  7  01 00 00 0F 03 1C BD 
   496)      9668.1  Rx     0011BD1C  5  01 00 00 1C BD 
   497)      9673.0  Rx     00013BB8  7  01 00 00 0F 03 B8 3B 
   498)      9673.1  Rx     00113BB8  5  01 00 00 B8 3B 
   499)      9678.0  Rx     00014BF4  7  01 00 00 0F 03 F4 4B 
   500)      9678.1  Rx     00114BF4  5  01 00 00 F4 4B 
   501)      9683.0  Rx     00018650  7  01 00 00 0F 03 50 86 
   502)      9683.1  Rx     00118650  5  01 00 00 50 86 
   503)      9688.0  Rx     00011383  7  01 00 00 0F 03 83 13 
   504)      9688.1  Rx     00111383  5  01 00 00 83 13 
   505)      9693.0  Rx     0001A46C  7  01 00 00 0F 03 6C A4 
   506)      9693.1  Rx     0011A46C  5  01 00 00 6C A4 
   507)      9698.0  Rx     000184E2  7  01 00 00 0F 03 E2 84 
   508)      9698.1  Rx     001184E2  5  01 00 00 E2 84 
   509)      9703.0  Rx     00019434  7  01 00 00 0F 03 34 94 
   510)      9703.1  Rx     00119434  5  01 00 00 34 94 
   511)      9708.0  Rx     0001CDC7  7  01 00 00 0F 03 C7 CD 
   512)      9708.1  Rx     0011CDC7  5  01 00 00 C7 CD 
   513)      9713.0  Rx     0001648E  7  01 00 00 0F 03 8E 64 
   514)      9713.1  Rx     0011648E  5  01 00 00 8E 64 
   515)      9718.0  Rx     00017CA8  7  01 00 00 0F 03 A8 7C 
   516)      9718.1  Rx     00117CA8  5  01 00 00 A8 7C 
   517)      9723.0  Rx     000126DB  7  01 00 00 0F 03 DB 26 
   518)      9723.1  Rx     001126DB  5  01 00 00 DB 26 
   519)      9728.0  Rx     0001D2EF  7  01 00 00 0F 03 EF D2 
   520)      9728.1  Rx     0011D2EF  5  01 00 00 EF D2 
   521)      9733.0  Rx     000135C9  7  01 00 00 0F 03 C9 35 
   522)      9733.1  Rx     001135C9  5  01 00 00 C9 35 
   523)      9738.0  Rx     0001BC74  7  01 00 00 0F 03 74 BC 
   524)      9738.1  Rx     0011BC74  5  01 00 00 74 BC 
   525)      9743.0  Rx     00017084  7  01 00 00 0F 03 84 70 
   526)      9743.1  Rx     00117084  5  01 00 00 84 70 
   527)      9748.0  Rx     0001CA25  7  01 00 00 0F 03 25 CA 
   528)      9748.1  Rx     0011CA25  5  01 00 00 25 CA 
   529)      9753.0  Rx     0001DF57  7  01 00 00 0F 03 57 DF 
   530)      9753.1  Rx     0011DF57  5  01 00 00 57 DF 
   531)      9758.0  Rx     0001EE7E  7  01 00 00 0F 03 7E EE 
   532)      9758.1  Rx     0011EE7E  5  01 00 00 7E EE 
   533)      9763.0  Rx     0001A66E  7  01 00 00 0F 03 6E A6 
   534)      9763.1  Rx     0011A66E  5  01 00 00 6E A6 
   535)      9768.0  Rx     0001913B  7  01 00 00 0F 03 3B 91 
   536)      9768.1  Rx     0011913B  5  01 00 00 3B 91 
   537)      9773.0  Rx     0001B55A  7  01 00 00 0F 03 5A B5 
   538)      9773.1  Rx     0011B55A  5  01 00 00 5A B5 
   539)      9778.0  Rx     0001AC70  7  01 00 00 0F 03 70 AC 
   540)      9778.1  Rx     0011AC70  5  01 00 00 70 AC 
   541)      9783.0  Rx     0001E990  7  01 00 00 0F 03 90 E9 
   542)      9783.1  Rx     0011E990  5  01 00 00 90 E9 
   543)      9788.0  Rx     000173EB  7  01 00 00 0F 03 EB 73 
   544)      9788.1  Rx     001173EB  5  01 00 00 EB 73 
   545)      9793.0  Rx     000133ED  7  01 00 00 0F 03 ED 33 
   546)      9793.1  Rx     001133ED  5  01 00 00 ED 33 
   547)      9798.0  Rx     00014888  7  01 00 00 0F 03 88 48 
   548)      9798.1  Rx     00114888  5  01 00 00 88 48 
   549)      9803.0  Rx     0001690D  7  01 00 00 0F 03 0D 69 
   550)      9803.1  Rx     0011690D  5  01 00 00 0D 69 
   551)      9808.0  Rx     000187E0  7  01 00 00 0F 03 E0 87 
   552)      9808.1  Rx     001187E0  5  01 00 00 E0 87 
   553)      9813.0  Rx     00017DF8  7  01 00 00 0F 03 F8 7D 
   554)      9813.1  Rx     00117DF8  5  01 00 00 F8 7D 
   555)      9818.0  Rx     0001B57E  7  01 00 00 0F 03 7E B5 
   556)      9818.1  Rx     0011B57E  5  01 00 00 7E B5 
   557)      9823.0  Rx     00017669  7  01 00 00 0F 03 69 76 
   558)      9823.1  Rx     00117669  5  01 00 00 69 76 
   559)      9828.0  Rx     0001F978  7  01 00 00 0F 03 78 F9 
   560)      9828.1  Rx     0011F978  5  01 00 00 78 F9 
   561)      9833.0  Rx     00010FC6  7  01 00 00 0F 03 C6 0F 
   562)      9833.1  Rx     00110FC6  5  01 00 00 C6 0F 
   563)      9838.0  Rx     00013125  7  01 00 00 0F 03 25 31 
   564)      9838.1  Rx     00113125  5  01 00 00 25 31 
   565)      9843.0  Rx     0001837B  7  01 00 00 0F 03 7B 83 
   566)      9843.1  Rx     0011837B  5  01 00 00 7B 83 
   567)      9848.0  Rx     00015D46  7  01 00 00 0F 03 46 5D 
   568)      9848.1  Rx     00115D46  5  01 00 00 46 5D 
   569)      9853.0  Rx     00011D57  7  01 00 00 0F 03 57 1D 
   570)      9853.1  Rx     00111D57  5  01 00 00 57 1D 
   571)      9858.0  Rx     000131D3  7  01 00 00 0F 03 D3 31 
   572)      9858.1  Rx     001131D3  5  01 00 00 D3 31 
   573)      9863.0  Rx     00013E21  7  01 00 00 0F 03 21 3E 
   574)      9863.1  Rx     00113E21  5  01 00 00 21 3E 
   575)      9868.0  Rx     0001FE59  7  01 00 00 0F 03 59 FE 
   576)      9868.1  Rx     0011FE59  5  01 00 00 59 FE 
   577)      9873.0  Rx     00015476  7  01 00 00 0F 03 76 54 
   578)      9873.1  Rx     00115476  5  01 00 00 76 54 
   579)      9878.0  Rx     00012E81  7  01 00 00 0F 03 81 2E 
   580)      9878.1  Rx     00112E81  5  01 00 00 81 2E 
   581)      9882.9  Rx     0001A9B6  7  01 00 00 0F 03 B6 A9 
   582)      9883.1  Rx     0011A9B6  5  01 00 00 B6 A9 
   583)      9888.0  Rx     0001313E  7  01 00 00 0F 03 3E 31 
   584)      9888.1  Rx     0011313E  5  01 00 00 3E 31 
   585)      9893.0  Rx     00015289  7  01 00 00 0F 03 89 52 
   586)      9893.1  Rx     00115289  5  01 00 00 89 52 
   587)      9898.0  Rx     000165B1  7  01 00 00 0F 03 B1 65 
   588)      9898.1  Rx     001165B1  5  01 00 00 B1 65 
   589)      9903.0  Rx     00011E43  7  01 00 00 0F 03 43 1E 
   590)      9903.1  Rx     00111E43  5  01 00 00 43 1E 
   591)      9908.0  Rx     00019BC5  7  01 00 00 0F 03 C5 9B 
   592)      9908.1  Rx     00119BC5  5  01 00 00 C5 9B 
   593)      9912.9  Rx     0001262A  7  01 00 00 0F 03 2A 26 
   594)      9913.1  Rx     0011262A  5  01 00 00 2A 26 
   595)      9918.0  Rx     0001BF13  7  01 00 00 0F 03 13 BF 
   596)      9918.1  Rx     0011BF13  5  01 00 00 13 BF 
   597)      9923.0  Rx     00015976  7  01 00 00 0F 03 76 59 
   598)      9923.1  Rx     00115976  5  01 00 00 76 59 
   599)      9928.0  Rx     00018986  7  01 00 00 0F 03 86 89 
   600)      9928.1  Rx     00118986  5  01 00 00 86 89 
   601)      9933.0  Rx     00010479  7  01 00 00 0F 03 79 04 
   602)      9933.1  Rx     00110479  5  01 00 00 79 04 
   603)      9937.9  Rx     00018BE5  7  01 00 00 0F 03 E5 8B 
   604)      9938.1  Rx     00118BE5  5  01 00 00 E5 8B 
   605)      9943.0  Rx     00019D55  7  01 00 00 0F 03 55 9D 
   606)      9943.1  Rx     00119D55  5  01 00 00 55 9D 
   607)      9948.0  Rx     00014921  7  01 00 00 0F 03 21 49 
   608)      9948.1  Rx     00114921  5  01 00 00 21 49 
   609)      9953.0  Rx     0001BE2E  7  01 00 00 0F 03 2E BE 
   610)      9953.1  Rx     0011BE2E  5  01 00 00 2E BE 
   611)      9958.0  Rx     0001521D  7  01 00 00 0F 03 1D 52 
   612)      9958.1  Rx     0011521D  5  01 00 00 1D 52 
   613)      9962.9  Rx     0001B0B2  7  01 00 00 0F 03 B2 B0 
   614)      9963.1  Rx     0011B0B2  5  01 00 00 B2 B0 
   615)      9967.9  Rx     00016A48  7  01 00 00 0F 03 48 6A 
   616)      9968.1  Rx     00116A48  5  01 00 00 48 6A 
   617)      9973.0  Rx     00015471  7  01 00 00 0F 03 71 54 
   618)      9973.1  Rx     00115471  5  01 00 00 71 54 
   619)      9978.0  Rx     0001C248  7  01 00 00 0F 03 48 C2 
   620)      9978.1  Rx     0011C248  5  01 00 00 48 C2 
   621)      9983.0  Rx     0001F55C  7  01 00 00 0F 03 5C F5 
   622)      9983.1  Rx     0011F55C  5  01 00 00 5C F5 
   623)      9987.9  Rx     0001047E  7  01 00 00 0F 03 7E 04 
   624)      9988.1  Rx     0011047E  5  01 00 00 7E 04 
   625)      9992.9  Rx     00019168  7  01 00 00 0F 03 68 91 
   626)      9993.1  Rx     00119168  5  01 00 00 68 91 
   627)      9997.9  Rx     00014C2F  7  01 00 00 0F 03 2F 4C 
   628)      9998.1  Rx     00114C2F  5  01 00 00 2F 4C 
   629)     10003.0  Rx     0001781A  7  01 00 00 0F 03 1A 78 
   630)     10003.1  Rx     0011781A  5  01 00 00 1A 78 
   631)     10008.0  Rx     0001329C  7  01 00 00 0F 03 9C 32 
   632)     10008.1  Rx     0011329C  5  01 00 00 9C 32 
   633)     10013.0  Rx     00019094  7  01 00 00 0F 03 94 90 
   634)     10013.1  Rx     00119094  5  01 00 00 94 90 
   635)     10017.9  Rx     0001263E  7  01 00 00 0F 03 3E 26 
   636)     10018.1  Rx     0011263E  5  01 00 00 3E 26 
   637)     10022.9  Rx     00010A58  7  01 00 00 0F 03 58 0A 
   638)     10023.1  Rx     00110A58  5  01 00 00 58 0A 
   639)     10028.0  Rx     00012B16  7  01 00 00 0F 03 16 2B 
   640)     10028.1  Rx     00112B16  5  01 00 00 16 2B 
   641)     10033.0  Rx     00014ADB  7  01 00 00 0F 03 DB 4A 
   642)     10033.0  Rx     00114ADB  5  01 00 00 DB 4A 
   643)     10038.0  Rx     0001F7A4  7  01 00 00 0F 03 A4 F7 
   644)     10038.1  Rx     0011F7A4  5  01 00 00 A4 F7 
   645)     10042.9  Rx     0001399E  7  01 00 00 0F 03 9E 39 
   646)     10043.1  Rx     0011399E  5  01 00 00 9E 39 
   647)     10047.9  Rx     0001BD01  7  01 00 00 0F 03 01 BD 
   648)     10048.1  Rx     0011BD01  5  01 00 00 01 BD 
   649)     10052.9  Rx     00012E64  7  01 00 00 0F 03 64 2E 
   650)     10053.1  Rx     00112E64  5  01 00 00 64 2E 
   651)     10058.0  Rx     0001BD3A  7  01 00 00 0F 03 3A BD 
   652)     10058.0  Rx     0011BD3A  5  01 00 00 3A BD 
   653)     10063.0  Rx     000178C4  7  01 00 00 0F 03 C4 78 
   654)     10063.0  Rx     001178C4  5  01 00 00 C4 78 
   655)     10067.9  Rx     00018DD3  7  01 00 00 0F 03 D3 8D 
   656)     10068.1  Rx     00118DD3  5  01 00 00 D3 8D 
   657)     10072.9  Rx     0001B625  7  01 00 00 0F 03 25 B6 
   658)     10073.1  Rx     0011B625  5  01 00 00 25 B6 
   659)     10077.9  Rx     00019124  7  01 00 00 0F 03 24 91 
   660)     10078.1  Rx     00119124  5  01 00 00 24 91 
   661)     10083.0  Rx     000122E6  7  01 00 00 0F 03 E6 22 
   662)     10083.1  Rx     001122E6  5  01 00 00 E6 22 
   663)     10088.0  Rx     00015FE8  7  01 00 00 0F 03 E8 5F 
   664)     10088.1  Rx     00115FE8  5  01 00 00 E8 5F 
   665)     10092.9  Rx     0001E13D  7  01 00 00 0F 03 3D E1 
   666)     10093.1  Rx     0011E13D  5  01 00 00 3D E1 
   667)     10097.9  Rx     00017D38  7  01 00 00 0F 03 38 7D 
   668)     10098.1  Rx     00117D38  5  01 00 00 38 7D 
   669)     10102.9  Rx     00018818  7  01 00 00 0F 03 18 88 
   670)     10103.1  Rx     00118818  5  01 00 00 18 88 
   671)     10107.9  Rx     000171C8  7  01 00 00 0F 03 C8 71 
   672)     10108.1  Rx     001171C8  5  01 00 00 C8 71 
   673)     10113.0  Rx     0001DA02  7  01 00 00 0F 03 02 DA 
   674)     10113.0  Rx     0011DA02  5  01 00 00 02 DA 
   675)     10118.0  Rx     00014820  7  01 00 00 0F 03 20 48 
   676)     10118.1  Rx     00114820  5  01 00 00 20 48 
   677)     10122.9  Rx     000113D8  7  01 00 00 0F 03 D8 13 
   678)     10123.1  Rx     001113D8  5  01 00 00 D8 13 
   679)     10127.9  Rx     0001CA2A  7  01 00 00 0F 03 2A CA 
   680)     10128.1  Rx     0011CA2A  5  01 00 00 2A CA 
   681)     10132.9  Rx     000180D8  7  01 00 00 0F 03 D8 80 
   682)     10133.1  Rx     001180D8  5  01 00 00 D8 80 
   683)     10138.0  Rx     00014D41  7  01 00 00 0F 03 41 4D 
   684)     10138.0  Rx     00114D41  5  01 00 00 41 4D 
   685)     10143.0  Rx     00013147  7  01 00 00 0F 03 47 31 
   686)     10143.0  Rx     00113147  5  01 00 00 47 31 
   687)     10147.9  Rx     000184B6  7  01 00 00 0F 03 B6 84 
   688)     10148.0  Rx     001184B6  5  01 00 00 B6 84 
   689)     10152.9  Rx     0001F2C7  7  01 00 00 0F 03 C7 F2 
   690)     10153.1  Rx     0011F2C7  5  01 00 00 C7 F2 
   691)     10157.9  Rx     00013F5A  7  01 00 00 0F 03 5A 3F 
   692)     10158.1  Rx     00113F5A  5  01 00 00 5A 3F 
   693)     10162.9  Rx     00019516  7  01 00 00 0F 03 16 95 
   694)     10163.1  Rx     00119516  5  01 00 00 16 95 
   695)     10168.0  Rx     00012B8C  7  01 00 00 0F 03 8C 2B 
   696)     10168.0  Rx     00112B8C  5  01 00 00 8C 2B 
   697)     10172.9  Rx     00011FC9  7  01 00 00 0F 03 C9 1F 
   698)     10173.0  Rx     00111FC9  5  01 00 00 C9 1F 
   699)     10177.9  Rx     000101EB  7  01 00 00 0F 03 EB 01 
   700)     10178.1  Rx     001101EB  5  01 00 00 EB 01 
   701)     10182.9  Rx     00011D41  7  01 00 00 0F 03 41 1D 
   702)     10183.1  Rx     00111D41  5  01 00 00 41 1D 
   703)     10187.9  Rx     0001F188  7  01 00 00 0F 03 88 F1 
   704)     10188.1  Rx     0011F188  5  01 00 00 88 F1 
   705)     10192.9  Rx     000158E7  7  01 00 00 0F 03 E7 58 
   706)     10193.0  Rx     001158E7  5  01 00 00 E7 58 
   707)     10198.0  Rx     00017D5A  7  01 00 00 0F 03 5A 7D 
   708)     10198.0  Rx     00117D5A  5  01 00 00 5A 7D 
   709)     10202.9  Rx     0001F67D  7  01 00 00 0F 03 7D F6 
   710)     10203.1  Rx     0011F67D  5  01 00 00 7D F6 
   711)     10207.9  Rx     00011D42  7  01 00 00 0F 03 42 1D 
   712)     10208.1  Rx     00111D42  5  01 00 00 42 1D 
   713)     10212.9  Rx     0001F202  7  01 00 00 0F 03 02 F2 
   714)     10213.1  Rx     0011F202  5  01 00 00 02 F2 
   715)     10217.9  Rx     000165D6  7  01 00 00 0F 03 D6 65 
   716)     10218.0  Rx     001165D6  5  01 00 00 D6 65 
   717)     10223.0  Rx     0001A371  7  01 00 00 0F 03 71 A3 
   718)     10223.0  Rx     0011A371  5  01 00 00 71 A3 
   719)     10227.9  Rx     000144D7  7  01 00 00 0F 03 D7 44 
   720)     10228.0  Rx     001144D7  5  01 00 00 D7 44 
   721)     10232.9  Rx     0001AB71  7  01 00 00 0F 03 71 AB 
   722)     10233.1  Rx     0011AB71  5  01 00 00 71 AB 
   723)     10237.9  Rx     000108FA  7  01 00 00 0F 03 FA 08 
   724)     10238.1  Rx     001108FA  5  01 00 00 FA 08 
   725)     10242.9  Rx     000119A7  7  01 00 00 0F 03 A7 19 
   726)     10243.0  Rx     001119A7  5  01 00 00 A7 19 
   727)     10247.9  Rx     0001AA6A  7  01 00 00 0F 03 6A AA 
   728)     10248.0  Rx     0011AA6A  5  01 00 00 6A AA 
   729)     10252.9  Rx     0001674E  7  01 00 00 0F 03 4E 67 
   730)     10253.0  Rx     0011674E  5  01 00 00 4E 67 
   731)     10257.9  Rx     00012E30  7  01 00 00 0F 03 30 2E 
   732)     10258.1  Rx     00112E30  5  01 00 00 30 2E 
   733)     10262.9  Rx     0001C840  7  01 00 00 0F 03 40 C8 
   734)     10263.1  Rx     0011C840  5  01 00 00 40 C8 
   735)     10267.9  Rx     00018167  7  01 00 00 0F 03 67 81 
   736)     10268.1  Rx     00118167  5  01 00 00 67 81 
   737)     10272.9  Rx     0001A68F  7  01 00 00 0F 03 8F A6 
   738)     10273.0  Rx     0011A68F  5  01 00 00 8F A6 
   739)     10277.9  Rx     0001CDDB  7  01 00 00 0F 03 DB CD 
   740)     10278.0  Rx     0011CDDB  5  01 00 00 DB CD 
   741)     10282.9  Rx     0001A86A  7  01 00 00 0F 03 6A A8 
   742)     10283.0  Rx     0011A86A  5  01 00 00 6A A8 
   743)     10287.9  Rx     00014C8C  7  01 00 00 0F 03 8C 4C 
   744)     10288.1  Rx     00114C8C  5  01 00 00 8C 4C 
   745)     10292.9  Rx     00011DD6  7  01 00 00 0F 03 D6 1D 
   746)     10293.1  Rx     00111DD6  5  01 00 00 D6 1D 
   747)     10297.9  Rx     0001FF32  7  01 00 00 0F 03 32 FF 
   748)     10298.0  Rx     0011FF32  5  01 00 00 32 FF 
   749)     10302.9  Rx     00014F91  7  01 00 00 0F 03 91 4F 
   750)     10303.0  Rx     00114F91  5  01 00 00 91 4F 
   751)     10307.9  Rx     00011CA8  7  01 00 00 0F 03 A8 1C 
   752)     10308.0  Rx     00111CA8  5  01 00 00 A8 1C 
   753)     10312.9  Rx     00014609  7  01 00 00 0F 03 09 46 
   754)     10313.0  Rx     00114609  5  01 00 00 09 46 
   755)     10317.9  Rx     0001A4ED  7  01 00 00 0F 03 ED A4 
   756)     10318.1  Rx     0011A4ED  5  01 00 00 ED A4 
   757)     10322.9  Rx     0001F356  7  01 00 00 0F 03 56 F3 
   758)     10323.0  Rx     0011F356  5  01 00 00 56 F3 
   759)     10327.9  Rx     0001EC20  7  01 00 00 0F 03 20 EC 
   760)     10328.0  Rx     0011EC20  5  01 00 00 20 EC 
   761)     10332.9  Rx     0001E4A0  7  01 00 00 0F 03 A0 E4 
   762)     10333.0  Rx     0011E4A0  5  01 00 00 A0 E4 
   763)     10337.9  Rx     00016CA1  7  01 00 00 0F 03 A1 6C 
   764)     10338.0  Rx     00116CA1  5  01 00 00 A1 6C 
   765)     10342.9  Rx     00019343  7  01 00 00 0F 03 43 93 
   766)     10343.0  Rx     00119343  5  01 00 00 43 93 
   767)     10347.9  Rx     0001F736  7  01 00 00 0F 03 36 F7 
   768)     10348.0  Rx     0011F736  5  01 00 00 36 F7 
   769)     10352.9  Rx     0001ABC0  7  01 00 00 0F 03 C0 AB 
   770)     10353.0  Rx     0011ABC0  5  01 00 00 C0 AB 
   771)     10357.9  Rx     000164EB  7  01 00 00 0F 03 EB 64 
   772)     10358.0  Rx     001164EB  5  01 00 00 EB 64 
   773)     10362.9  Rx     0001F43B  7  01 00 00 0F 03 3B F4 
   774)     10363.0  Rx     0011F43B  5  01 00 00 3B F4 
   775)     10367.9  Rx     0001E908  7  01 00 00 0F 03 08 E9 
   776)     10368.0  Rx     0011E908  5  01 00 00 08 E9 
   777)     10372.9  Rx     0001B20B  7  01 00 00 0F 03 0B B2 
   778)     10373.1  Rx     0011B20B  5  01 00 00 0B B2 
   779)     10377.9  Rx     0001024E  7  01 00 00 0F 03 4E 02 
   780)     10378.0  Rx     0011024E  5  01 00 00 4E 02 
   781)     10382.9  Rx     0001B5B2  7  01 00 00 0F 03 B2 B5 
   782)     10383.0  Rx     0011B5B2  5  01 00 00 B2 B5 
   783)     10387.9  Rx     0001615A  7  01 00 00 0F 03 5A 61 
   784)     10388.0  Rx     0011615A  5  01 00 00 5A 61 
   785)     10392.9  Rx     00012634  7  01 00 00 0F 03 34 26 
   786)     10393.0  Rx     00112634  5  01 00 00 34 26 
   787)     10397.9  Rx     0001CADC  7  01 00 00 0F 03 DC CA 
   788)     10398.0  Rx     0011CADC  5  01 00 00 DC CA 
   789)     10402.9  Rx     000160A0  7  01 00 00 0F 03 A0 60 
   790)     10403.0  Rx     001160A0  5  01 00 00 A0 60 
   791)     10407.9  Rx     00010F12  7  01 00 00 0F 03 12 0F 
   792)     10408.0  Rx     00110F12  5  01 00 00 12 0F 
   793)     10412.9  Rx     0001BA54  7  01 00 00 0F 03 54 BA 
   794)     10413.0  Rx     0011BA54  5  01 00 00 54 BA 
   795)     10417.9  Rx     00013497  7  01 00 00 0F 03 97 34 
   796)     10418.0  Rx     00113497  5  01 00 00 97 34 
   797)     10422.9  Rx     00017C36  7  01 00 00 0F 03 36 7C 
   798)     10423.0  Rx     00117C36  5  01 00 00 36 7C 
   799)     10427.9  Rx     00011F86  7  01 00 00 0F 03 86 1F 
   800)     10428.0  Rx     00111F86  5  01 00 00 86 1F 
   801)     10432.9  Rx     000142FE  7  01 00 00 0F 03 FE 42 
   802)     10433.0  Rx     001142FE  5  01 00 00 FE 42 
   803)     10437.9  Rx     00017E94  7  01 00 00 0F 03 94 7E 
   804)     10438.0  Rx     00117E94  5  01 00 00 94 7E 
   805)     10442.9  Rx     0001984D  7  01 00 00 0F 03 4D 98 
   806)     10443.0  Rx     0011984D  5  01 00 00 4D 98 
   807)     10447.9  Rx     00018E78  7  01 00 00 0F 03 78 8E 
   808)     10448.0  Rx     00118E78  5  01 00 00 78 8E 
   809)     10452.9  Rx     00015214  7  01 00 00 0F 03 14 52 
   810)     10453.0  Rx     00115214  5  01 00 00 14 52 
   811)     10457.9  Rx     00016CE3  7  01 00 00 0F 03 E3 6C 
   812)     10458.0  Rx     00116CE3  5  01 00 00 E3 6C 
   813)     10462.9  Rx     000161A2  7  01 00 00 0F 03 A2 61 
   814)     10463.0  Rx     001161A2  5  01 00 00 A2 61 
   815)     10467.9  Rx     000166DC  7  01 00 00 0F 03 DC 66 
   816)     10468.0  Rx     001166DC  5  01 00 00 DC 66 
   817)     10472.9  Rx     0001B157  7  01 00 00 0F 03 57 B1 
   818)     10473.0  Rx     0011B157  5  01 00 00 57 B1 
   819)     10477.9  Rx     00012731  7  01 00 00 0F 03 31 27 
   820)     10478.0  Rx     00112731  5  01 00 00 31 27 
   821)     10482.9  Rx     0001AFC3  7  01 00 00 0F 03 C3 AF 
   822)     10483.0  Rx     0011AFC3  5  01 00 00 C3 AF 
   823)     10487.9  Rx     00011860  7  01 00 00 0F 03 60 18 
   824)     10488.0  Rx     00111860  5  01 00 00 60 18 
   825)     10492.9  Rx     000104BF  7  01 00 00 0F 03 BF 04 
   826)     10493.0  Rx     001104BF  5  01 00 00 BF 04 
   827)     10497.9  Rx     0001FE29  7  01 00 00 0F 03 29 FE 
   828)     10498.0  Rx     0011FE29  5  01 00 00 29 FE 
   829)     10502.9  Rx     00018CC6  7  01 00 00 0F 03 C6 8C 
   830)     10503.0  Rx     00118CC6  5  01 00 00 C6 8C 
   831)     10507.9  Rx     0001D5A8  7  01 00 00 0F 03 A8 D5 
   832)     10508.0  Rx     0011D5A8  5  01 00 00 A8 D5 
   833)     10512.9  Rx     0001548F  7  01 00 00 0F 03 8F 54 
   834)     10513.0  Rx     0011548F  5  01 00 00 8F 54 
   835)     10517.9  Rx     00014B9E  7  01 00 00 0F 03 9E 4B 
   836)     10518.0  Rx     00114B9E  5  01 00 00 9E 4B 
   837)     10522.9  Rx     00015EBE  7  01 00 00 0F 03 BE 5E 
   838)     10523.0  Rx     00115EBE  5  01 00 00 BE 5E 
   839)     10527.9  Rx     0001CB5C  7  01 00 00 0F 03 5C CB 
   840)     10528.0  Rx     0011CB5C  5  01 00 00 5C CB 
   841)     10532.9  Rx     00019B27  7  01 00 00 0F 03 27 9B 
   842)     10533.0  Rx     00119B27  5  01 00 00 27 9B 
   843)     10537.9  Rx     00012D6A  7  01 00 00 0F 03 6A 2D 
   844)     10538.0  Rx     00112D6A  5  01 00 00 6A 2D 
   845)     10542.9  Rx     0001DAEE  7  01 00 00 0F 03 EE DA 
   846)     10543.0  Rx     0011DAEE  5  01 00 00 EE DA 
   847)     10547.9  Rx     00017FE2  7  01 00 00 0F 03 E2 7F 
   848)     10548.0  Rx     00117FE2  5  01 00 00 E2 7F 
   849)     10552.9  Rx     00014A97  7  01 00 00 0F 03 97 4A 
   850)     10553.0  Rx     00114A97  5  01 00 00 97 4A 
   851)     10557.9  Rx     00016F14  7  01 00 00 0F 03 14 6F 
   852)     10558.0  Rx     00116F14  5  01 00 00 14 6F 
   853)     10562.9  Rx     00011EBA  7  01 00 00 0F 03 BA 1E 
   854)     10563.0  Rx     00111EBA  5  01 00 00 BA 1E 
   855)     10567.9  Rx     000127EA  7  01 00 00 0F 03 EA 27 
   856)     10568.0  Rx     001127EA  5  01 00 00 EA 27 
   857)     10572.9  Rx     0001F5F7  7  01 00 00 0F 03 F7 F5 
   858)     10573.0  Rx     0011F5F7  5  01 00 00 F7 F5 
   859)     10577.9  Rx     00013A33  7  01 00 00 0F 03 33 3A 
   860)     10578.0  Rx     00113A33  5  01 00 00 33 3A 
   861)     10582.9  Rx     0001CA61  7  01 00 00 0F 03 61 CA 
   862)     10583.0  Rx     0011CA61  5  01 00 00 61 CA 
   863)     10587.9  Rx     0001EBAE  7  01 00 00 0F 03 AE EB 
   864)     10588.0  Rx     0011EBAE  5  01 00 00 AE EB 
   865)     10592.9  Rx     0001CA78  7  01 00 00 0F 03 78 CA 
   866)     10593.0  Rx     0011CA78  5  01 00 00 78 CA 
   867)     10597.9  Rx     0001FD94  7  01 00 00 0F 03 94 FD 
   868)     10598.0  Rx     0011FD94  5  01 00 00 94 FD 
   869)     10602.9  Rx     0001056B  7  01 00 00 0F 03 6B 05 
   870)     10603.0  Rx     0011056B  5  01 00 00 6B 05 
   871)     10607.9  Rx     00012CF5  7  01 00 00 0F 03 F5 2C 
   872)     10608.0  Rx     00112CF5  5  01 00 00 F5 2C 
   873)     10612.9  Rx     00013038  7  01 00 00 0F 03 38 30 
   874)     10613.0  Rx     00113038  5  01 00 00 38 30 
   875)     10617.9  Rx     00013F1C  7  01 00 00 0F 03 1C 3F 
   876)     10618.0  Rx     00113F1C  5  01 00 00 1C 3F 
   877)     10622.9  Rx     000194E3  7  01 00 00 0F 03 E3 94 
   878)     10623.0  Rx     001194E3  5  01 00 00 E3 94 
   879)     10627.9  Rx     000101DB  7  01 00 00 0F 03 DB 01 
   880)     10628.0  Rx     001101DB  5  01 00 00 DB 01 
   881)     10632.9  Rx     000152D9  7  01 00 00 0F 03 D9 52 
   882)     10633.0  Rx     001152D9  5  01 00 00 D9 52 
   883)     10637.9  Rx     0001586E  7  01 00 00 0F 03 6E 58 
   884)     10638.0  Rx     0011586E  5  01 00 00 6E 58 
   885)     10642.9  Rx     0001EF44  7  01 00 00 0F 03 44 EF 
   886)     10643.0  Rx     0011EF44  5  01 00 00 44 EF 
   887)     10647.9  Rx     00014852  7  01 00 00 0F 03 52 48 
   888)     10648.0  Rx     00114852  5  01 00 00 52 48 
   889)     10652.9  Rx     0001A5D0  7  01 00 00 0F 03 D0 A5 
   890)     10653.0  Rx     0011A5D0  5  01 00 00 D0 A5 
   891)     10657.9  Rx     00015A4B  7  01 00 00 0F 03 4B 5A 
   892)     10658.0  Rx     00115A4B  5  01 00 00 4B 5A 
   893)     10662.9  Rx     00012E33  7  01 00 00 0F 03 33 2E 
   894)     10663.0  Rx     00112E33  5  01 00 00 33 2E 
   895)     10667.9  Rx     00012E67  7  01 00 00 0F 03 67 2E 
   896)     10668.0  Rx     00112E67  5  01 00 00 67 2E 
   897)     10672.9  Rx     0001807D  7  01 00 00 0F 03 7D 80 
   898)     10673.0  Rx     0011807D  5  01 00 00 7D 80 
   899)     10677.9  Rx     0001CEBC  7  01 00 00 0F 03 BC CE 
   900)     10678.0  Rx     0011CEBC  5  01 00 00 BC CE 
   901)     10682.9  Rx     000151F1  7  01 00 00 0F 03 F1 51 
   902)     10683.0  Rx     001151F1  5  01 00 00 F1 51 
   903)     10687.9  Rx     00015744  7  01 00 00 0F 03 44 57 
   904)     10688.0  Rx     00115744  5  01 00 00 44 57 
   905)     10692.8  Rx     0001C1FD  7  01 00 00 0F 03 FD C1 
   906)     10693.0  Rx     0011C1FD  5  01 00 00 FD C1 
   907)     10697.8  Rx     00018DF2  7  01 00 00 0F 03 F2 8D 
   908)     10698.0  Rx     00118DF2  5  01 00 00 F2 8D 
   909)     10702.9  Rx     0001268D  7  01 00 00 0F 03 8D 26 
   910)     10703.0  Rx     0011268D  5  01 00 00 8D 26 
   911)     10707.9  Rx     000140F9  7  01 00 00 0F 03 F9 40 
   912)     10708.0  Rx     001140F9  5  01 00 00 F9 40 
   913)     10712.9  Rx     000130C2  7  01 00 00 0F 03 C2 30 
   914)     10713.0  Rx     001130C2  5  01 00 00 C2 30 
   915)     10717.8  Rx     000199E8  7  01 00 00 0F 03 E8 99 
   916)     10718.0  Rx     001199E8  5  01 00 00 E8 99 
   917)     10722.8  Rx     000166DC  7  01 00 00 0F 03 DC 66 
   918)     10723.0  Rx     001166DC  5  01 00 00 DC 66 
   919)     10727.9  Rx     00019AF9  7  01 00 00 0F 03 F9 9A 
   920)     10728.0  Rx     00119AF9  5  01 00 00 F9 9A 
   921)     10732.9  Rx     000139DF  7  01 00 00 0F 03 DF 39 
   922)     10733.0  Rx     001139DF  5  01 00 00 DF 39 
   923)     10737.9  Rx     0001D4CC  7  01 00 00 0F 03 CC D4 
   924)     10738.0  Rx     0011D4CC  5  01 00 00 CC D4 
   925)     10742.9  Rx     0001C529  7  01 00 00 0F 03 29 C5 
   926)     10743.0  Rx     0011C529  5  01 00 00 29 C5 
   927)     10747.8  Rx     00017D65  7  01 00 00 0F 03 65 7D 
   928)     10748.0  Rx     00117D65  5  01 00 00 65 7D 
   929)     10752.8  Rx     00016023  7  01 00 00 0F 03 23 60 
   930)     10753.0  Rx     00116023  5  01 00 00 23 60 
   931)     10757.9  Rx     0001EA22  7  01 00 00 0F 03 22 EA 
   932)     10758.0  Rx     0011EA22  5  01 00 00 22 EA 
   933)     10762.9  Rx     000109AC  7  01 00 00 0F 03 AC 09 
   934)     10762.9  Rx     001109AC  5  01 00 00 AC 09 
   935)     10767.9  Rx     0001D10B  7  01 00 00 0F 03 0B D1 
   936)     10768.0  Rx     0011D10B  5  01 00 00 0B D1 
   937)     10772.8  Rx     0001EAEB  7  01 00 00 0F 03 EB EA 
   938)     10773.0  Rx     0011EAEB  5  01 00 00 EB EA 
   939)     10777.8  Rx     000112A4  7  01 00 00 0F 03 A4 12 
   940)     10778.0  Rx     001112A4  5  01 00 00 A4 12 
   941)     10782.8  Rx     00010ABB  7  01 00 00 0F 03 BB 0A 
   942)     10783.0  Rx     00110ABB  5  01 00 00 BB 0A 
   943)     10787.9  Rx     0001902C  7  01 00 00 0F 03 2C 90 
   944)     10788.0  Rx     0011902C  5  01 00 00 2C 90 
   945)     10792.9  Rx     000148B7  7  01 00 00 0F 03 B7 48 
   946)     10792.9  Rx     001148B7  5  01 00 00 B7 48 
   947)     10797.8  Rx     0001E2EB  7  01 00 00 0F 03 EB E2 
   948)     10798.0  Rx     0011E2EB  5  01 00 00 EB E2 
   949)     10802.8  Rx     0001CAC1  7  01 00 00 0F 03 C1 CA 
   950)     10803.0  Rx     0011CAC1  5  01 00 00 C1 CA 
   951)     10807.8  Rx     00012400  7  01 00 00 0F 03 00 24 
   952)     10808.0  Rx     00112400  5  01 00 00 00 24 
   953)     10812.9  Rx     0001DD79  7  01 00 00 0F 03 79 DD 
   954)     10813.0  Rx     0011DD79  5  01 00 00 79 DD 
   955)     10817.9  Rx     00011CCF  7  01 00 00 0F 03 CF 1C 
   956)     10817.9  Rx     00111CCF  5  01 00 00 CF 1C 
   957)     10822.9  Rx     000193F1  7  01 00 00 0F 03 F1 93 
   958)     10823.0  Rx     001193F1  5  01 00 00 F1 93 
   959)     10827.8  Rx     0001A6F9  7  01 00 00 0F 03 F9 A6 
   960)     10828.0  Rx     0011A6F9  5  01 00 00 F9 A6 
   961)     10832.8  Rx     00014CB0  7  01 00 00 0F 03 B0 4C 
   962)     10833.0  Rx     00114CB0  5  01 00 00 B0 4C 
   963)     10837.8  Rx     00018F8D  7  01 00 00 0F 03 8D 8F 
   964)     10838.0  Rx     00118F8D  5  01 00 00 8D 8F 
   965)     10842.9  Rx     0001EDBA  7  01 00 00 0F 03 BA ED 
   966)     10842.9  Rx     0011EDBA  5  01 00 00 BA ED 
   967)     10847.9  Rx     000133CA  7  01 00 00 0F 03 CA 33 
   968)     10847.9  Rx     001133CA  5  01 00 00 CA 33 
   969)     10852.8  Rx     00014F37  7  01 00 00 0F 03 37 4F 
   970)     10853.0  Rx     00114F37  5  01 00 00 37 4F 
   971)     10857.8  Rx     0001BEAD  7  01 00 00 0F 03 AD BE 
   972)     10858.0  Rx     0011BEAD  5  01 00 00 AD BE 
   973)     10862.8  Rx     0001C3F8  7  01 00 00 0F 03 F8 C3 
   974)     10863.0  Rx     0011C3F8  5  01 00 00 F8 C3 
   975)     10867.9  Rx     00014526  7  01 00 00 0F 03 26 45 
   976)     10867.9  Rx     00114526  5  01 00 00 26 45 
   977)     10872.9  Rx     000100DD  7  01 00 00 0F 03 DD 00 
   978)     10872.9  Rx     001100DD  5  01 00 00 DD 00 
   979)     10877.8  Rx     0001EBA0  7  01 00 00 0F 03 A0 EB 
   980)     10878.0  Rx     0011EBA0  5  01 00 00 A0 EB 
   981)     10882.8  Rx     000163EF  7  01 00 00 0F 03 EF 63 
   982)     10883.0  Rx     001163EF  5  01 00 00 EF 63 
   983)     10887.8  Rx     00010247  7  01 00 00 0F 03 47 02 
   984)     10888.0  Rx     00110247  5  01 00 00 47 02 
   985)     10892.8  Rx     0001ADB3  7  01 00 00 0F 03 B3 AD 
   986)     10893.0  Rx     0011ADB3  5  01 00 00 B3 AD 
   987)     10897.9  Rx     0001AA2C  7  01 00 00 0F 03 2C AA 
   988)     10897.9  Rx     0011AA2C  5  01 00 00 2C AA 
   989)     10902.8  Rx     00019AF7  7  01 00 00 0F 03 F7 9A 
   990)     10902.9  Rx     00119AF7  5  01 00 00 F7 9A 
   991)     10907.8  Rx     00017C35  7  01 00 00 0F 03 35 7C 
   992)     10908.0  Rx     00117C35  5  01 00 00 35 7C 
   993)     10912.8  Rx     00012B28  7  01 00 00 0F 03 28 2B 
   994)     10913.0  Rx     00112B28  5  01 00 00 28 2B 
   995)     10917.8  Rx     0001E787  7  01 00 00 0F 03 87 E7 
   996)     10918.0  Rx     0011E787  5  01 00 00 87 E7 
   997)     10922.8  Rx     0001C6F7  7  01 00 00 0F 03 F7 C6 
   998)     10922.9  Rx     0011C6F7  5  01 00 00 F7 C6 
   999)     10927.9  Rx     000113C2  7  01 00 00 0F 03 C2 13 
  1000)     10927.9  Rx     001113C2  5  01 00 00 C2 13 
  1001)     10932.8  Rx     000190D6  7  01 00 00 0F 03 D6 90 
  1002)     10933.0  Rx     001190D6  5  01 00 00 D6 90 
  1003)     10937.8  Rx     00018844  7  01 00 00 0F 03 44 88 
  1004)     10938.0  Rx     00118844  5  01 00 00 44 88 
  1005)     10942.8  Rx     0001D492  7  01 00 00 0F 03 92 D4 
  1006)     10943.0  Rx     0011D492  5  01 00 00 92 D4 
  1007)     10947.8  Rx     0001B457  7  01 00 00 0F 03 57 B4 
  1008)     10947.9  Rx     0011B457  5  01 00 00 57 B4 
  1009)     10952.8  Rx     0001B919  7  01 00 00 0F 03 19 B9 
  1010)     10952.9  Rx     0011B919  5  01 00 00 19 B9 
  1011)     10957.8  Rx     000160F1  7  01 00 00 0F 03 F1 60 
  1012)     10957.9  Rx     001160F1  5  01 00 00 F1 60 
  1013)     10962.8  Rx     00016B23  7  01 00 00 0F 03 23 6B 
  1014)     10962.9  Rx     00116B23  5  01 00 00 23 6B 
  1015)     10967.8  Rx     00014771  7  01 00 00 0F 03 71 47 
  1016)     10968.0  Rx     00114771  5  01 00 00 71 47 
  1017)     10972.8  Rx     0001CD63  7  01 00 00 0F 03 63 CD 
  1018)     10972.9  Rx     0011CD63  5  01 00 00 63 CD 
  1019)     10977.8  Rx     0001ED7C  7  01 00 00 0F 03 7C ED 
  1020)     10977.9  Rx     0011ED7C  5  01 00 00 7C ED 
  1021)     10982.8  Rx     0001DE69  7  01 00 00 0F 03 69 DE 
  1022)     10982.9  Rx     0011DE69  5  01 00 00 69 DE 
  1023)     10987.8  Rx     0001D4E8  7  01 00 00 0F 03 E8 D4 
  1024)     10987.9  Rx     0011D4E8  5  01 00 00 E8 D4 
  1025)     10992.8  Rx     0001DA51  7  01 00 00 0F 03 51 DA 
  1026)     10993.0  Rx     0011DA51  5  01 00 00 51 DA 
  1027)     10997.8  Rx     00012B59  7  01 00 00 0F 03 59 2B 
  1028)     10998.0  Rx     00112B59  5  01 00 00 59 2B 
  1029)     11002.8  Rx     00015201  7  01 00 00 0F 03 01 52 
  1030)     11002.9  Rx     00115201  5  01 00 00 01 52 
  1031)     11007.9  Rx     0001FFF5  7  01 00 00 0F 03 F5 FF 
  1032)     11007.9  Rx     0011FFF5  5  01 00 00 F5 FF 
  1033)     11012.8  Rx     00015F7C  7  01 00 00 0F 03 7C 5F 
  1034)     11013.0  Rx     00115F7C  5  01 00 00 7C 5F 
  1035)     11017.8  Rx     00016264  7  01 00 00 0F 03 64 62 
  1036)     11018.0  Rx     00116264  5  01 00 00 64 62 
  1037)     11022.8  Rx     0001CA96  7  01 00 00 0F 03 96 CA 
  1038)     11023.0  Rx     0011CA96  5  01 00 00 96 CA 
  1039)     11027.8  Rx     000130F1  7  01 00 00 0F 03 F1 30 
  1040)     11027.9  Rx     001130F1  5  01 00 00 F1 30 
  1041)     11032.8  Rx     0001DB10  7  01 00 00 0F 03 10 DB 
  1042)     11032.9  Rx     0011DB10  5  01 00 00 10 DB 
  1043)     11037.8  Rx     0001FC86  7  01 00 00 0F 03 86 FC 
  1044)     11037.9  Rx     0011FC86  5  01 00 00 86 FC 
  1045)     11042.8  Rx     00012CDA  7  01 00 00 0F 03 DA 2C 
  1046)     11042.9  Rx     00112CDA  5  01 00 00 DA 2C 
  1047)     11047.8  Rx     000107DD  7  01 00 00 0F 03 DD 07 
  1048)     11048.0  Rx     001107DD  5  01 00 00 DD 07 
  1049)     11052.8  Rx     0001691D  7  01 00 00 0F 03 1D 69 
  1050)     11052.9  Rx     0011691D  5  01 00 00 1D 69 
  1051)     11057.8  Rx     00015819  7  01 00 00 0F 03 19 58 
  1052)     11057.9  Rx     00115819  5  01 00 00 19 58 
  1053)     11062.8  Rx     00016233  7  01 00 00 0F 03 33 62 
  1054)     11062.9  Rx     00116233  5  01 00 00 33 62 
  1055)     11067.8  Rx     00018BA5  7  01 00 00 0F 03 A5 8B 
  1056)     11067.9  Rx     00118BA5  5  01 00 00 A5 8B 
  1057)     11072.8  Rx     000142AF  7  01 00 00 0F 03 AF 42 
  1058)     11072.9  Rx     001142AF  5  01 00 00 AF 42 
  1059)     11077.8  Rx     00018D0B  7  01 00 00 0F 03 0B 8D 
  1060)     11078.0  Rx     00118D0B  5  01 00 00 0B 8D 
  1061)     11082.8  Rx     00015B34  7  01 00 00 0F 03 34 5B 
  1062)     11082.9  Rx     00115B34  5  01 00 00 34 5B 
  1063)     11087.8  Rx     00019223  7  01 00 00 0F 03 23 92 
  1064)     11087.9  Rx     00119223  5  01 00 00 23 92 
  1065)     11092.8  Rx     00014C9F  7  01 00 00 0F 03 9F 4C 
  1066)     11092.9  Rx     00114C9F  5  01 00 00 9F 4C 
  1067)     11097.8  Rx     000140C4  7  01 00 00 0F 03 C4 40 
  1068)     11097.9  Rx     001140C4  5  01 00 00 C4 40 
  1069)     11102.8  Rx     00011FD1  7  01 00 00 0F 03 D1 1F 
  1070)     11103.0  Rx     00111FD1  5  01 00 00 D1 1F 
  1071)     11107.8  Rx     00010CE4  7  01 00 00 0F 03 E4 0C 
  1072)     11107.9  Rx     00110CE4  5  01 00 00 E4 0C 
  1073)     11112.8  Rx     0001C226  7  01 00 00 0F 03 26 C2 
  1074)     11112.9  Rx     0011C226  5  01 00 00 26 C2 
  1075)     11117.8  Rx     000174C8  7  01 00 00 0F 03 C8 74 
  1076)     11117.9  Rx     001174C8  5  01 00 00 C8 74 
  1077)     11122.8  Rx     0001E951  7  01 00 00 0F 03 51 E9 
  1078)     11122.9  Rx     0011E951  5  01 00 00 51 E9 
  1079)     11127.8  Rx     000152AD  7  01 00 00 0F 03 AD 52 
  1080)     11127.9  Rx     001152AD  5  01 00 00 AD 52 
  1081)     11132.8  Rx     00019F36  7  01 00 00 0F 03 36 9F 
  1082)     11132.9  Rx     00119F36  5  01 00 00 36 9F 
  1083)     11137.8  Rx     0001641B  7  01 00 00 0F 03 1B 64 
  1084)     11137.9  Rx     0011641B  5  01 00 00 1B 64 
  1085)     11142.8  Rx     00012A02  7  01 00 00 0F 03 02 2A 
  1086)     11142.9  Rx     00112A02  5  01 00 00 02 2A 
  1087)     11147.8  Rx     000165BB  7  01 00 00 0F 03 BB 65 
  1088)     11147.9  Rx     001165BB  5  01 00 00 BB 65 
  1089)     11152.8  Rx     00014288  7  01 00 00 0F 03 88 42 
  1090)     11152.9  Rx     00114288  5  01 00 00 88 42 
  1091)     11157.8  Rx     00014767  7  01 00 00 0F 03 67 47 
  1092)     11157.9  Rx     00114767  5  01 00 00 67 47 
  1093)     11162.8  Rx     00019EAE  7  01 00 00 0F 03 AE 9E 
  1094)     11162.9  Rx     00119EAE  5  01 00 00 AE 9E 
  1095)     11167.8  Rx     00015ECD  7  01 00 00 0F 03 CD 5E 
  1096)     11167.9  Rx     00115ECD  5  01 00 00 CD 5E 
  1097)     11172.8  Rx     00010F73  7  01 00 00 0F 03 73 0F 
  1098)     11172.9  Rx     00110F73  5  01 00 00 73 0F 
  1099)     11177.8  Rx     000117DE  7  01 00 00 0F 03 DE 17 
  1100)     11177.9  Rx     001117DE  5  01 00 00 DE 17 
  1101)     11182.8  Rx     00015DD0  7  01 00 00 0F 03 D0 5D 
  1102)     11182.9  Rx     00115DD0  5  01 00 00 D0 5D 
  1103)     11187.8  Rx     00019CE2  7  01 00 00 0F 03 E2 9C 
  1104)     11187.9  Rx     00119CE2  5  01 00 00 E2 9C 
  1105)     11192.8  Rx     0001D782  7  01 00 00 0F 03 82 D7 
  1106)     11192.9  Rx     0011D782  5  01 00 00 82 D7 
  1107)     11197.8  Rx     000178E0  7  01 00 00 0F 03 E0 78 
  1108)     11197.9  Rx     001178E0  5  01 00 00 E0 78 
  1109)     11202.8  Rx     0001E885  7  01 00 00 0F 03 85 E8 
  1110)     11202.9  Rx     0011E885  5  01 00 00 85 E8 
  1111)     11207.8  Rx     00013DC1  7  01 00 00 0F 03 C1 3D 
  1112)     11207.9  Rx     00113DC1  5  01 00 00 C1 3D 
  1113)     11212.8  Rx     00018FC4  7  01 00 00 0F 03 C4 8F 
  1114)     11212.9  Rx     00118FC4  5  01 00 00 C4 8F 
  1115)     11217.8  Rx     0001845B  7  01 00 00 0F 03 5B 84 
  1116)     11217.9  Rx     0011845B  5  01 00 00 5B 84 
  1117)     11222.8  Rx     00013D44  7  01 00 00 0F 03 44 3D 
  1118)     11222.9  Rx     00113D44  5  01 00 00 44 3D 
  1119)     11227.8  Rx     0001433D  7  01 00 00 0F 03 3D 43 
  1120)     11227.9  Rx     0011433D  5  01 00 00 3D 43 
  1121)     11232.8  Rx     0001C5E0  7  01 00 00 0F 03 E0 C5 
  1122)     11232.9  Rx     0011C5E0  5  01 00 00 E0 C5 
  1123)     11237.8  Rx     000185F5  7  01 00 00 0F 03 F5 85 
  1124)     11237.9  Rx     001185F5  5  01 00 00 F5 85 
  1125)     11242.8  Rx     0001E44C  7  01 00 00 0F 03 4C E4 
  1126)     11242.9  Rx     0011E44C  5  01 00 00 4C E4 
  1127)     11247.8  Rx     0001F134  7  01 00 00 0F 03 34 F1 
  1128)     11247.9  Rx     0011F134  5  01 00 00 34 F1 
  1129)     11252.8  Rx     00013CEF  7  01 00 00 0F 03 EF 3C 
  1130)     11252.9  Rx     00113CEF  5  01 00 00 EF 3C 
  1131)     11257.8  Rx     0001D8EB  7  01 00 00 0F 03 EB D8 
  1132)     11257.9  Rx     0011D8EB  5  01 00 00 EB D8 
  1133)     11262.8  Rx     000105E0  7  01 00 00 0F 03 E0 05 
  1134)     11262.9  Rx     001105E0  5  01 00 00 E0 05 
  1135)     11267.8  Rx     0001385B  7  01 00 00 0F 03 5B 38 
  1136)     11267.9  Rx     0011385B  5  01 00 00 5B 38 
  1137)     11272.8  Rx     00017E08  7  01 00 00 0F 03 08 7E 
  1138)     11272.9  Rx     00117E08  5  01 00 00 08 7E 
  1139)     11277.8  Rx     0001C0B7  7  01 00 00 0F 03 B7 C0 
  1140)     11277.9  Rx     0011C0B7  5  01 00 00 B7 C0 
  1141)     11282.8  Rx     00016A34  7  01 00 00 0F 03 34 6A 
  1142)     11282.9  Rx     00116A34  5  01 00 00 34 6A 
  1143)     11287.8  Rx     0001E1BC  7  01 00 00 0F 03 BC E1 
  1144)     11287.9  Rx     0011E1BC  5  01 00 00 BC E1 
  1145)     11292.8  Rx     0001649A  7  01 00 00 0F 03 9A 64 
  1146)     11292.9  Rx     0011649A  5  01 00 00 9A 64 
  1147)     11297.8  Rx     00012873  7  01 00 00 0F 03 73 28 
  1148)     11297.9  Rx     00112873  5  01 00 00 73 28 
  1149)     11302.8  Rx     00019F25  7  01 00 00 0F 03 25 9F 
  1150)     11302.9  Rx     00119F25  5  01 00 00 25 9F 
  1151)     11307.8  Rx     0001EEFA  7  01 00 00 0F 03 FA EE 
  1152)     11307.9  Rx     0011EEFA  5  01 00 00 FA EE 
  1153)     11312.8  Rx     0001AA7D  7  01 00 00 0F 03 7D AA 
  1154)     11312.9  Rx     0011AA7D  5  01 00 00 7D AA 
  1155)     11317.8  Rx     00017D00  7  01 00 00 0F 03 00 7D 
  1156)     11317.9  Rx     00117D00  5  01 00 00 00 7D 
  1157)     11322.8  Rx     0001F7AA  7  01 00 00 0F 03 AA F7 
  1158)     11322.9  Rx     0011F7AA  5  01 00 00 AA F7 
  1159)     11327.8  Rx     0001EB5A  7  01 00 00 0F 03 5A EB 
  1160)     11327.9  Rx     0011EB5A  5  01 00 00 5A EB 
  1161)     11332.8  Rx     000183C6  7  01 00 00 0F 03 C6 83 
  1162)     11332.9  Rx     001183C6  5  01 00 00 C6 83 
  1163)     11337.8  Rx     00017DE4  7  01 00 00 0F 03 E4 7D 
  1164)     11337.9  Rx     00117DE4  5  01 00 00 E4 7D 
  1165)     11342.8  Rx     00019D0D  7  01 00 00 0F 03 0D 9D 
  1166)     11342.9  Rx     00119D0D  5  01 00 00 0D 9D 
  1167)     11347.8  Rx     00013181  7  01 00 00 0F 03 81 31 
  1168)     11347.9  Rx     00113181  5  01 00 00 81 31 
  1169)     11352.8  Rx     00011A5D  7  01 00 00 0F 03 5D 1A 
  1170)     11352.9  Rx     00111A5D  5  01 00 00 5D 1A 
  1171)     11357.8  Rx     0001FCF6  7  01 00 00 0F 03 F6 FC 
  1172)     11357.9  Rx     0011FCF6  5  01 00 00 F6 FC 
  1173)     11362.8  Rx     0001B5D9  7  01 00 00 0F 03 D9 B5 
  1174)     11362.9  Rx     0011B5D9  5  01 00 00 D9 B5 
  1175)     11367.8  Rx     00014DFD  7  01 00 00 0F 03 FD 4D 
  1176)     11367.9  Rx     00114DFD  5  01 00 00 FD 4D 
  1177)     11372.8  Rx     0001414F  7  01 00 00 0F 03 4F 41 
  1178)     11372.9  Rx     0011414F  5  01 00 00 4F 41 
  1179)     11377.8  Rx     0001C8BC  7  01 00 00 0F 03 BC C8 
  1180)     11377.9  Rx     0011C8BC  5  01 00 00 BC C8 
  1181)     11382.8  Rx     00014E92  7  01 00 00 0F 03 92 4E 
  1182)     11382.9  Rx     00114E92  5  01 00 00 92 4E 
  1183)     11387.8  Rx     00014285  7  01 00 00 0F 03 85 42 
  1184)     11387.9  Rx     00114285  5  01 00 00 85 42 
  1185)     11392.8  Rx     0001D7E3  7  01 00 00 0F 03 E3 D7 
  1186)     11392.9  Rx     0011D7E3  5  01 00 00 E3 D7 
  1187)     11397.8  Rx     0001698F  7  01 00 00 0F 03 8F 69 
  1188)     11397.9  Rx     0011698F  5  01 00 00 8F 69 
  1189)     11402.8  Rx     00018C26  7  01 00 00 0F 03 26 8C 
  1190)     11402.9  Rx     00118C26  5  01 00 00 26 8C 
  1191)     11407.8  Rx     0001D1FF  7  01 00 00 0F 03 FF D1 
  1192)     11407.9  Rx     0011D1FF  5  01 00 00 FF D1 
  1193)     11412.8  Rx     00017C6E  7  01 00 00 0F 03 6E 7C 
  1194)     11412.9  Rx     00117C6E  5  01 00 00 6E 7C 
  1195)     11417.8  Rx     0001F582  7  01 00 00 0F 03 82 F5 
  1196)     11417.9  Rx     0011F582  5  01 00 00 82 F5 
  1197)     11422.8  Rx     0001A826  7  01 00 00 0F 03 26 A8 
  1198)     11422.9  Rx     0011A826  5  01 00 00 26 A8 
  1199)     11427.8  Rx     0001D945  7  01 00 00 0F 03 45 D9 
  1200)     11427.9  Rx     0011D945  5  01 00 00 45 D9 
  1201)     11432.8  Rx     000112E6  7  01 00 00 0F 03 E6 12 
  1202)     11432.9  Rx     001112E6  5  01 00 00 E6 12 
  1203)     11437.8  Rx     0001E307  7  01 00 00 0F 03 07 E3 
  1204)     11437.9  Rx     0011E307  5  01 00 00 07 E3 
  1205)     11442.8  Rx     00010AB3  7  01 00 00 0F 03 B3 0A 
  1206)     11442.9  Rx     00110AB3  5  01 00 00 B3 0A 
  1207)     11447.8  Rx     000198A6  7  01 00 00 0F 03 A6 98 
  1208)     11447.9  Rx     001198A6  5  01 00 00 A6 98 
  1209)     11452.8  Rx     00014737  7  01 00 00 0F 03 37 47 
  1210)     11452.9  Rx     00114737  5  01 00 00 37 47 
  1211)     11457.8  Rx     0001D64D  7  01 00 00 0F 03 4D D6 
  1212)     11457.9  Rx     0011D64D  5  01 00 00 4D D6 
  1213)     11462.8  Rx     00015639  7  01 00 00 0F 03 39 56 
  1214)     11462.9  Rx     00115639  5  01 00 00 39 56 
  1215)     11467.8  Rx     0001122E  7  01 00 00 0F 03 2E 12 
  1216)     11467.9  Rx     0011122E  5  01 00 00 2E 12 
  1217)     11472.8  Rx     00013358  7  01 00 00 0F 03 58 33 
  1218)     11472.9  Rx     00113358  5  01 00 00 58 33 
  1219)     11477.8  Rx     0001756B  7  01 00 00 0F 03 6B 75 
  1220)     11477.9  Rx     0011756B  5  01 00 00 6B 75 
  1221)     11482.8  Rx     000170DD  7  01 00 00 0F 03 DD 70 
  1222)     11482.9  Rx     001170DD  5  01 00 00 DD 70 
  1223)     11487.8  Rx     000144A5  7  01 00 00 0F 03 A5 44 
  1224)     11487.9  Rx     001144A5  5  01 00 00 A5 44 
  1225)     11492.8  Rx     0001D51C  7  01 00 00 0F 03 1C D5 
  1226)     11492.9  Rx     0011D51C  5  01 00 00 1C D5 
  1227)     11497.8  Rx     0001373E  7  01 00 00 0F 03 3E 37 
  1228)     11497.9  Rx     0011373E  5  01 00 00 3E 37 
  1229)     11502.8  Rx     0001ABB6  7  01 00 00 0F 03 B6 AB 
  1230)     11502.9  Rx     0011ABB6  5  01 00 00 B6 AB 
  1231)     11507.8  Rx     00018757  7  01 00 00 0F 03 57 87 
  1232)     11507.9  Rx     00118757  5  01 00 00 57 87 
  1233)     11512.8  Rx     0001C7C8  7  01 00 00 0F 03 C8 C7 
  1234)     11512.9  Rx     0011C7C8  5  01 00 00 C8 C7 
  1235)     11517.8  Rx     00012112  7  01 00 00 0F 03 12 21 
  1236)     11517.9  Rx     00112112  5  01 00 00 12 21 
  1237)     11522.8  Rx     0001B3BE  7  01 00 00 0F 03 BE B3 
  1238)     11522.9  Rx     0011B3BE  5  01 00 00 BE B3 
  1239)     11527.8  Rx     0001DA98  7  01 00 00 0F 03 98 DA 
  1240)     11527.9  Rx     0011DA98  5  01 00 00 98 DA 
  1241)     11532.8  Rx     00019D68  7  01 00 00 0F 03 68 9D 
  1242)     11532.9  Rx     00119D68  5  01 00 00 68 9D 
  1243)     11537.8  Rx     0001C702  7  01 00 00 0F 03 02 C7 
  1244)     11537.9  Rx     0011C702  5  01 00 00 02 C7 
  1245)     11542.8  Rx     0001B486  7  01 00 00 0F 03 86 B4 
  1246)     11542.9  Rx     0011B486  5  01 00 00 86 B4 
  1247)     11547.8  Rx     00013105  7  01 00 00 0F 03 05 31 
  1248)     11547.9  Rx     00113105  5  01 00 00 05 31 
  1249)     11552.8  Rx     00019BE0  7  01 00 00 0F 03 E0 9B 
  1250)     11552.9  Rx     00119BE0  5  01 00 00 E0 9B 
  1251)     11557.8  Rx     0001DB1E  7  01 00 00 0F 03 1E DB 
  1252)     11557.9  Rx     0011DB1E  5  01 00 00 1E DB 
  1253)     11562.8  Rx     000168AB  7  01 00 00 0F 03 AB 68 
  1254)     11562.9  Rx     001168AB  5  01 00 00 AB 68 
  1255)     11567.8  Rx     0001D18B  7  01 00 00 0F 03 8B D1 
  1256)     11567.9  Rx     0011D18B  5  01 00 00 8B D1 
  1257)     11572.8  Rx     000131C4  7  01 00 00 0F 03 C4 31 
  1258)     11572.9  Rx     001131C4  5  01 00 00 C4 31 
  1259)     11577.8  Rx     00013351  7  01 00 00 0F 03 51 33 
  1260)     11577.9  Rx     00113351  5  01 00 00 51 33 
  1261)     11582.8  Rx     0001280B  7  01 00 00 0F 03 0B 28 
  1262)     11582.9  Rx     0011280B  5  01 00 00 0B 28 
  1263)     11587.8  Rx     00018E29  7  01 00 00 0F 03 29 8E 
  1264)     11587.9  Rx     00118E29  5  01 00 00 29 8E 
  1265)     11592.8  Rx     00019EE7  7  01 00 00 0F 03 E7 9E 
  1266)     11592.9  Rx     00119EE7  5  01 00 00 E7 9E 
  1267)     11597.8  Rx     00017600  7  01 00 00 0F 03 00 76 
  1268)     11597.9  Rx     00117600  5  01 00 00 00 76 
  1269)     11602.8  Rx     0001EFB7  7  01 00 00 0F 03 B7 EF 
  1270)     11602.9  Rx     0011EFB7  5  01 00 00 B7 EF 
  1271)     11607.8  Rx     00011F74  7  01 00 00 0F 03 74 1F 
  1272)     11607.9  Rx     00111F74  5  01 00 00 74 1F 
  1273)     11612.8  Rx     000164B5  7  01 00 00 0F 03 B5 64 
  1274)     11612.9  Rx     001164B5  5  01 00 00 B5 64 
  1275)     11617.8  Rx     00010D71  7  01 00 00 0F 03 71 0D 
  1276)     11617.9  Rx     00110D71  5  01 00 00 71 0D 
  1277)     11622.8  Rx     000173A6  7  01 00 00 0F 03 A6 73 
  1278)     11622.9  Rx     001173A6  5  01 00 00 A6 73 
  1279)     11627.8  Rx     000174DD  7  01 00 00 0F 03 DD 74 
  1280)     11627.9  Rx     001174DD  5  01 00 00 DD 74 
  1281)     11632.8  Rx     0001F641  7  01 00 00 0F 03 41 F6 
  1282)     11632.9  Rx     0011F641  5  01 00 00 41 F6 
  1283)     11637.8  Rx     0001C9F1  7  01 00 00 0F 03 F1 C9 
  1284)     11637.9  Rx     0011C9F1  5  01 00 00 F1 C9 
  1285)     11642.8  Rx     00013A2E  7  01 00 00 0F 03 2E 3A 
  1286)     11642.9  Rx     00113A2E  5  01 00 00 2E 3A 
  1287)     11647.8  Rx     000111B4  7  01 00 00 0F 03 B4 11 
  1288)     11647.9  Rx     001111B4  5  01 00 00 B4 11 
  1289)     11652.7  Rx     0001301C  7  01 00 00 0F 03 1C 30 
  1290)     11652.9  Rx     0011301C  5  01 00 00 1C 30 
  1291)     11657.8  Rx     0001DEB4  7  01 00 00 0F 03 B4 DE 
  1292)     11657.9  Rx     0011DEB4  5  01 00 00 B4 DE 
  1293)     11662.8  Rx     0001A532  7  01 00 00 0F 03 32 A5 
  1294)     11662.9  Rx     0011A532  5  01 00 00 32 A5 
  1295)     11667.8  Rx     00013EEB  7  01 00 00 0F 03 EB 3E 
  1296)     11667.9  Rx     00113EEB  5  01 00 00 EB 3E 
  1297)     11672.8  Rx     0001FBEA  7  01 00 00 0F 03 EA FB 
  1298)     11672.9  Rx     0011FBEA  5  01 00 00 EA FB 
  1299)     11677.7  Rx     0001917A  7  01 00 00 0F 03 7A 91 
  1300)     11677.9  Rx     0011917A  5  01 00 00 7A 91 
  1301)     11682.8  Rx     0001011B  7  01 00 00 0F 03 1B 01 
  1302)     11682.9  Rx     0011011B  5  01 00 00 1B 01 
  1303)     11687.8  Rx     0001799A  7  01 00 00 0F 03 9A 79 
  1304)     11687.9  Rx     0011799A  5  01 00 00 9A 79 
  1305)     11692.8  Rx     0001C3B5  7  01 00 00 0F 03 B5 C3 
  1306)     11692.9  Rx     0011C3B5  5  01 00 00 B5 C3 
  1307)     11697.8  Rx     00011CF6  7  01 00 00 0F 03 F6 1C 
  1308)     11697.9  Rx     00111CF6  5  01 00 00 F6 1C 
  1309)     11702.8  Rx     00018D87  7  01 00 00 0F 03 87 8D 
  1310)     11702.9  Rx     00118D87  5  01 00 00 87 8D 
  1311)     11707.7  Rx     0001AE46  7  01 00 00 0F 03 46 AE 
  1312)     11707.9  Rx     0011AE46  5  01 00 00 46 AE 
  1313)     11712.8  Rx     000128FF  7  01 00 00 0F 03 FF 28 
  1314)     11712.9  Rx     001128FF  5  01 00 00 FF 28 
  1315)     11717.8  Rx     000179ED  7  01 00 00 0F 03 ED 79 
  1316)     11717.9  Rx     001179ED  5  01 00 00 ED 79 
  1317)     11722.8  Rx     0001A3C2  7  01 00 00 0F 03 C2 A3 
  1318)     11722.9  Rx     0011A3C2  5  01 00 00 C2 A3 
  1319)     11727.8  Rx     000190E0  7  01 00 00 0F 03 E0 90 
  1320)     11727.9  Rx     001190E0  5  01 00 00 E0 90 
  1321)     11732.8  Rx     00017B99  7  01 00 00 0F 03 99 7B 
  1322)     11732.9  Rx     00117B99  5  01 00 00 99 7B 
  1323)     11737.8  Rx     00012F20  7  01 00 00 0F 03 20 2F 
  1324)     11737.9  Rx     00112F20  5  01 00 00 20 2F 
  1325)     11742.8  Rx     0001A6F8  7  01 00 00 0F 03 F8 A6 
  1326)     11742.9  Rx     0011A6F8  5  01 00 00 F8 A6 
  1327)     11747.8  Rx     0001F18F  7  01 00 00 0F 03 8F F1 
  1328)     11747.9  Rx     0011F18F  5  01 00 00 8F F1 
  1329)     11752.8  Rx     00013C35  7  01 00 00 0F 03 35 3C 
  1330)     11752.9  Rx     00113C35  5  01 00 00 35 3C 
  1331)     11757.8  Rx     000123E9  7  01 00 00 0F 03 E9 23 
  1332)     11757.9  Rx     001123E9  5  01 00 00 E9 23 
  1333)     11762.8  Rx     00013227  7  01 00 00 0F 03 27 32 
  1334)     11762.9  Rx     00113227  5  01 00 00 27 32 
  1335)     11767.8  Rx     0001062D  7  01 00 00 0F 03 2D 06 
  1336)     11767.9  Rx     0011062D  5  01 00 00 2D 06 
  1337)     11772.8  Rx     0001DEBC  7  01 00 00 0F 03 BC DE 
  1338)     11772.9  Rx     0011DEBC  5  01 00 00 BC DE 
  1339)     11777.8  Rx     00016DA7  7  01 00 00 0F 03 A7 6D 
  1340)     11777.9  Rx     00116DA7  5  01 00 00 A7 6D 
  1341)     11782.8  Rx     000113D5  7  01 00 00 0F 03 D5 13 
  1342)     11782.9  Rx     001113D5  5  01 00 00 D5 13 
  1343)     11787.8  Rx     0001B091  7  01 00 00 0F 03 91 B0 
  1344)     11787.9  Rx     0011B091  5  01 00 00 91 B0 
  1345)     11792.8  Rx     00011860  7  01 00 00 0F 03 60 18 
  1346)     11792.9  Rx     00111860  5  01 00 00 60 18 
  1347)     11797.8  Rx     00011FDA  7  01 00 00 0F 03 DA 1F 
  1348)     11797.9  Rx     00111FDA  5  01 00 00 DA 1F 
  1349)     11802.8  Rx     00016B85  7  01 00 00 0F 03 85 6B 
  1350)     11802.9  Rx     00116B85  5  01 00 00 85 6B 
  1351)     11807.8  Rx     0001E991  7  01 00 00 0F 03 91 E9 
  1352)     11807.9  Rx     0011E991  5  01 00 00 91 E9 
  1353)     11812.8  Rx     0001AD6F  7  01 00 00 0F 03 6F AD 
  1354)     11812.9  Rx     0011AD6F  5  01 00 00 6F AD 
  1355)     11817.8  Rx     00011B0D  7  01 00 00 0F 03 0D 1B 
  1356)     11817.9  Rx     00111B0D  5  01 00 00 0D 1B 
  1357)     11822.8  Rx     0001ACEA  7  01 00 00 0F 03 EA AC 
  1358)     11822.9  Rx     0011ACEA  5  01 00 00 EA AC 
  1359)     11827.8  Rx     0001F8C5  7  01 00 00 0F 03 C5 F8 
  1360)     11827.9  Rx     0011F8C5  5  01 00 00 C5 F8 
  1361)     11832.8  Rx     0001D2ED  7  01 00 00 0F 03 ED D2 
  1362)     11832.9  Rx     0011D2ED  5  01 00 00 ED D2 
  1363)     11837.8  Rx     0001E277  7  01 00 00 0F 03 77 E2 
  1364)     11837.9  Rx     0011E277  5  01 00 00 77 E2 
  1365)     11842.8  Rx     0001C0D8  7  01 00 00 0F 03 D8 C0 
  1366)     11842.9  Rx     0011C0D8  5  01 00 00 D8 C0 
  1367)     11847.8  Rx     0001D10C  7  01 00 00 0F 03 0C D1 
  1368)     11847.9  Rx     0011D10C  5  01 00 00 0C D1 
  1369)     11852.8  Rx     0001D7DF  7  01 00 00 0F 03 DF D7 
  1370)     11852.9  Rx     0011D7DF  5  01 00 00 DF D7 
  1371)     11857.8  Rx     00016C5F  7  01 00 00 0F 03 5F 6C 
  1372)     11857.9  Rx     00116C5F  5  01 00 00 5F 6C 
  1373)     11862.8  Rx     0001FFFD  7  01 00 00 0F 03 FD FF 
  1374)     11862.9  Rx     0011FFFD  5  01 00 00 FD FF 
  1375)     11867.8  Rx     000155CF  7  01 00 00 0F 03 CF 55 
  1376)     11867.9  Rx     001155CF  5  01 00 00 CF 55 
  1377)     11872.8  Rx     0001AA68  7  01 00 00 0F 03 68 AA 
  1378)     11872.9  Rx     0011AA68  5  01 00 00 68 AA 
  1379)     11877.8  Rx     0001E542  7  01 00 00 0F 03 42 E5 
  1380)     11877.9  Rx     0011E542  5  01 00 00 42 E5 
  1381)     11882.8  Rx     00015354  7  01 00 00 0F 03 54 53 
  1382)     11882.9  Rx     00115354  5  01 00 00 54 53 
  1383)     11887.8  Rx     0001B107  7  01 00 00 0F 03 07 B1 
  1384)     11887.9  Rx     0011B107  5  01 00 00 07 B1 
  1385)     11892.8  Rx     00017095  7  01 00 00 0F 03 95 70 
  1386)     11892.9  Rx     00117095  5  01 00 00 95 70 
  1387)     11897.8  Rx     00018DB6  7  01 00 00 0F 03 B6 8D 
  1388)     11897.9  Rx     00118DB6  5  01 00 00 B6 8D 
  1389)     11902.8  Rx     00014254  7  01 00 00 0F 03 54 42 
  1390)     11902.9  Rx     00114254  5  01 00 00 54 42 
  1391)     11907.8  Rx     0001ADFF  7  01 00 00 0F 03 FF AD 
  1392)     11907.9  Rx     0011ADFF  5  01 00 00 FF AD 
  1393)     11912.8  Rx     000114F7  7  01 00 00 0F 03 F7 14 
  1394)     11912.9  Rx     001114F7  5  01 00 00 F7 14 
  1395)     11917.8  Rx     0001870B  7  01 00 00 0F 03 0B 87 
  1396)     11917.9  Rx     0011870B  5  01 00 00 0B 87 
  1397)     11922.8  Rx     0001F6EB  7  01 00 00 0F 03 EB F6 
  1398)     11922.9  Rx     0011F6EB  5  01 00 00 EB F6 
  1399)     11927.8  Rx     0001F4D9  7  01 00 00 0F 03 D9 F4 
  1400)     11927.9  Rx     0011F4D9  5  01 00 00 D9 F4 
  1401)     11932.8  Rx     0001D2F4  7  01 00 00 0F 03 F4 D2 
  1402)     11932.9  Rx     0011D2F4  5  01 00 00 F4 D2 
  1403)     11937.8  Rx     000196B6  7  01 00 00 0F 03 B6 96 
  1404)     11937.9  Rx     001196B6  5  01 00 00 B6 96 
  1405)     11942.8  Rx     00015B2D  7  01 00 00 0F 03 2D 5B 
  1406)     11942.9  Rx     00115B2D  5  01 00 00 2D 5B 
  1407)     11947.8  Rx     00016AD1  7  01 00 00 0F 03 D1 6A 
  1408)     11947.9  Rx     00116AD1  5  01 00 00 D1 6A 
  1409)     11952.8  Rx     0001BEDC  7  01 00 00 0F 03 DC BE 
  1410)     11952.9  Rx     0011BEDC  5  01 00 00 DC BE 
  1411)     11957.8  Rx     00010C6E  7  01 00 00 0F 03 6E 0C 
  1412)     11957.9  Rx     00110C6E  5  01 00 00 6E 0C 
  1413)     11962.7  Rx     000120CB  7  01 00 00 0F 03 CB 20 
  1414)     11962.9  Rx     001120CB  5  01 00 00 CB 20 
  1415)     11967.8  Rx     00017743  7  01 00 00 0F 03 43 77 
  1416)     11967.9  Rx     00117743  5  01 00 00 43 77 
  1417)     11972.8  Rx     00016DBE  7  01 00 00 0F 03 BE 6D 
  1418)     11972.9  Rx     00116DBE  5  01 00 00 BE 6D 
  1419)     11977.8  Rx     00018712  7  01 00 00 0F 03 12 87 
  1420)     11977.9  Rx     00118712  5  01 00 00 12 87 
  1421)     11982.8  Rx     0001E245  7  01 00 00 0F 03 45 E2 
  1422)     11982.9  Rx     0011E245  5  01 00 00 45 E2 
  1423)     11987.7  Rx     00015D6D  7  01 00 00 0F 03 6D 5D 
  1424)     11987.9  Rx     00115D6D  5  01 00 00 6D 5D 
  1425)     11992.8  Rx     000170F7  7  01 00 00 0F 03 F7 70 
  1426)     11992.9  Rx     001170F7  5  01 00 00 F7 70 
  1427)     11997.8  Rx     0001BC50  7  01 00 00 0F 03 50 BC 
  1428)     11997.9  Rx     0011BC50  5  01 00 00 50 BC 
  1429)     12002.8  Rx     000111DD  7  01 00 00 0F 03 DD 11 
  1430)     12002.9  Rx     001111DD  5  01 00 00 DD 11 
  1431)     12007.8  Rx     000182F4  7  01 00 00 0F 03 F4 82 
  1432)     12007.9  Rx     001182F4  5  01 00 00 F4 82 
  1433)     12012.8  Rx     0001F18F  7  01 00 00 0F 03 8F F1 
  1434)     12012.9  Rx     0011F18F  5  01 00 00 8F F1 
  1435)     12017.7  Rx     00015B06  7  01 00 00 0F 03 06 5B 
  1436)     12017.9  Rx     00115B06  5  01 00 00 06 5B 
  1437)     12022.8  Rx     00012251  7  01 00 00 0F 03 51 22 
  1438)     12022.9  Rx     00112251  5  01 00 00 51 22 
  1439)     12027.8  Rx     0001C728  7  01 00 00 0F 03 28 C7 
  1440)     12027.9  Rx     0011C728  5  01 00 00 28 C7 
  1441)     12032.8  Rx     00013742  7  01 00 00 0F 03 42 37 
  1442)     12032.9  Rx     00113742  5  01 00 00 42 37 
  1443)     12037.8  Rx     0001C066  7  01 00 00 0F 03 66 C0 
  1444)     12037.9  Rx     0011C066  5  01 00 00 66 C0 
  1445)     12042.7  Rx     00019D48  7  01 00 00 0F 03 48 9D 
  1446)     12042.9  Rx     00119D48  5  01 00 00 48 9D 
  1447)     12047.8  Rx     0001D307  7  01 00 00 0F 03 07 D3 
  1448)     12047.9  Rx     0011D307  5  01 00 00 07 D3 
  1449)     12052.8  Rx     00013F5F  7  01 00 00 0F 03 5F 3F 
  1450)     12052.9  Rx     00113F5F  5  01 00 00 5F 3F 
  1451)     12057.8  Rx     0001F3DB  7  01 00 00 0F 03 DB F3 
  1452)     12057.9  Rx     0011F3DB  5  01 00 00 DB F3 
  1453)     12062.8  Rx     00011788  7  01 00 00 0F 03 88 17 
  1454)     12062.9  Rx     00111788  5  01 00 00 88 17 
  1455)     12067.7  Rx     00015E01  7  01 00 00 0F 03 01 5E 
  1456)     12067.9  Rx     00115E01  5  01 00 00 01 5E 
  1457)     12072.7  Rx     00014754  7  01 00 00 0F 03 54 47 
  1458)     12072.9  Rx     00114754  5  01 00 00 54 47 
  1459)     12077.8  Rx     00013DAE  7  01 00 00 0F 03 AE 3D 
  1460)     12077.9  Rx     00113DAE  5  01 00 00 AE 3D 
  1461)     12082.8  Rx     00015AEC  7  01 00 00 0F 03 EC 5A 
  1462)     12082.9  Rx     00115AEC  5  01 00 00 EC 5A 
  1463)     12087.8  Rx     00018F80  7  01 00 00 0F 03 80 8F 
  1464)     12087.9  Rx     00118F80  5  01 00 00 80 8F 
  1465)     12092.7  Rx     00015F05  7  01 00 00 0F 03 05 5F 
  1466)     12092.9  Rx     00115F05  5  01 00 00 05 5F 
  1467)     12097.7  Rx     00012867  7  01 00 00 0F 03 67 28 
  1468)     12097.9  Rx     00112867  5  01 00 00 67 28 
  1469)     12102.7  Rx     00016217  7  01 00 00 0F 03 17 62 
  1470)     12102.9  Rx     00116217  5  01 00 00 17 62 
  1471)     12107.8  Rx     00013D25  7  01 00 00 0F 03 25 3D 
  1472)     12107.9  Rx     00113D25  5  01 00 00 25 3D 
  1473)     12112.8  Rx     0001FEDF  7  01 00 00 0F 03 DF FE 
  1474)     12112.9  Rx     0011FEDF  5  01 00 00 DF FE 
  1475)     12117.8  Rx     000138F4  7  01 00 00 0F 03 F4 38 
  1476)     12117.9  Rx     001138F4  5  01 00 00 F4 38 
  1477)     12122.7  Rx     000185E7  7  01 00 00 0F 03 E7 85 
  1478)     12122.9  Rx     001185E7  5  01 00 00 E7 85 
  1479)     12127.7  Rx     000151D2  7  01 00 00 0F 03 D2 51 
  1480)     12127.9  Rx     001151D2  5  01 00 00 D2 51 
  1481)     12132.8  Rx     00018DAF  7  01 00 00 0F 03 AF 8D 
  1482)     12132.9  Rx     00118DAF  5  01 00 00 AF 8D 
  1483)     12137.8  Rx     0001C58B  7  01 00 00 0F 03 8B C5 
  1484)     12137.8  Rx     0011C58B  5  01 00 00 8B C5 
  1485)     12142.8  Rx     000160AB  7  01 00 00 0F 03 AB 60 
  1486)     12142.9  Rx     001160AB  5  01 00 00 AB 60 
  1487)     12147.7  Rx     0001016C  7  01 00 00 0F 03 6C 01 
  1488)     12147.9  Rx     0011016C  5  01 00 00 6C 01 
  1489)     12152.7  Rx     0001F632  7  01 00 00 0F 03 32 F6 
  1490)     12152.9  Rx     0011F632  5  01 00 00 32 F6 
  1491)     12157.7  Rx     0001BB4E  7  01 00 00 0F 03 4E BB 
  1492)     12157.9  Rx     0011BB4E  5  01 00 00 4E BB 
  1493)     12162.8  Rx     00011314  7  01 00 00 0F 03 14 13 
  1494)     12162.8  Rx     00111314  5  01 00 00 14 13 
  1495)     12167.8  Rx     0001295C  7  01 00 00 0F 03 5C 29 
  1496)     12167.8  Rx     0011295C  5  01 00 00 5C 29 
  1497)     12172.7  Rx     0001386B  7  01 00 00 0F 03 6B 38 
  1498)     12172.9  Rx     0011386B  5  01 00 00 6B 38 
  1499)     12177.7  Rx     00017EB3  7  01 00 00 0F 03 B3 7E 
  1500)     12177.9  Rx     00117EB3  5  01 00 00 B3 7E 
  1501)     12182.7  Rx     00011EEB  7  01 00 00 0F 03 EB 1E 
  1502)     12182.9  Rx     00111EEB  5  01 00 00 EB 1E 
  1503)     12187.7  Rx     0001A5D9  7  01 00 00 0F 03 D9 A5 
  1504)     12187.9  Rx     0011A5D9  5  01 00 00 D9 A5 
  1505)     12192.8  Rx     0001F6B7  7  01 00 00 0F 03 B7 F6 
  1506)     12192.8  Rx     0011F6B7  5  01 00 00 B7 F6 
  1507)     12197.8  Rx     0001AAA1  7  01 00 00 0F 03 A1 AA 
  1508)     12197.8  Rx     0011AAA1  5  01 00 00 A1 AA 
  1509)     12202.7  Rx     00019F86  7  01 00 00 0F 03 86 9F 
  1510)     12202.9  Rx     00119F86  5  01 00 00 86 9F 
  1511)     12207.7  Rx     00018FE7  7  01 00 00 0F 03 E7 8F 
  1512)     12207.9  Rx     00118FE7  5  01 00 00 E7 8F 
  1513)     12212.7  Rx     0001FEA1  7  01 00 00 0F 03 A1 FE 
  1514)     12212.9  Rx     0011FEA1  5  01 00 00 A1 FE 
  1515)     12217.8  Rx     0001F659  7  01 00 00 0F 03 59 F6 
  1516)     12217.8  Rx     0011F659  5  01 00 00 59 F6 
  1517)     12222.8  Rx     00014BFB  7  01 00 00 0F 03 FB 4B 
  1518)     12222.8  Rx     00114BFB  5  01 00 00 FB 4B 
  1519)     12227.7  Rx     00019C1E  7  01 00 00 0F 03 1E 9C 
  1520)     12227.9  Rx     00119C1E  5  01 00 00 1E 9C 
  1521)     12232.7  Rx     0001E975  7  01 00 00 0F 03 75 E9 
  1522)     12232.9  Rx     0011E975  5  01 00 00 75 E9 
  1523)     12237.7  Rx     0001EA1A  7  01 00 00 0F 03 1A EA 
  1524)     12237.9  Rx     0011EA1A  5  01 00 00 1A EA 
  1525)     12242.7  Rx     00017F11  7  01 00 00 0F 03 11 7F 
  1526)     12242.8  Rx     00117F11  5  01 00 00 11 7F 
  1527)     12247.8  Rx     00016E2A  7  01 00 00 0F 03 2A 6E 
  1528)     12247.8  Rx     00116E2A  5  01 00 00 2A 6E 
  1529)     12252.7  Rx     0001A496  7  01 00 00 0F 03 96 A4 
  1530)     12252.9  Rx     0011A496  5  01 00 00 96 A4 
  1531)     12257.7  Rx     0001C682  7  01 00 00 0F 03 82 C6 
  1532)     12257.9  Rx     0011C682  5  01 00 00 82 C6 
  1533)     12262.7  Rx     000150FA  7  01 00 00 0F 03 FA 50 
  1534)     12262.9  Rx     001150FA  5  01 00 00 FA 50 
  1535)     12267.7  Rx     0001CD15  7  01 00 00 0F 03 15 CD 
  1536)     12267.9  Rx     0011CD15  5  01 00 00 15 CD 
  1537)     12272.8  Rx     0001FD90  7  01 00 00 0F 03 90 FD 
  1538)     12272.8  Rx     0011FD90  5  01 00 00 90 FD 
  1539)     12277.7  Rx     000146B5  7  01 00 00 0F 03 B5 46 
  1540)     12277.8  Rx     001146B5  5  01 00 00 B5 46 
  1541)     12282.7  Rx     0001AEC2  7  01 00 00 0F 03 C2 AE 
  1542)     12282.9  Rx     0011AEC2  5  01 00 00 C2 AE 
  1543)     12287.7  Rx     00011C47  7  01 00 00 0F 03 47 1C 
  1544)     12287.9  Rx     00111C47  5  01 00 00 47 1C 
  1545)     12292.7  Rx     000131EB  7  01 00 00 0F 03 EB 31 
  1546)     12292.9  Rx     001131EB  5  01 00 00 EB 31 
  1547)     12297.7  Rx     0001753F  7  01 00 00 0F 03 3F 75 
  1548)     12297.8  Rx     0011753F  5  01 00 00 3F 75 
  1549)     12302.8  Rx     00015385  7  01 00 00 0F 03 85 53 
  1550)     12302.8  Rx     00115385  5  01 00 00 85 53 
  1551)     12307.7  Rx     00018948  7  01 00 00 0F 03 48 89 
  1552)     12307.8  Rx     00118948  5  01 00 00 48 89 
  1553)     12312.7  Rx     000186C4  7  01 00 00 0F 03 C4 86 
  1554)     12312.9  Rx     001186C4  5  01 00 00 C4 86 
  1555)     12317.7  Rx     00017FB9  7  01 00 00 0F 03 B9 7F 
  1556)     12317.9  Rx     00117FB9  5  01 00 00 B9 7F 
  1557)     12322.7  Rx     0001E362  7  01 00 00 0F 03 62 E3 
  1558)     12322.8  Rx     0011E362  5  01 00 00 62 E3 
  1559)     12327.7  Rx     00016A4B  7  01 00 00 0F 03 4B 6A 
  1560)     12327.8  Rx     00116A4B  5  01 00 00 4B 6A 
  1561)     12332.7  Rx     0001C81C  7  01 00 00 0F 03 1C C8 
  1562)     12332.8  Rx     0011C81C  5  01 00 00 1C C8 
  1563)     12337.7  Rx     0001792D  7  01 00 00 0F 03 2D 79 
  1564)     12337.8  Rx     0011792D  5  01 00 00 2D 79 
  1565)     12342.7  Rx     00010832  7  01 00 00 0F 03 32 08 
  1566)     12342.9  Rx     00110832  5  01 00 00 32 08 
  1567)     12347.7  Rx     00018D6B  7  01 00 00 0F 03 6B 8D 
  1568)     12347.8  Rx     00118D6B  5  01 00 00 6B 8D 
  1569)     12352.7  Rx     000103EE  7  01 00 00 0F 03 EE 03 
  1570)     12352.8  Rx     001103EE  5  01 00 00 EE 03 
  1571)     12357.7  Rx     0001433A  7  01 00 00 0F 03 3A 43 
  1572)     12357.8  Rx     0011433A  5  01 00 00 3A 43 
  1573)     12362.7  Rx     00017BF7  7  01 00 00 0F 03 F7 7B 
  1574)     12362.8  Rx     00117BF7  5  01 00 00 F7 7B 
  1575)     12367.7  Rx     00018CB1  7  01 00 00 0F 03 B1 8C 
  1576)     12367.9  Rx     00118CB1  5  01 00 00 B1 8C 
  1577)     12372.7  Rx     0001CD02  7  01 00 00 0F 03 02 CD 
  1578)     12372.9  Rx     0011CD02  5  01 00 00 02 CD 
  1579)     12377.7  Rx     000139F6  7  01 00 00 0F 03 F6 39 
  1580)     12377.8  Rx     001139F6  5  01 00 00 F6 39 
  1581)     12382.7  Rx     0001F915  7  01 00 00 0F 03 15 F9 
  1582)     12382.8  Rx     0011F915  5  01 00 00 15 F9 
  1583)     12387.7  Rx     000116DC  7  01 00 00 0F 03 DC 16 
  1584)     12387.8  Rx     001116DC  5  01 00 00 DC 16 
  1585)     12392.7  Rx     00012583  7  01 00 00 0F 03 83 25 
  1586)     12392.9  Rx     00112583  5  01 00 00 83 25 
  1587)     12397.7  Rx     00012E96  7  01 00 00 0F 03 96 2E 
  1588)     12397.9  Rx     00112E96  5  01 00 00 96 2E 
  1589)     12402.7  Rx     00018043  7  01 00 00 0F 03 43 80 
  1590)     12402.8  Rx     00118043  5  01 00 00 43 80 
  1591)     12407.7  Rx     000134E0  7  01 00 00 0F 03 E0 34 
  1592)     12407.8  Rx     001134E0  5  01 00 00 E0 34 
  1593)     12412.7  Rx     0001C951  7  01 00 00 0F 03 51 C9 
  1594)     12412.8  Rx     0011C951  5  01 00 00 51 C9 
  1595)     12417.7  Rx     00010CCE  7  01 00 00 0F 03 CE 0C 
  1596)     12417.8  Rx     00110CCE  5  01 00 00 CE 0C 
  1597)     12422.7  Rx     0001443F  7  01 00 00 0F 03 3F 44 
  1598)     12422.9  Rx     0011443F  5  01 00 00 3F 44 
  1599)     12427.7  Rx     0001B82A  7  01 00 00 0F 03 2A B8 
  1600)     12427.8  Rx     0011B82A  5  01 00 00 2A B8 
  1601)     12432.7  Rx     0001DC16  7  01 00 00 0F 03 16 DC 
  1602)     12432.8  Rx     0011DC16  5  01 00 00 16 DC 
  1603)     12437.7  Rx     0001CEF9  7  01 00 00 0F 03 F9 CE 
  1604)     12437.8  Rx     0011CEF9  5  01 00 00 F9 CE 
  1605)     12442.7  Rx     0001C343  7  01 00 00 0F 03 43 C3 
  1606)     12442.8  Rx     0011C343  5  01 00 00 43 C3 
  1607)     12447.7  Rx     000175A8  7  01 00 00 0F 03 A8 75 
  1608)     12447.8  Rx     001175A8  5  01 00 00 A8 75 
  1609)     12452.7  Rx     00017B1A  7  01 00 00 0F 03 1A 7B 
  1610)     12452.9  Rx     00117B1A  5  01 00 00 1A 7B 
  1611)     12457.7  Rx     000138F7  7  01 00 00 0F 03 F7 38 
  1612)     12457.8  Rx     001138F7  5  01 00 00 F7 38 
  1613)     12462.7  Rx     0001CA3A  7  01 00 00 0F 03 3A CA 
  1614)     12462.8  Rx     0011CA3A  5  01 00 00 3A CA 
  1615)     12467.7  Rx     0001958B  7  01 00 00 0F 03 8B 95 
  1616)     12467.8  Rx     0011958B  5  01 00 00 8B 95 
  1617)     12472.7  Rx     00013AD6  7  01 00 00 0F 03 D6 3A 
  1618)     12472.8  Rx     00113AD6  5  01 00 00 D6 3A 
  1619)     12477.7  Rx     0001A9D9  7  01 00 00 0F 03 D9 A9 
  1620)     12477.8  Rx     0011A9D9  5  01 00 00 D9 A9 
  1621)     12482.7  Rx     0001A5B1  7  01 00 00 0F 03 B1 A5 
  1622)     12482.8  Rx     0011A5B1  5  01 00 00 B1 A5 
  1623)     12487.7  Rx     0001E3C9  7  01 00 00 0F 03 C9 E3 
  1624)     12487.8  Rx     0011E3C9  5  01 00 00 C9 E3 
  1625)     12492.7  Rx     0001C84A  7  01 00 00 0F 03 4A C8 
  1626)     12492.8  Rx     0011C84A  5  01 00 00 4A C8 
  1627)     12497.7  Rx     0001F03E  7  01 00 00 0F 03 3E F0 
  1628)     12497.8  Rx     0011F03E  5  01 00 00 3E F0 
  1629)     12502.7  Rx     00010C8E  7  01 00 00 0F 03 8E 0C 
  1630)     12502.8  Rx     00110C8E  5  01 00 00 8E 0C 
  1631)     12507.7  Rx     00012564  7  01 00 00 0F 03 64 25 
