;$FILEVERSION=1.1
;$STARTTIME=46290.855408125
;
;   Start time: 25/09/2026 20:31:47.262.0
;   Generated by PCAN-View v5.3.3.958
;
;   Message Number
;   |         Time Offset (ms)
;   |         |        Type
;   |         |        |        ID (hex)
;   |         |        |        |     Data Length
;   |         |        |        |     |   Data Bytes (hex) ...
;   |         |        |        |     |   |
;---+--   ----+----  --+--  ----+---  +  -+ -- -- -- -- -- -- --
     1)         1.9  Rx     00018CF7  7  01 00 00 0F 03 F7 8C 
     2)         2.1  Rx     00118CF7  5  01 00 00 F7 8C 
     3)         6.9  Rx     0001F729  7  01 00 00 0F 03 29 F7 
     4)         7.1  Rx     0011F729  5  01 00 00 29 F7 
     5)        11.9  Rx     0001B117  7  01 00 00 0F 03 17 B1 
     6)        12.1  Rx     0011B117  5  01 00 00 17 B1 
     7)        16.9  Rx     0001D088  7  01 00 00 0F 03 88 D0 
     8)        17.0  Rx     0011D088  5  01 00 00 88 D0 
     9)        22.0  Rx     0001BD08  7  01 00 00 0F 03 08 BD 
    10)        22.0  Rx     0011BD08  5  01 00 00 08 BD 
    11)        26.9  Rx     00018BF9  7  01 00 00 0F 03 F9 8B 
    12)        27.1  Rx     00118BF9  5  01 00 00 F9 8B 
    13)        31.9  Rx     00011016  7  01 00 00 0F 03 16 10 
    14)        32.1  Rx     00111016  5  01 00 00 16 10 
    15)        36.9  Rx     00017B1D  7  01 00 00 0F 03 1D 7B 
    16)        37.1  Rx     00117B1D  5  01 00 00 1D 7B 
    17)        41.9  Rx     000168CC  7  01 00 00 0F 03 CC 68 
    18)        42.0  Rx     001168CC  5  01 00 00 CC 68 
    19)        47.0  Rx     0001411F  7  01 00 00 0F 03 1F 41 
    20)        47.0  Rx     0011411F  5  01 00 00 1F 41 
    21)        51.9  Rx     000199A9  7  01 00 00 0F 03 A9 99 
    22)        52.0  Rx     001199A9  5  01 00 00 A9 99 
    23)        56.9  Rx     0001418F  7  01 00 00 0F 03 8F 41 
    24)        57.1  Rx     0011418F  5  01 00 00 8F 41 
    25)        61.9  Rx     00013F2C  7  01 00 00 0F 03 2C 3F 
    26)        62.1  Rx     00113F2C  5  01 00 00 2C 3F 
    27)        66.9  Rx     00010364  7  01 00 00 0F 03 64 03 
    28)        67.1  Rx     00110364  5  01 00 00 64 03 
    29)        71.9  Rx     0001F857  7  01 00 00 0F 03 57 F8 
    30)        72.0  Rx     0011F857  5  01 00 00 57 F8 
    31)        76.9  Rx     000186D6  7  01 00 00 0F 03 D6 86 
    32)        77.0  Rx     001186D6  5  01 00 00 D6 86 
    33)        81.9  Rx     0001DA53  7  01 00 00 0F 03 53 DA 
    34)        82.0  Rx     0011DA53  5  01 00 00 53 DA 
    35)        86.9  Rx     0001CF73  7  01 00 00 0F 03 73 CF 
    36)        87.1  Rx     0011CF73  5  01 00 00 73 CF 
    37)        91.9  Rx     000181CF  7  01 00 00 0F 03 CF 81 
    38)        92.1  Rx     001181CF  5  01 00 00 CF 81 
    39)        96.9  Rx     00018C95  7  01 00 00 0F 03 95 8C 
    40)        97.0  Rx     00118C95  5  01 00 00 95 8C 
    41)       102.0  Rx     0001D064  7  01 00 00 0F 03 64 D0 
    42)       102.1  Rx     0011D064  5  01 00 00 64 D0 
    43)       107.0  Rx     00012924  7  01 00 00 0F 03 24 29 
    44)       107.0  Rx     00112924  5  01 00 00 24 29 
    45)       112.0  Rx     000191F6  7  01 00 00 0F 03 F6 91 
    46)       112.1  Rx     001191F6  5  01 00 00 F6 91 
    47)       116.9  Rx     00015C48  7  01 00 00 0F 03 48 5C 
    48)       117.1  Rx     00115C48  5  01 00 00 48 5C 
    49)       121.9  Rx     0001C1EF  7  01 00 00 0F 03 EF C1 
    50)       122.1  Rx     0011C1EF  5  01 00 00 EF C1 
    51)       126.9  Rx     0001577D  7  01 00 00 0F 03 7D 57 
    52)       127.1  Rx     0011577D  5  01 00 00 7D 57 
    53)       132.0  Rx     000145C3  7  01 00 00 0F 03 C3 45 
    54)       132.0  Rx     001145C3  5  01 00 00 C3 45 
    55)       137.0  Rx     00019722  7  01 00 00 0F 03 22 97 
    56)       137.0  Rx     00119722  5  01 00 00 22 97 
    57)       141.9  Rx     00016A23  7  01 00 00 0F 03 23 6A 
    58)       142.1  Rx     00116A23  5  01 00 00 23 6A 
    59)       146.9  Rx     0001B578  7  01 00 00 0F 03 78 B5 
    60)       147.1  Rx     0011B578  5  01 00 00 78 B5 
    61)       151.9  Rx     000105CA  7  01 00 00 0F 03 CA 05 
    62)       152.1  Rx     001105CA  5  01 00 00 CA 05 
    63)       156.9  Rx     000124B3  7  01 00 00 0F 03 B3 24 
    64)       157.0  Rx     001124B3  5  01 00 00 B3 24 
    65)       162.0  Rx     0001B0C3  7  01 00 00 0F 03 C3 B0 
    66)       162.0  Rx     0011B0C3  5  01 00 00 C3 B0 
    67)       166.9  Rx     00010784  7  01 00 00 0F 03 84 07 
    68)       167.1  Rx     00110784  5  01 00 00 84 07 
    69)       171.9  Rx     0001F899  7  01 00 00 0F 03 99 F8 
    70)       172.1  Rx     0011F899  5  01 00 00 99 F8 
    71)       176.9  Rx     0001304B  7  01 00 00 0F 03 4B 30 
    72)       177.1  Rx     0011304B  5  01 00 00 4B 30 
    73)       181.9  Rx     0001B9D9  7  01 00 00 0F 03 D9 B9 
    74)       182.1  Rx     0011B9D9  5  01 00 00 D9 B9 
    75)       187.0  Rx     0001C1CD  7  01 00 00 0F 03 CD C1 
    76)       187.0  Rx     0011C1CD  5  01 00 00 CD C1 
    77)       192.0  Rx     0001B8C6  7  01 00 00 0F 03 C6 B8 
    78)       192.0  Rx     0011B8C6  5  01 00 00 C6 B8 
    79)       196.9  Rx     0001E521  7  01 00 00 0F 03 21 E5 
    80)       197.0  Rx     0011E521  5  01 00 00 21 E5 
    81)       201.9  Rx     0001EB2C  7  01 00 00 0F 03 2C EB 
    82)       202.1  Rx     0011EB2C  5  01 00 00 2C EB 
    83)       206.9  Rx     0001733B  7  01 00 00 0F 03 3B 73 
    84)       207.1  Rx     0011733B  5  01 00 00 3B 73 
    85)       211.9  Rx     0001D2C3  7  01 00 00 0F 03 C3 D2 
    86)       212.0  Rx     0011D2C3  5  01 00 00 C3 D2 
    87)       217.0  Rx     00012D32  7  01 00 00 0F 03 32 2D 
    88)       217.0  Rx     00112D32  5  01 00 00 32 2D 
    89)       221.9  Rx     00011372  7  01 00 00 0F 03 72 13 
    90)       222.0  Rx     00111372  5  01 00 00 72 13 
    91)       226.9  Rx     0001E93B  7  01 00 00 0F 03 3B E9 
    92)       227.1  Rx     0011E93B  5  01 00 00 3B E9 
    93)       231.9  Rx     00014A77  7  01 00 00 0F 03 77 4A 
    94)       232.1  Rx     00114A77  5  01 00 00 77 4A 
    95)       236.9  Rx     0001A2EA  7  01 00 00 0F 03 EA A2 
    96)       237.0  Rx     0011A2EA  5  01 00 00 EA A2 
    97)       241.9  Rx     00015B44  7  01 00 00 0F 03 44 5B 
    98)       242.0  Rx     00115B44  5  01 00 00 44 5B 
    99)       246.9  Rx     0001AC3F  7  01 00 00 0F 03 3F AC 
   100)       247.0  Rx     0011AC3F  5  01 00 00 3F AC 
   101)       251.9  Rx     0001408C  7  01 00 00 0F 03 8C 40 
   102)       252.1  Rx     0011408C  5  01 00 00 8C 40 
   103)       256.9  Rx     00013D84  7  01 00 00 0F 03 84 3D 
   104)       257.1  Rx     00113D84  5  01 00 00 84 3D 
   105)       261.9  Rx     00017BD4  7  01 00 00 0F 03 D4 7B 
   106)       262.1  Rx     00117BD4  5  01 00 00 D4 7B 
   107)       266.9  Rx     00012D05  7  01 00 00 0F 03 05 2D 
   108)       267.0  Rx     00112D05  5  01 00 00 05 2D 
   109)       271.9  Rx     00017788  7  01 00 00 0F 03 88 77 
   110)       272.0  Rx     00117788  5  01 00 00 88 77 
   111)       276.9  Rx     00014431  7  01 00 00 0F 03 31 44 
   112)       277.0  Rx     00114431  5  01 00 00 31 44 
   113)       281.9  Rx     0001A761  7  01 00 00 0F 03 61 A7 
   114)       282.1  Rx     0011A761  5  01 00 00 61 A7 
   115)       286.9  Rx     00012A9A  7  01 00 00 0F 03 9A 2A 
   116)       287.1  Rx     00112A9A  5  01 00 00 9A 2A 
   117)       291.9  Rx     0001DC9E  7  01 00 00 0F 03 9E DC 
   118)       292.0  Rx     0011DC9E  5  01 00 00 9E DC 
   119)       297.0  Rx     000107FA  7  01 00 00 0F 03 FA 07 
   120)       297.0  Rx     001107FA  5  01 00 00 FA 07 
   121)       301.9  Rx     0001AF65  7  01 00 00 0F 03 65 AF 
   122)       302.0  Rx     0011AF65  5  01 00 00 65 AF 
   123)       306.9  Rx     0001F91D  7  01 00 00 0F 03 1D F9 
   124)       307.0  Rx     0011F91D  5  01 00 00 1D F9 
   125)       311.9  Rx     00013041  7  01 00 00 0F 03 41 30 
   126)       312.1  Rx     00113041  5  01 00 00 41 30 
   127)       316.9  Rx     0001AC65  7  01 00 00 0F 03 65 AC 
   128)       317.0  Rx     0011AC65  5  01 00 00 65 AC 
   129)       321.9  Rx     00011893  7  01 00 00 0F 03 93 18 
   130)       322.0  Rx     00111893  5  01 00 00 93 18 
   131)       326.9  Rx     0001D943  7  01 00 00 0F 03 43 D9 
   132)       327.0  Rx     0011D943  5  01 00 00 43 D9 
   133)       331.9  Rx     00017A7C  7  01 00 00 0F 03 7C 7A 
   134)       332.0  Rx     00117A7C  5  01 00 00 7C 7A 
   135)       336.9  Rx     00011ED8  7  01 00 00 0F 03 D8 1E 
   136)       337.1  Rx     00111ED8  5  01 00 00 D8 1E 
   137)       341.9  Rx     00011883  7  01 00 00 0F 03 83 18 
   138)       342.0  Rx     00111883  5  01 00 00 83 18 
   139)       346.9  Rx     0001389D  7  01 00 00 0F 03 9D 38 
   140)       347.0  Rx     0011389D  5  01 00 00 9D 38 
   141)       351.9  Rx     0001A704  7  01 00 00 0F 03 04 A7 
   142)       352.0  Rx     0011A704  5  01 00 00 04 A7 
   143)       356.9  Rx     0001ACC0  7  01 00 00 0F 03 C0 AC 
   144)       357.0  Rx     0011ACC0  5  01 00 00 C0 AC 
   145)       361.9  Rx     0001B52A  7  01 00 00 0F 03 2A B5 
   146)       362.0  Rx     0011B52A  5  01 00 00 2A B5 
   147)       366.9  Rx     0001129C  7  01 00 00 0F 03 9C 12 
   148)       367.1  Rx     0011129C  5  01 00 00 9C 12 
   149)       371.9  Rx     00011108  7  01 00 00 0F 03 08 11 
   150)       372.0  Rx     00111108  5  01 00 00 08 11 
   151)       376.9  Rx     00010C71  7  01 00 00 0F 03 71 0C 
   152)       377.0  Rx     00110C71  5  01 00 00 71 0C 
   153)       381.9  Rx     0001CE0B  7  01 00 00 0F 03 0B CE 
   154)       382.0  Rx     0011CE0B  5  01 00 00 0B CE 
   155)       386.9  Rx     00013A4F  7  01 00 00 0F 03 4F 3A 
   156)       387.0  Rx     00113A4F  5  01 00 00 4F 3A 
   157)       391.9  Rx     000122CE  7  01 00 00 0F 03 CE 22 
   158)       392.0  Rx     001122CE  5  01 00 00 CE 22 
   159)       396.9  Rx     000100CB  7  01 00 00 0F 03 CB 00 
   160)       397.0  Rx     001100CB  5  01 00 00 CB 00 
   161)       401.9  Rx     00012F2E  7  01 00 00 0F 03 2E 2F 
   162)       402.0  Rx     00112F2E  5  01 00 00 2E 2F 
   163)       406.9  Rx     0001A0F2  7  01 00 00 0F 03 F2 A0 
   164)       407.0  Rx     0011A0F2  5  01 00 00 F2 A0 
   165)       411.9  Rx     0001C8FF  7  01 00 00 0F 04 FF C8 
   166)       412.0  Rx     0011C8FF  5  01 00 00 FF C8 
   167)       416.9  Rx     00014BA1  7  01 00 00 0F 03 A1 4B 
   168)       417.0  Rx     00114BA1  5  01 00 00 A1 4B 
   169)       421.9  Rx     000199D3  7  01 00 00 0F 03 D3 99 
   170)       422.0  Rx     001199D3  5  01 00 00 D3 99 
   171)       426.9  Rx     0001B927  7  01 00 00 0F 03 27 B9 
   172)       427.0  Rx     0011B927  5  01 00 00 27 B9 
   173)       431.9  Rx     000129BC  7  01 00 00 0F 03 BC 29 
   174)       432.0  Rx     001129BC  5  01 00 00 BC 29 
   175)       436.9  Rx     00015AD8  7  01 00 00 0F 03 D8 5A 
   176)       437.0  Rx     00115AD8  5  01 00 00 D8 5A 
   177)       441.9  Rx     0001E2E5  7  01 00 00 0F 03 E5 E2 
   178)       442.0  Rx     0011E2E5  5  01 00 00 E5 E2 
   179)       446.9  Rx     0001BF00  7  01 00 00 0F 03 00 BF 
   180)       447.1  Rx     0011BF00  5  01 00 00 00 BF 
   181)       451.9  Rx     00010B78  7  01 00 00 0F 03 78 0B 
   182)       452.0  Rx     00110B78  5  01 00 00 78 0B 
   183)       456.9  Rx     00013851  7  01 00 00 0F 03 51 38 
   184)       457.0  Rx     00113851  5  01 00 00 51 38 
   185)       461.9  Rx     0001F32F  7  01 00 00 0F 03 2F F3 
   186)       462.0  Rx     0011F32F  5  01 00 00 2F F3 
   187)       466.9  Rx     0001F4C4  7  01 00 00 0F 03 C4 F4 
   188)       467.0  Rx     0011F4C4  5  01 00 00 C4 F4 
   189)       471.9  Rx     00017784  7  01 00 00 0F 03 84 77 
   190)       472.0  Rx     00117784  5  01 00 00 84 77 
   191)       476.9  Rx     00014C87  7  01 00 00 0F 03 87 4C 
   192)       477.0  Rx     00114C87  5  01 00 00 87 4C 
   193)       481.9  Rx     0001DD50  7  01 00 00 0F 03 50 DD 
   194)       482.0  Rx     0011DD50  5  01 00 00 50 DD 
   195)       486.9  Rx     0001146D  7  01 00 00 0F 03 6D 14 
   196)       487.0  Rx     0011146D  5  01 00 00 6D 14 
   197)       491.9  Rx     00015468  7  01 00 00 0F 03 68 54 
   198)       492.0  Rx     00115468  5  01 00 00 68 54 
   199)       496.9  Rx     000133F7  7  01 00 00 0F 03 F7 33 
   200)       497.0  Rx     001133F7  5  01 00 00 F7 33 
   201)       501.9  Rx     0001FD6F  7  01 00 00 0F 03 6F FD 
   202)       502.0  Rx     0011FD6F  5  01 00 00 6F FD 
   203)       506.9  Rx     000189F2  7  01 00 00 0F 03 F2 89 
   204)       507.0  Rx     001189F2  5  01 00 00 F2 89 
   205)       511.9  Rx     0001EFF7  7  01 00 00 0F 03 F7 EF 
   206)       512.0  Rx     0011EFF7  5  01 00 00 F7 EF 
   207)       516.9  Rx     00017742  7  01 00 00 0F 03 42 77 
   208)       517.0  Rx     00117742  5  01 00 00 42 77 
   209)       521.9  Rx     0001EAAE  7  01 00 00 0F 03 AE EA 
   210)       522.0  Rx     0011EAAE  5  01 00 00 AE EA 
   211)       526.9  Rx     0001C249  7  01 00 00 0F 03 49 C2 
   212)       527.0  Rx     0011C249  5  01 00 00 49 C2 
   213)       531.9  Rx     00017121  7  01 00 00 0F 03 21 71 
   214)       532.0  Rx     00117121  5  01 00 00 21 71 
   215)       536.9  Rx     00017A13  7  01 00 00 0F 03 13 7A 
   216)       537.0  Rx     00117A13  5  01 00 00 13 7A 
   217)       541.9  Rx     00019A5F  7  01 00 00 0F 03 5F 9A 
   218)       542.0  Rx     00119A5F  5  01 00 00 5F 9A 
   219)       546.9  Rx     00018B2A  7  01 00 00 0F 03 2A 8B 
   220)       547.0  Rx     00118B2A  5  01 00 00 2A 8B 
   221)       551.9  Rx     00019D86  7  01 00 00 0F 03 86 9D 
   222)       552.0  Rx     00119D86  5  01 00 00 86 9D 
   223)       556.9  Rx     000148C1  7  01 00 00 0F 03 C1 48 
   224)       557.0  Rx     001148C1  5  01 00 00 C1 48 
   225)       561.9  Rx     000170F8  7  01 00 00 0F 03 F8 70 
   226)       562.0  Rx     001170F8  5  01 00 00 F8 70 
   227)       566.9  Rx     00014F94  7  01 00 00 0F 03 94 4F 
   228)       567.0  Rx     00114F94  5  01 00 00 94 4F 
   229)       571.9  Rx     000142CE  7  01 00 00 0F 03 CE 42 
   230)       572.0  Rx     001142CE  5  01 00 00 CE 42 
   231)       576.9  Rx     00014CB3  7  01 00 00 0F 03 B3 4C 
   232)       577.0  Rx     00114CB3  5  01 00 00 B3 4C 
   233)       581.9  Rx     00014CC6  7  01 00 00 0F 03 C6 4C 
   234)       582.0  Rx     00114CC6  5  01 00 00 C6 4C 
   235)       586.9  Rx     00017511  7  01 00 00 0F 03 11 75 
   236)       587.0  Rx     00117511  5  01 00 00 11 75 
   237)       591.9  Rx     0001CFBA  7  01 00 00 0F 03 BA CF 
   238)       592.0  Rx     0011CFBA  5  01 00 00 BA CF 
   239)       596.9  Rx     00013B87  7  01 00 00 0F 03 87 3B 
   240)       597.0  Rx     00113B87  5  01 00 00 87 3B 
   241)       601.9  Rx     00019663  7  01 00 00 0F 03 63 96 
   242)       602.0  Rx     00119663  5  01 00 00 63 96 
   243)       606.9  Rx     0001B1B8  7  01 00 00 0F 03 B8 B1 
   244)       607.0  Rx     0011B1B8  5  01 00 00 B8 B1 
   245)       611.9  Rx     0001E4F9  7  01 00 00 0F 03 F9 E4 
   246)       612.0  Rx     0011E4F9  5  01 00 00 F9 E4 
   247)       616.9  Rx     0001CCF0  7  01 00 00 0F 03 F0 CC 
   248)       617.0  Rx     0011CCF0  5  01 00 00 F0 CC 
   249)       621.9  Rx     00014EE8  7  01 00 00 0F 03 E8 4E 
   250)       622.0  Rx     00114EE8  5  01 00 00 E8 4E 
   251)       626.9  Rx     000146F5  7  01 00 00 0F 03 F5 46 
   252)       627.0  Rx     001146F5  5  01 00 00 F5 46 
   253)       631.9  Rx     0001F1BA  7  01 00 00 0F 03 BA F1 
   254)       632.0  Rx     0011F1BA  5  01 00 00 BA F1 
   255)       636.9  Rx     0001A762  7  01 00 00 0F 03 62 A7 
   256)       637.0  Rx     0011A762  5  01 00 00 62 A7 
   257)       641.9  Rx     000127E2  7  01 00 00 0F 03 E2 27 
   258)       642.0  Rx     001127E2  5  01 00 00 E2 27 
   259)       646.9  Rx     0001590A  7  01 00 00 0F 03 0A 59 
   260)       647.0  Rx     0011590A  5  01 00 00 0A 59 
   261)       651.9  Rx     0001AC05  7  01 00 00 0F 03 05 AC 
   262)       652.0  Rx     0011AC05  5  01 00 00 05 AC 
   263)       656.9  Rx     00010F6F  7  01 00 00 0F 03 6F 0F 
   264)       657.0  Rx     00110F6F  5  01 00 00 6F 0F 
   265)       661.9  Rx     00018905  7  01 00 00 0F 03 05 89 
   266)       662.0  Rx     00118905  5  01 00 00 05 89 
   267)       666.9  Rx     00015753  7  01 00 00 0F 03 53 57 
   268)       667.0  Rx     00115753  5  01 00 00 53 57 
   269)       671.9  Rx     0001B0C9  7  01 00 00 0F 03 C9 B0 
   270)       672.0  Rx     0011B0C9  5  01 00 00 C9 B0 
   271)       676.9  Rx     0001D9EF  7  01 00 00 0F 03 EF D9 
   272)       677.0  Rx     0011D9EF  5  01 00 00 EF D9 
   273)       681.9  Rx     0001A7A1  7  01 00 00 0F 03 A1 A7 
   274)       682.0  Rx     0011A7A1  5  01 00 00 A1 A7 
   275)       686.9  Rx     0001214C  7  01 00 00 0F 03 4C 21 
   276)       687.0  Rx     0011214C  5  01 00 00 4C 21 
   277)       691.9  Rx     000113B4  7  01 00 00 0F 03 B4 13 
   278)       692.0  Rx     001113B4  5  01 00 00 B4 13 
   279)       696.9  Rx     00011CE1  7  01 00 00 0F 03 E1 1C 
   280)       697.0  Rx     00111CE1  5  01 00 00 E1 1C 
   281)       701.9  Rx     000193D7  7  01 00 00 0F 03 D7 93 
   282)       702.0  Rx     001193D7  5  01 00 00 D7 93 
   283)       706.9  Rx     00017C54  7  01 00 00 0F 03 54 7C 
   284)       707.0  Rx     00117C54  5  01 00 00 54 7C 
   285)       711.9  Rx     0001E2C5  7  01 00 00 0F 03 C5 E2 
   286)       712.0  Rx     0011E2C5  5  01 00 00 C5 E2 
   287)       716.9  Rx     00011713  7  01 00 00 0F 03 13 17 
   288)       717.0  Rx     00111713  5  01 00 00 13 17 
   289)       721.9  Rx     0001478B  7  01 00 00 0F 03 8B 47 
   290)       722.0  Rx     0011478B  5  01 00 00 8B 47 
   291)       726.9  Rx     0001522E  7  01 00 00 0F 03 2E 52 
   292)       727.0  Rx     0011522E  5  01 00 00 2E 52 
   293)       731.9  Rx     0001C1A2  7  01 00 00 0F 03 A2 C1 
   294)       732.0  Rx     0011C1A2  5  01 00 00 A2 C1 
   295)       736.9  Rx     0001EA83  7  01 00 00 0F 03 83 EA 
   296)       737.0  Rx     0011EA83  5  01 00 00 83 EA 
   297)       741.9  Rx     0001B717  7  01 00 00 0F 03 17 B7 
   298)       742.0  Rx     0011B717  5  01 00 00 17 B7 
   299)       746.9  Rx     0001FC4B  7  01 00 00 0F 03 4B FC 
   300)       747.0  Rx     0011FC4B  5  01 00 00 4B FC 
   301)       751.9  Rx     000180AA  7  01 00 00 0F 03 AA 80 
   302)       752.0  Rx     001180AA  5  01 00 00 AA 80 
   303)       756.9  Rx     00018984  7  01 00 00 0F 03 84 89 
   304)       757.0  Rx     00118984  5  01 00 00 84 89 
   305)       761.9  Rx     0001E3C4  7  01 00 00 0F 03 C4 E3 
   306)       762.0  Rx     0011E3C4  5  01 00 00 C4 E3 
   307)       766.9  Rx     0001A7C8  7  01 00 00 0F 03 C8 A7 
   308)       767.0  Rx     0011A7C8  5  01 00 00 C8 A7 
   309)       771.9  Rx     000197C8  7  01 00 00 0F 03 C8 97 
   310)       772.0  Rx     001197C8  5  01 00 00 C8 97 
   311)       776.9  Rx     0001629F  7  01 00 00 0F 03 9F 62 
   312)       777.0  Rx     0011629F  5  01 00 00 9F 62 
   313)       781.9  Rx     0001EBF9  7  01 00 00 0F 03 F9 EB 
   314)       782.0  Rx     0011EBF9  5  01 00 00 F9 EB 
   315)       786.9  Rx     00018638  7  01 00 00 0F 03 38 86 
   316)       787.0  Rx     00118638  5  01 00 00 38 86 
   317)       791.9  Rx     0001C50D  7  01 00 00 0F 03 0D C5 
   318)       792.0  Rx     0011C50D  5  01 00 00 0D C5 
   319)       796.9  Rx     00014F3E  7  01 00 00 0F 03 3E 4F 
   320)       797.0  Rx     00114F3E  5  01 00 00 3E 4F 
   321)       801.9  Rx     00010D30  7  01 00 00 0F 03 30 0D 
   322)       802.0  Rx     00110D30  5  01 00 00 30 0D 
   323)       806.9  Rx     00014722  7  01 00 00 0F 03 22 47 
   324)       807.0  Rx     00114722  5  01 00 00 22 47 
   325)       811.9  Rx     0001A2FB  7  01 00 00 0F 03 FB A2 
   326)       812.0  Rx     0011A2FB  5  01 00 00 FB A2 
   327)       816.9  Rx     00015509  7  01 00 00 0F 03 09 55 
   328)       817.0  Rx     00115509  5  01 00 00 09 55 
   329)       821.9  Rx     0001D7AB  7  01 00 00 0F 03 AB D7 
   330)       822.0  Rx     0011D7AB  5  01 00 00 AB D7 
   331)       826.9  Rx     00013E48  7  01 00 00 0F 03 48 3E 
   332)       827.0  Rx     00113E48  5  01 00 00 48 3E 
   333)       831.9  Rx     00011AA1  7  01 00 00 0F 03 A1 1A 
   334)       832.0  Rx     00111AA1  5  01 00 00 A1 1A 
   335)       836.9  Rx     00017A0E  7  01 00 00 0F 03 0E 7A 
   336)       837.0  Rx     00117A0E  5  01 00 00 0E 7A 
   337)       841.9  Rx     00010FEA  7  01 00 00 0F 03 EA 0F 
   338)       842.0  Rx     00110FEA  5  01 00 00 EA 0F 
   339)       846.9  Rx     0001D2AD  7  01 00 00 0F 04 AD D2 
   340)       847.0  Rx     0011D2AD  5  01 00 00 AD D2 
   341)       851.9  Rx     0001196A  7  01 00 00 0F 03 6A 19 
   342)       852.0  Rx     0011196A  5  01 00 00 6A 19 
   343)       856.9  Rx     00018FA3  7  01 00 00 0F 03 A3 8F 
   344)       857.0  Rx     00118FA3  5  01 00 00 A3 8F 
   345)       861.9  Rx     0001D5DA  7  01 00 00 0F 03 DA D5 
   346)       862.0  Rx     0011D5DA  5  01 00 00 DA D5 
   347)       866.9  Rx     0001B653  7  01 00 00 0F 03 53 B6 
   348)       867.0  Rx     0011B653  5  01 00 00 53 B6 
   349)       871.9  Rx     00010AB5  7  01 00 00 0F 03 B5 0A 
   350)       872.0  Rx     00110AB5  5  01 00 00 B5 0A 
   351)       876.9  Rx     0001040B  7  01 00 00 0F 03 0B 04 
   352)       877.0  Rx     0011040B  5  01 00 00 0B 04 
   353)       881.9  Rx     0001C9CE  7  01 00 00 0F 03 CE C9 
   354)       882.0  Rx     0011C9CE  5  01 00 00 CE C9 
   355)       886.9  Rx     00014EC7  7  01 00 00 0F 03 C7 4E 
   356)       887.0  Rx     00114EC7  5  01 00 00 C7 4E 
   357)       891.9  Rx     00016D24  7  01 00 00 0F 03 24 6D 
   358)       892.0  Rx     00116D24  5  01 00 00 24 6D 
   359)       896.9  Rx     0001C6D9  7  01 00 00 0F 03 D9 C6 
   360)       897.0  Rx     0011C6D9  5  01 00 00 D9 C6 
   361)       901.9  Rx     0001F32E  7  01 00 00 0F 03 2E F3 
   362)       902.0  Rx     0011F32E  5  01 00 00 2E F3 
   363)       906.9  Rx     0001EE5D  7  01 00 00 0F 03 5D EE 
   364)       907.0  Rx     0011EE5D  5  01 00 00 5D EE 
   365)       911.9  Rx     000163B3  7  01 00 00 0F 03 B3 63 
   366)       912.0  Rx     001163B3  5  01 00 00 B3 63 
   367)       916.9  Rx     0001E417  7  01 00 00 0F 03 17 E4 
   368)       917.0  Rx     0011E417  5  01 00 00 17 E4 
   369)       921.9  Rx     0001E8F0  7  01 00 00 0F 03 F0 E8 
   370)       922.0  Rx     0011E8F0  5  01 00 00 F0 E8 
   371)       926.9  Rx     00013A3A  7  01 00 00 0F 03 3A 3A 
   372)       927.0  Rx     00113A3A  5  01 00 00 3A 3A 
   373)       931.9  Rx     00013A8F  7  01 00 00 0F 03 8F 3A 
   374)       932.0  Rx     00113A8F  5  01 00 00 8F 3A 
   375)       936.9  Rx     00019A26  7  01 00 00 0F 03 26 9A 
   376)       937.0  Rx     00119A26  5  01 00 00 26 9A 
   377)       941.8  Rx     0001E3C9  7  01 00 00 0F 03 C9 E3 
   378)       942.0  Rx     0011E3C9  5  01 00 00 C9 E3 
   379)       946.9  Rx     00015D16  7  01 00 00 0F 03 16 5D 
   380)       947.0  Rx     00115D16  5  01 00 00 16 5D 
   381)       951.9  Rx     000113A3  7  01 00 00 0F 03 A3 13 
   382)       952.0  Rx     001113A3  5  01 00 00 A3 13 
   383)       956.9  Rx     0001F263  7  01 00 00 0F 03 63 F2 
   384)       957.0  Rx     0011F263  5  01 00 00 63 F2 
   385)       961.9  Rx     0001BA22  7  01 00 00 0F 03 22 BA 
   386)       962.0  Rx     0011BA22  5  01 00 00 22 BA 
   387)       966.9  Rx     00017ABD  7  01 00 00 0F 03 BD 7A 
   388)       967.0  Rx     00117ABD  5  01 00 00 BD 7A 
   389)       971.8  Rx     00014EF1  7  01 00 00 0F 03 F1 4E 
   390)       972.0  Rx     00114EF1  5  01 00 00 F1 4E 
   391)       976.9  Rx     0001A48D  7  01 00 00 0F 03 8D A4 
   392)       977.0  Rx     0011A48D  5  01 00 00 8D A4 
   393)       981.9  Rx     000109CC  7  01 00 00 0F 03 CC 09 
   394)       982.0  Rx     001109CC  5  01 00 00 CC 09 
   395)       986.9  Rx     0001E059  7  01 00 00 0F 03 59 E0 
   396)       987.0  Rx     0011E059  5  01 00 00 59 E0 
   397)       991.9  Rx     00013EA6  7  01 00 00 0F 03 A6 3E 
   398)       992.0  Rx     00113EA6  5  01 00 00 A6 3E 
   399)       996.8  Rx     0001F8E8  7  01 00 00 0F 03 E8 F8 
   400)       997.0  Rx     0011F8E8  5  01 00 00 E8 F8 
   401)      1001.9  Rx     00013B72  7  01 00 00 0F 03 72 3B 
   402)      1002.0  Rx     00113B72  5  01 00 00 72 3B 
   403)      1006.9  Rx     00016D72  7  01 00 00 0F 03 72 6D 
   404)      1007.0  Rx     00116D72  5  01 00 00 72 6D 
   405)      1011.9  Rx     0001A2EB  7  01 00 00 0F 03 EB A2 
   406)      1012.0  Rx     0011A2EB  5  01 00 00 EB A2 
   407)      1016.9  Rx     00017520  7  01 00 00 0F 03 20 75 
   408)      1017.0  Rx     00117520  5  01 00 00 20 75 
   409)      1021.8  Rx     00018BD1  7  01 00 00 0F 03 D1 8B 
   410)      1022.0  Rx     00118BD1  5  01 00 00 D1 8B 
   411)      1026.8  Rx     0001D1B1  7  01 00 00 0F 03 B1 D1 
   412)      1027.0  Rx     0011D1B1  5  01 00 00 B1 D1 
   413)      1031.9  Rx     0001397C  7  01 00 00 0F 03 7C 39 
   414)      1032.0  Rx     0011397C  5  01 00 00 7C 39 
   415)      1036.9  Rx     0001BFEF  7  01 00 00 0F 03 EF BF 
   416)      1037.0  Rx     0011BFEF  5  01 00 00 EF BF 
   417)      1041.9  Rx     00011EA9  7  01 00 00 0F 03 A9 1E 
   418)      1042.0  Rx     00111EA9  5  01 00 00 A9 1E 
   419)      1046.8  Rx     0001E366  7  01 00 00 0F 03 66 E3 
   420)      1047.0  Rx     0011E366  5  01 00 00 66 E3 
   421)      1051.8  Rx     000160FA  7  01 00 00 0F 03 FA 60 
   422)      1052.0  Rx     001160FA  5  01 00 00 FA 60 
   423)      1056.9  Rx     0001777D  7  01 00 00 0F 03 7D 77 
   424)      1057.0  Rx     0011777D  5  01 00 00 7D 77 
   425)      1061.9  Rx     00012372  7  01 00 00 0F 03 72 23 
   426)      1062.0  Rx     00112372  5  01 00 00 72 23 
   427)      1066.9  Rx     0001EECF  7  01 00 00 0F 03 CF EE 
   428)      1067.0  Rx     0011EECF  5  01 00 00 CF EE 
   429)      1071.9  Rx     000193FF  7  01 00 00 0F 03 FF 93 
   430)      1072.0  Rx     001193FF  5  01 00 00 FF 93 
   431)      1076.8  Rx     0001EE89  7  01 00 00 0F 03 89 EE 
   432)      1077.0  Rx     0011EE89  5  01 00 00 89 EE 
   433)      1081.8  Rx     0001C7CE  7  01 00 00 0F 03 CE C7 
   434)      1082.0  Rx     0011C7CE  5  01 00 00 CE C7 
   435)      1086.9  Rx     00010A15  7  01 00 00 0F 03 15 0A 
   436)      1087.0  Rx     00110A15  5  01 00 00 15 0A 
   437)      1091.9  Rx     0001F3F5  7  01 00 00 0F 03 F5 F3 
   438)      1092.0  Rx     0011F3F5  5  01 00 00 F5 F3 
   439)      1096.9  Rx     0001104C  7  01 00 00 0F 03 4C 10 
   440)      1097.0  Rx     0011104C  5  01 00 00 4C 10 
   441)      1101.8  Rx     000157C0  7  01 00 00 0F 03 C0 57 
   442)      1102.0  Rx     001157C0  5  01 00 00 C0 57 
   443)      1106.8  Rx     00016615  7  01 00 00 0F 03 15 66 
   444)      1107.0  Rx     00116615  5  01 00 00 15 66 
   445)      1111.8  Rx     0001F3A5  7  01 00 00 0F 03 A5 F3 
   446)      1112.0  Rx     0011F3A5  5  01 00 00 A5 F3 
   447)      1116.9  Rx     00012B18  7  01 00 00 0F 03 18 2B 
   448)      1116.9  Rx     00112B18  5  01 00 00 18 2B 
   449)      1121.9  Rx     000143A1  7  01 00 00 0F 03 A1 43 
   450)      1121.9  Rx     001143A1  5  01 00 00 A1 43 
   451)      1126.8  Rx     000197E4  7  01 00 00 0F 03 E4 97 
   452)      1127.0  Rx     001197E4  5  01 00 00 E4 97 
   453)      1131.8  Rx     0001D591  7  01 00 00 0F 03 91 D5 
   454)      1132.0  Rx     0011D591  5  01 00 00 91 D5 
   455)      1136.8  Rx     0001A1C2  7  01 00 00 0F 03 C2 A1 
   456)      1137.0  Rx     0011A1C2  5  01 00 00 C2 A1 
   457)      1141.9  Rx     000143CD  7  01 00 00 0F 03 CD 43 
   458)      1142.0  Rx     001143CD  5  01 00 00 CD 43 
   459)      1146.9  Rx     0001E30F  7  01 00 00 0F 03 0F E3 
   460)      1146.9  Rx     0011E30F  5  01 00 00 0F E3 
   461)      1151.8  Rx     00014202  7  01 00 00 0F 03 02 42 
   462)      1152.0  Rx     00114202  5  01 00 00 02 42 
   463)      1156.8  Rx     0001F7C5  7  01 00 00 0F 03 C5 F7 
   464)      1157.0  Rx     0011F7C5  5  01 00 00 C5 F7 
   465)      1161.8  Rx     00015220  7  01 00 00 0F 03 20 52 
   466)      1162.0  Rx     00115220  5  01 00 00 20 52 
   467)      1166.8  Rx     00019CA4  7  01 00 00 0F 03 A4 9C 
   468)      1166.9  Rx     00119CA4  5  01 00 00 A4 9C 
   469)      1171.9  Rx     0001CCE0  7  01 00 00 0F 03 E0 CC 
   470)      1171.9  Rx     0011CCE0  5  01 00 00 E0 CC 
   471)      1176.8  Rx     00016821  7  01 00 00 0F 03 21 68 
   472)      1176.9  Rx     00116821  5  01 00 00 21 68 
   473)      1181.8  Rx     0001C523  7  01 00 00 0F 03 23 C5 
   474)      1182.0  Rx     0011C523  5  01 00 00 23 C5 
   475)      1186.8  Rx     000172F4  7  01 00 00 0F 03 F4 72 
   476)      1187.0  Rx     001172F4  5  01 00 00 F4 72 
   477)      1191.8  Rx     00019343  7  01 00 00 0F 03 43 93 
   478)      1191.9  Rx     00119343  5  01 00 00 43 93 
   479)      1196.9  Rx     0001DF07  7  01 00 00 0F 03 07 DF 
   480)      1196.9  Rx     0011DF07  5  01 00 00 07 DF 
   481)      1201.8  Rx     00016505  7  01 00 00 0F 03 05 65 
   482)      1201.9  Rx     00116505  5  01 00 00 05 65 
   483)      1206.8  Rx     0001AE16  7  01 00 00 0F 03 16 AE 
   484)      1207.0  Rx     0011AE16  5  01 00 00 16 AE 
   485)      1211.8  Rx     0001C4CD  7  01 00 00 0F 03 CD C4 
   486)      1212.0  Rx     0011C4CD  5  01 00 00 CD C4 
   487)      1216.8  Rx     0001A236  7  01 00 00 0F 03 36 A2 
   488)      1216.9  Rx     0011A236  5  01 00 00 36 A2 
   489)      1221.8  Rx     00016A4B  7  01 00 00 0F 03 4B 6A 
   490)      1221.9  Rx     00116A4B  5  01 00 00 4B 6A 
   491)      1226.8  Rx     0001952A  7  01 00 00 0F 03 2A 95 
   492)      1226.9  Rx     0011952A  5  01 00 00 2A 95 
   493)      1231.8  Rx     00012CB4  7  01 00 00 0F 03 B4 2C 
   494)      1231.9  Rx     00112CB4  5  01 00 00 B4 2C 
   495)      1236.8  Rx     00014422  7  01 00 00 0F 03 22 44 
   496)      1237.0  Rx     00114422  5  01 00 00 22 44 
   497)      1241.8  Rx     00019E46  7  01 00 00 0F 03 46 9E 
   498)      1242.0  Rx     00119E46  5  01 00 00 46 9E 
   499)      1246.8  Rx     0001BC61  7  01 00 00 0F 03 61 BC 
   500)      1246.9  Rx     0011BC61  5  01 00 00 61 BC 
   501)      1251.8  Rx     0001DAA1  7  01 00 00 0F 03 A1 DA 
   502)      1251.9  Rx     0011DAA1  5  01 00 00 A1 DA 
   503)      1256.8  Rx     00016DDA  7  01 00 00 0F 03 DA 6D 
   504)      1256.9  Rx     00116DDA  5  01 00 00 DA 6D 
   505)      1261.8  Rx     00016547  7  01 00 00 0F 03 47 65 
   506)      1261.9  Rx     00116547  5  01 00 00 47 65 
   507)      1266.8  Rx     000147BF  7  01 00 00 0F 03 BF 47 
   508)      1267.0  Rx     001147BF  5  01 00 00 BF 47 
   509)      1271.8  Rx     0001873C  7  01 00 00 0F 03 3C 87 
   510)      1271.9  Rx     0011873C  5  01 00 00 3C 87 
   511)      1276.8  Rx     000197A6  7  01 00 00 0F 03 A6 97 
   512)      1276.9  Rx     001197A6  5  01 00 00 A6 97 
   513)      1281.8  Rx     0001CE94  7  01 00 00 0F 03 94 CE 
   514)      1281.9  Rx     0011CE94  5  01 00 00 94 CE 
   515)      1286.8  Rx     00013A9D  7  01 00 00 0F 03 9D 3A 
   516)      1286.9  Rx     00113A9D  5  01 00 00 9D 3A 
   517)      1291.8  Rx     00015482  7  01 00 00 0F 03 82 54 
   518)      1292.0  Rx     00115482  5  01 00 00 82 54 
   519)      1296.8  Rx     0001E471  7  01 00 00 0F 03 71 E4 
   520)      1296.9  Rx     0011E471  5  01 00 00 71 E4 
   521)      1301.8  Rx     00019E18  7  01 00 00 0F 03 18 9E 
   522)      1301.9  Rx     00119E18  5  01 00 00 18 9E 
   523)      1306.8  Rx     0001DFF1  7  01 00 00 0F 03 F1 DF 
   524)      1306.9  Rx     0011DFF1  5  01 00 00 F1 DF 
   525)      1311.8  Rx     000141DB  7  01 00 00 0F 03 DB 41 
   526)      1311.9  Rx     001141DB  5  01 00 00 DB 41 
   527)      1316.8  Rx     000113EC  7  01 00 00 0F 03 EC 13 
   528)      1317.0  Rx     001113EC  5  01 00 00 EC 13 
   529)      1321.8  Rx     000173DD  7  01 00 00 0F 03 DD 73 
   530)      1322.0  Rx     001173DD  5  01 00 00 DD 73 
   531)      1326.8  Rx     0001FF4C  7  01 00 00 0F 03 4C FF 
   532)      1326.9  Rx     0011FF4C  5  01 00 00 4C FF 
   533)      1331.8  Rx     0001BBEF  7  01 00 00 0F 03 EF BB 
   534)      1331.9  Rx     0011BBEF  5  01 00 00 EF BB 
   535)      1336.8  Rx     0001136E  7  01 00 00 0F 03 6E 13 
   536)      1336.9  Rx     0011136E  5  01 00 00 6E 13 
   537)      1341.8  Rx     0001B139  7  01 00 00 0F 03 39 B1 
   538)      1341.9  Rx     0011B139  5  01 00 00 39 B1 
   539)      1346.8  Rx     000136A6  7  01 00 00 0F 03 A6 36 
   540)      1347.0  Rx     001136A6  5  01 00 00 A6 36 
   541)      1351.8  Rx     00013033  7  01 00 00 0F 03 33 30 
   542)      1351.9  Rx     00113033  5  01 00 00 33 30 
   543)      1356.8  Rx     0001019C  7  01 00 00 0F 03 9C 01 
   544)      1356.9  Rx     0011019C  5  01 00 00 9C 01 
   545)      1361.8  Rx     0001BFCA  7  01 00 00 0F 03 CA BF 
   546)      1361.9  Rx     0011BFCA  5  01 00 00 CA BF 
   547)      1366.8  Rx     00014CDC  7  01 00 00 0F 03 DC 4C 
   548)      1366.9  Rx     00114CDC  5  01 00 00 DC 4C 
   549)      1371.8  Rx     0001AC45  7  01 00 00 0F 03 45 AC 
   550)      1371.9  Rx     0011AC45  5  01 00 00 45 AC 
   551)      1376.8  Rx     0001E4CD  7  01 00 00 0F 03 CD E4 
   552)      1376.9  Rx     0011E4CD  5  01 00 00 CD E4 
   553)      1381.8  Rx     0001E622  7  01 00 00 0F 03 22 E6 
   554)      1381.9  Rx     0011E622  5  01 00 00 22 E6 
   555)      1386.8  Rx     00018CF5  7  01 00 00 0F 03 F5 8C 
   556)      1386.9  Rx     00118CF5  5  01 00 00 F5 8C 
   557)      1391.8  Rx     00015CFC  7  01 00 00 0F 03 FC 5C 
   558)      1391.9  Rx     00115CFC  5  01 00 00 FC 5C 
   559)      1396.8  Rx     00018C2A  7  01 00 00 0F 03 2A 8C 
   560)      1396.9  Rx     00118C2A  5  01 00 00 2A 8C 
   561)      1401.8  Rx     00018E41  7  01 00 00 0F 03 41 8E 
   562)      1401.9  Rx     00118E41  5  01 00 00 41 8E 
   563)      1406.8  Rx     0001EE27  7  01 00 00 0F 03 27 EE 
   564)      1406.9  Rx     0011EE27  5  01 00 00 27 EE 
   565)      1411.8  Rx     0001113D  7  01 00 00 0F 03 3D 11 
   566)      1411.9  Rx     0011113D  5  01 00 00 3D 11 
   567)      1416.8  Rx     00014B97  7  01 00 00 0F 03 97 4B 
   568)      1416.9  Rx     00114B97  5  01 00 00 97 4B 
   569)      1421.8  Rx     000131C6  7  01 00 00 0F 03 C6 31 
   570)      1421.9  Rx     001131C6  5  01 00 00 C6 31 
   571)      1426.8  Rx     0001949B  7  01 00 00 0F 03 9B 94 
   572)      1426.9  Rx     0011949B  5  01 00 00 9B 94 
   573)      1431.8  Rx     0001F48E  7  01 00 00 0F 03 8E F4 
   574)      1431.9  Rx     0011F48E  5  01 00 00 8E F4 
   575)      1436.8  Rx     0001D654  7  01 00 00 0F 03 54 D6 
   576)      1436.9  Rx     0011D654  5  01 00 00 54 D6 
   577)      1441.8  Rx     000177E4  7  01 00 00 0F 03 E4 77 
   578)      1441.9  Rx     001177E4  5  01 00 00 E4 77 
   579)      1446.8  Rx     000106F2  7  01 00 00 0F 03 F2 06 
   580)      1446.9  Rx     001106F2  5  01 00 00 F2 06 
   581)      1451.8  Rx     0001F16B  7  01 00 00 0F 03 6B F1 
   582)      1451.9  Rx     0011F16B  5  01 00 00 6B F1 
   583)      1456.8  Rx     00011462  7  01 00 00 0F 03 62 14 
   584)      1456.9  Rx     00111462  5  01 00 00 62 14 
   585)      1461.8  Rx     00014115  7  01 00 00 0F 03 15 41 
   586)      1461.9  Rx     00114115  5  01 00 00 15 41 
   587)      1466.8  Rx     00017486  7  01 00 00 0F 03 86 74 
   588)      1466.9  Rx     00117486  5  01 00 00 86 74 
   589)      1471.8  Rx     0001635B  7  01 00 00 0F 03 5B 63 
   590)      1471.9  Rx     0011635B  5  01 00 00 5B 63 
   591)      1476.8  Rx     0001EAA6  7  01 00 00 0F 03 A6 EA 
   592)      1476.9  Rx     0011EAA6  5  01 00 00 A6 EA 
   593)      1481.8  Rx     0001B890  7  01 00 00 0F 03 90 B8 
   594)      1481.9  Rx     0011B890  5  01 00 00 90 B8 
   595)      1486.8  Rx     00012871  7  01 00 00 0F 03 71 28 
   596)      1486.9  Rx     00112871  5  01 00 00 71 28 
   597)      1491.8  Rx     000188C1  7  01 00 00 0F 03 C1 88 
   598)      1491.9  Rx     001188C1  5  01 00 00 C1 88 
   599)      1496.8  Rx     00010DCE  7  01 00 00 0F 03 CE 0D 
   600)      1496.9  Rx     00110DCE  5  01 00 00 CE 0D 
   601)      1501.8  Rx     00016B7A  7  01 00 00 0F 03 7A 6B 
   602)      1501.9  Rx     00116B7A  5  01 00 00 7A 6B 
   603)      1506.8  Rx     0001BD4F  7  01 00 00 0F 03 4F BD 
   604)      1506.9  Rx     0011BD4F  5  01 00 00 4F BD 
   605)      1511.8  Rx     00013472  7  01 00 00 0F 03 72 34 
   606)      1511.9  Rx     00113472  5  01 00 00 72 34 
   607)      1516.8  Rx     0001CBF6  7  01 00 00 0F 03 F6 CB 
   608)      1516.9  Rx     0011CBF6  5  01 00 00 F6 CB 
   609)      1521.8  Rx     000141DF  7  01 00 00 0F 03 DF 41 
   610)      1521.9  Rx     001141DF  5  01 00 00 DF 41 
   611)      1526.8  Rx     000169C1  7  01 00 00 0F 03 C1 69 
   612)      1526.9  Rx     001169C1  5  01 00 00 C1 69 
   613)      1531.8  Rx     0001470A  7  01 00 00 0F 03 0A 47 
   614)      1531.9  Rx     0011470A  5  01 00 00 0A 47 
   615)      1536.8  Rx     0001E509  7  01 00 00 0F 03 09 E5 
   616)      1536.9  Rx     0011E509  5  01 00 00 09 E5 
   617)      1541.8  Rx     0001B55E  7  01 00 00 0F 03 5E B5 
   618)      1541.9  Rx     0011B55E  5  01 00 00 5E B5 
   619)      1546.8  Rx     00016DB7  7  01 00 00 0F 03 B7 6D 
   620)      1546.9  Rx     00116DB7  5  01 00 00 B7 6D 
   621)      1551.8  Rx     00013BFD  7  01 00 00 0F 03 FD 3B 
   622)      1551.9  Rx     00113BFD  5  01 00 00 FD 3B 
   623)      1556.8  Rx     000161E8  7  01 00 00 0F 03 E8 61 
   624)      1556.9  Rx     001161E8  5  01 00 00 E8 61 
   625)      1561.8  Rx     0001B5A6  7  01 00 00 0F 03 A6 B5 
   626)      1561.9  Rx     0011B5A6  5  01 00 00 A6 B5 
   627)      1566.8  Rx     0001406D  7  01 00 00 0F 03 6D 40 
   628)      1566.9  Rx     0011406D  5  01 00 00 6D 40 
   629)      1571.8  Rx     0001C26F  7  01 00 00 0F 03 6F C2 
   630)      1571.9  Rx     0011C26F  5  01 00 00 6F C2 
   631)      1576.8  Rx     00014A4C  7  01 00 00 0F 03 4C 4A 
   632)      1576.9  Rx     00114A4C  5  01 00 00 4C 4A 
   633)      1581.8  Rx     0001DEA4  7  01 00 00 0F 03 A4 DE 
   634)      1581.9  Rx     0011DEA4  5  01 00 00 A4 DE 
   635)      1586.8  Rx     0001FB31  7  01 00 00 0F 03 31 FB 
   636)      1586.9  Rx     0011FB31  5  01 00 00 31 FB 
   637)      1591.8  Rx     000159C4  7  01 00 00 0F 03 C4 59 
   638)      1591.9  Rx     001159C4  5  01 00 00 C4 59 
   639)      1596.8  Rx     00018D6B  7  01 00 00 0F 03 6B 8D 
   640)      1596.9  Rx     00118D6B  5  01 00 00 6B 8D 
   641)      1601.8  Rx     00016078  7  01 00 00 0F 03 78 60 
   642)      1601.9  Rx     00116078  5  01 00 00 78 60 
   643)      1606.8  Rx     000194EA  7  01 00 00 0F 03 EA 94 
   644)      1606.9  Rx     001194EA  5  01 00 00 EA 94 
   645)      1611.8  Rx     0001C9F6  7  01 00 00 0F 03 F6 C9 
   646)      1611.9  Rx     0011C9F6  5  01 00 00 F6 C9 
   647)      1616.8  Rx     0001CD5C  7  01 00 00 0F 03 5C CD 
   648)      1616.9  Rx     0011CD5C  5  01 00 00 5C CD 
   649)      1621.8  Rx     0001452B  7  01 00 00 0F 03 2B 45 
   650)      1621.9  Rx     0011452B  5  01 00 00 2B 45 
   651)      1626.8  Rx     00014A59  7  01 00 00 0F 03 59 4A 
   652)      1626.9  Rx     00114A59  5  01 00 00 59 4A 
   653)      1631.8  Rx     0001C3A8  7  01 00 00 0F 03 A8 C3 
   654)      1631.9  Rx     0011C3A8  5  01 00 00 A8 C3 
   655)      1636.8  Rx     0001213B  7  01 00 00 0F 03 3B 21 
   656)      1636.9  Rx     0011213B  5  01 00 00 3B 21 
   657)      1641.8  Rx     00014821  7  01 00 00 0F 03 21 48 
   658)      1641.9  Rx     00114821  5  01 00 00 21 48 
   659)      1646.8  Rx     0001C71B  7  01 00 00 0F 03 1B C7 
   660)      1646.9  Rx     0011C71B  5  01 00 00 1B C7 
   661)      1651.8  Rx     00015FFE  7  01 00 00 0F 03 FE 5F 
   662)      1651.9  Rx     00115FFE  5  01 00 00 FE 5F 
   663)      1656.8  Rx     0001FA0A  7  01 00 00 0F 04 0A FA 
   664)      1656.9  Rx     0011FA0A  5  01 00 00 0A FA 
   665)      1661.8  Rx     00010F4F  7  01 00 00 0F 03 4F 0F 
   666)      1661.9  Rx     00110F4F  5  01 00 00 4F 0F 
   667)      1666.8  Rx     0001A775  7  01 00 00 0F 03 75 A7 
   668)      1666.9  Rx     0011A775  5  01 00 00 75 A7 
   669)      1671.8  Rx     0001C029  7  01 00 00 0F 03 29 C0 
   670)      1671.9  Rx     0011C029  5  01 00 00 29 C0 
   671)      1676.8  Rx     0001DA5D  7  01 00 00 0F 03 5D DA 
   672)      1676.9  Rx     0011DA5D  5  01 00 00 5D DA 
   673)      1681.8  Rx     00011E2C  7  01 00 00 0F 03 2C 1E 
   674)      1681.9  Rx     00111E2C  5  01 00 00 2C 1E 
   675)      1686.8  Rx     00019ECE  7  01 00 00 0F 03 CE 9E 
   676)      1686.9  Rx     00119ECE  5  01 00 00 CE 9E 
   677)      1691.8  Rx     0001A4C4  7  01 00 00 0F 03 C4 A4 
   678)      1691.9  Rx     0011A4C4  5  01 00 00 C4 A4 
   679)      1696.8  Rx     00013CB4  7  01 00 00 0F 03 B4 3C 
   680)      1696.9  Rx     00113CB4  5  01 00 00 B4 3C 
   681)      1701.8  Rx     0001FA68  7  01 00 00 0F 03 68 FA 
   682)      1701.9  Rx     0011FA68  5  01 00 00 68 FA 
   683)      1706.8  Rx     0001DAFB  7  01 00 00 0F 03 FB DA 
   684)      1706.9  Rx     0011DAFB  5  01 00 00 FB DA 
   685)      1711.8  Rx     0001E0E1  7  01 00 00 0F 03 E1 E0 
   686)      1711.9  Rx     0011E0E1  5  01 00 00 E1 E0 
   687)      1716.8  Rx     000160A5  7  01 00 00 0F 03 A5 60 
   688)      1716.9  Rx     001160A5  5  01 00 00 A5 60 
   689)      1721.8  Rx     00013A5E  7  01 00 00 0F 03 5E 3A 
   690)      1721.9  Rx     00113A5E  5  01 00 00 5E 3A 
   691)      1726.8  Rx     0001503D  7  01 00 00 0F 03 3D 50 
   692)      1726.9  Rx     0011503D  5  01 00 00 3D 50 
   693)      1731.8  Rx     000100E1  7  01 00 00 0F 03 E1 00 
   694)      1731.9  Rx     001100E1  5  01 00 00 E1 00 
   695)      1736.8  Rx     00010AC1  7  01 00 00 0F 03 C1 0A 
   696)      1736.9  Rx     00110AC1  5  01 00 00 C1 0A 
   697)      1741.8  Rx     00018149  7  01 00 00 0F 03 49 81 
   698)      1741.9  Rx     00118149  5  01 00 00 49 81 
   699)      1746.8  Rx     0001160A  7  01 00 00 0F 03 0A 16 
   700)      1746.9  Rx     0011160A  5  01 00 00 0A 16 
   701)      1751.8  Rx     0001D506  7  01 00 00 0F 03 06 D5 
   702)      1751.9  Rx     0011D506  5  01 00 00 06 D5 
   703)      1756.8  Rx     00015F33  7  01 00 00 0F 03 33 5F 
   704)      1756.9  Rx     00115F33  5  01 00 00 33 5F 
   705)      1761.8  Rx     0001B138  7  01 00 00 0F 03 38 B1 
   706)      1761.9  Rx     0011B138  5  01 00 00 38 B1 
   707)      1766.8  Rx     0001908E  7  01 00 00 0F 03 8E 90 
   708)      1766.9  Rx     0011908E  5  01 00 00 8E 90 
   709)      1771.8  Rx     0001FFC9  7  01 00 00 0F 03 C9 FF 
   710)      1771.9  Rx     0011FFC9  5  01 00 00 C9 FF 
   711)      1776.8  Rx     0001AF28  7  01 00 00 0F 03 28 AF 
   712)      1776.9  Rx     0011AF28  5  01 00 00 28 AF 
   713)      1781.8  Rx     0001D2C2  7  01 00 00 0F 03 C2 D2 
   714)      1781.9  Rx     0011D2C2  5  01 00 00 C2 D2 
   715)      1786.8  Rx     0001F6EF  7  01 00 00 0F 03 EF F6 
   716)      1786.9  Rx     0011F6EF  5  01 00 00 EF F6 
   717)      1791.8  Rx     00017FEC  7  01 00 00 0F 03 EC 7F 
   718)      1791.9  Rx     00117FEC  5  01 00 00 EC 7F 
   719)      1796.8  Rx     000154F2  7  01 00 00 0F 03 F2 54 
   720)      1796.9  Rx     001154F2  5  01 00 00 F2 54 
   721)      1801.8  Rx     00014679  7  01 00 00 0F 03 79 46 
   722)      1801.9  Rx     00114679  5  01 00 00 79 46 
   723)      1806.8  Rx     00017653  7  01 00 00 0F 03 53 76 
   724)      1806.9  Rx     00117653  5  01 00 00 53 76 
   725)      1811.8  Rx     0001524D  7  01 00 00 0F 03 4D 52 
   726)      1811.9  Rx     0011524D  5  01 00 00 4D 52 
   727)      1816.8  Rx     000176EA  7  01 00 00 0F 03 EA 76 
   728)      1816.9  Rx     001176EA  5  01 00 00 EA 76 
   729)      1821.8  Rx     0001BC1F  7  01 00 00 0F 03 1F BC 
   730)      1821.9  Rx     0011BC1F  5  01 00 00 1F BC 
   731)      1826.8  Rx     000195A1  7  01 00 00 0F 03 A1 95 
   732)      1826.9  Rx     001195A1  5  01 00 00 A1 95 
   733)      1831.8  Rx     0001F780  7  01 00 00 0F 03 80 F7 
   734)      1831.9  Rx     0011F780  5  01 00 00 80 F7 
   735)      1836.8  Rx     0001CD18  7  01 00 00 0F 03 18 CD 
   736)      1836.9  Rx     0011CD18  5  01 00 00 18 CD 
   737)      1841.8  Rx     0001679A  7  01 00 00 0F 03 9A 67 
   738)      1841.9  Rx     0011679A  5  01 00 00 9A 67 
   739)      1846.8  Rx     00018A0A  7  01 00 00 0F 03 0A 8A 
   740)      1846.9  Rx     00118A0A  5  01 00 00 0A 8A 
   741)      1851.8  Rx     0001F11B  7  01 00 00 0F 03 1B F1 
   742)      1851.9  Rx     0011F11B  5  01 00 00 1B F1 
   743)      1856.8  Rx     00019194  7  01 00 00 0F 03 94 91 
   744)      1856.9  Rx     00119194  5  01 00 00 94 91 
   745)      1861.8  Rx     0001D3A7  7  01 00 00 0F 03 A7 D3 
   746)      1861.9  Rx     0011D3A7  5  01 00 00 A7 D3 
   747)      1866.8  Rx     00017046  7  01 00 00 0F 03 46 70 
   748)      1866.9  Rx     00117046  5  01 00 00 46 70 
   749)      1871.8  Rx     00017ECE  7  01 00 00 0F 03 CE 7E 
   750)      1871.9  Rx     00117ECE  5  01 00 00 CE 7E 
   751)      1876.8  Rx     000133A9  7  01 00 00 0F 03 A9 33 
   752)      1876.9  Rx     001133A9  5  01 00 00 A9 33 
   753)      1881.8  Rx     00013250  7  01 00 00 0F 03 50 32 
   754)      1881.9  Rx     00113250  5  01 00 00 50 32 
   755)      1886.8  Rx     0001C69E  7  01 00 00 0F 03 9E C6 
   756)      1886.9  Rx     0011C69E  5  01 00 00 9E C6 
   757)      1891.8  Rx     0001F739  7  01 00 00 0F 03 39 F7 
   758)      1891.9  Rx     0011F739  5  01 00 00 39 F7 
   759)      1896.7  Rx     00012DBE  7  01 00 00 0F 03 BE 2D 
   760)      1896.9  Rx     00112DBE  5  01 00 00 BE 2D 
   761)      1901.8  Rx     0001471E  7  01 00 00 0F 03 1E 47 
   762)      1901.9  Rx     0011471E  5  01 00 00 1E 47 
   763)      1906.8  Rx     000183AC  7  01 00 00 0F 03 AC 83 
   764)      1906.9  Rx     001183AC  5  01 00 00 AC 83 
   765)      1911.8  Rx     0001847C  7  01 00 00 0F 03 7C 84 
   766)      1911.9  Rx     0011847C  5  01 00 00 7C 84 
   767)      1916.8  Rx     0001E1F4  7  01 00 00 0F 03 F4 E1 
   768)      1916.9  Rx     0011E1F4  5  01 00 00 F4 E1 
   769)      1921.7  Rx     00017F0D  7  01 00 00 0F 03 0D 7F 
   770)      1921.9  Rx     00117F0D  5  01 00 00 0D 7F 
   771)      1926.8  Rx     000195E4  7  01 00 00 0F 03 E4 95 
   772)      1926.9  Rx     001195E4  5  01 00 00 E4 95 
   773)      1931.8  Rx     0001A88D  7  01 00 00 0F 03 8D A8 
   774)      1931.9  Rx     0011A88D  5  01 00 00 8D A8 
   775)      1936.8  Rx     0001598E  7  01 00 00 0F 03 8E 59 
   776)      1936.9  Rx     0011598E  5  01 00 00 8E 59 
   777)      1941.8  Rx     00010243  7  01 00 00 0F 03 43 02 
   778)      1941.9  Rx     00110243  5  01 00 00 43 02 
   779)      1946.8  Rx     000123D1  7  01 00 00 0F 03 D1 23 
   780)      1946.9  Rx     001123D1  5  01 00 00 D1 23 
   781)      1951.7  Rx     0001BD4D  7  01 00 00 0F 03 4D BD 
   782)      1951.9  Rx     0011BD4D  5  01 00 00 4D BD 
   783)      1956.8  Rx     00012B14  7  01 00 00 0F 03 14 2B 
   784)      1956.9  Rx     00112B14  5  01 00 00 14 2B 
   785)      1961.8  Rx     0001C77F  7  01 00 00 0F 03 7F C7 
   786)      1961.9  Rx     0011C77F  5  01 00 00 7F C7 
   787)      1966.8  Rx     0001D11F  7  01 00 00 0F 03 1F D1 
   788)      1966.9  Rx     0011D11F  5  01 00 00 1F D1 
   789)      1971.8  Rx     00018C58  7  01 00 00 0F 03 58 8C 
   790)      1971.9  Rx     00118C58  5  01 00 00 58 8C 
   791)      1976.7  Rx     00012736  7  01 00 00 0F 03 36 27 
   792)      1976.9  Rx     00112736  5  01 00 00 36 27 
   793)      1981.7  Rx     00019D52  7  01 00 00 0F 03 52 9D 
   794)      1981.9  Rx     00119D52  5  01 00 00 52 9D 
   795)      1986.8  Rx     0001285C  7  01 00 00 0F 03 5C 28 
   796)      1986.9  Rx     0011285C  5  01 00 00 5C 28 
   797)      1991.8  Rx     0001EE9F  7  01 00 00 0F 03 9F EE 
   798)      1991.9  Rx     0011EE9F  5  01 00 00 9F EE 
   799)      1996.8  Rx     00014870  7  01 00 00 0F 03 70 48 
   800)      1996.9  Rx     00114870  5  01 00 00 70 48 
   801)      2001.7  Rx     00013D10  7  01 00 00 0F 03 10 3D 
   802)      2001.9  Rx     00113D10  5  01 00 00 10 3D 
   803)      2006.7  Rx     0001C97D  7  01 00 00 0F 03 7D C9 
   804)      2006.9  Rx     0011C97D  5  01 00 00 7D C9 
   805)      2011.8  Rx     00014BB6  7  01 00 00 0F 03 B6 4B 
   806)      2011.9  Rx     00114BB6  5  01 00 00 B6 4B 
   807)      2016.8  Rx     00017D71  7  01 00 00 0F 03 71 7D 
   808)      2016.9  Rx     00117D71  5  01 00 00 71 7D 
   809)      2021.8  Rx     00016383  7  01 00 00 0F 03 83 63 
   810)      2021.9  Rx     00116383  5  01 00 00 83 63 
   811)      2026.8  Rx     0001D521  7  01 00 00 0F 03 21 D5 
   812)      2026.9  Rx     0011D521  5  01 00 00 21 D5 
   813)      2031.7  Rx     000124ED  7  01 00 00 0F 03 ED 24 
   814)      2031.9  Rx     001124ED  5  01 00 00 ED 24 
   815)      2036.7  Rx     00016E3C  7  01 00 00 0F 03 3C 6E 
   816)      2036.9  Rx     00116E3C  5  01 00 00 3C 6E 
   817)      2041.8  Rx     0001C764  7  01 00 00 0F 03 64 C7 
   818)      2041.9  Rx     0011C764  5  01 00 00 64 C7 
   819)      2046.8  Rx     00013498  7  01 00 00 0F 03 98 34 
   820)      2046.8  Rx     00113498  5  01 00 00 98 34 
   821)      2051.8  Rx     0001BC20  7  01 00 00 0F 03 20 BC 
   822)      2051.9  Rx     0011BC20  5  01 00 00 20 BC 
   823)      2056.7  Rx     0001500A  7  01 00 00 0F 03 0A 50 
   824)      2056.9  Rx     0011500A  5  01 00 00 0A 50 
   825)      2061.7  Rx     0001458A  7  01 00 00 0F 03 8A 45 
   826)      2061.9  Rx     0011458A  5  01 00 00 8A 45 
   827)      2066.7  Rx     0001E2A1  7  01 00 00 0F 03 A1 E2 
   828)      2066.9  Rx     0011E2A1  5  01 00 00 A1 E2 
   829)      2071.8  Rx     0001924E  7  01 00 00 0F 03 4E 92 
   830)      2071.8  Rx     0011924E  5  01 00 00 4E 92 
   831)      2076.8  Rx     0001BBF5  7  01 00 00 0F 03 F5 BB 
   832)      2076.9  Rx     0011BBF5  5  01 00 00 F5 BB 
   833)      2081.7  Rx     0001EEDF  7  01 00 00 0F 03 DF EE 
   834)      2081.9  Rx     0011EEDF  5  01 00 00 DF EE 
   835)      2086.7  Rx     00013CF6  7  01 00 00 0F 03 F6 3C 
   836)      2086.9  Rx     00113CF6  5  01 00 00 F6 3C 
   837)      2091.7  Rx     0001F1EB  7  01 00 00 0F 03 EB F1 
   838)      2091.9  Rx     0011F1EB  5  01 00 00 EB F1 
   839)      2096.8  Rx     00017056  7  01 00 00 0F 03 56 70 
   840)      2096.9  Rx     00117056  5  01 00 00 56 70 
   841)      2101.8  Rx     0001F415  7  01 00 00 0F 03 15 F4 
   842)      2101.9  Rx     0011F415  5  01 00 00 15 F4 
   843)      2106.7  Rx     00016688  7  01 00 00 0F 03 88 66 
   844)      2106.9  Rx     00116688  5  01 00 00 88 66 
   845)      2111.7  Rx     000194F4  7  01 00 00 0F 03 F4 94 
   846)      2111.9  Rx     001194F4  5  01 00 00 F4 94 
   847)      2116.7  Rx     000138E9  7  01 00 00 0F 03 E9 38 
   848)      2116.9  Rx     001138E9  5  01 00 00 E9 38 
   849)      2121.7  Rx     0001F31C  7  01 00 00 0F 03 1C F3 
   850)      2121.9  Rx     0011F31C  5  01 00 00 1C F3 
   851)      2126.8  Rx     00017E89  7  01 00 00 0F 03 89 7E 
   852)      2126.8  Rx     00117E89  5  01 00 00 89 7E 
   853)      2131.8  Rx     00012AC6  7  01 00 00 0F 03 C6 2A 
   854)      2131.8  Rx     00112AC6  5  01 00 00 C6 2A 
   855)      2136.7  Rx     0001A5B5  7  01 00 00 0F 03 B5 A5 
   856)      2136.9  Rx     0011A5B5  5  01 00 00 B5 A5 
   857)      2141.7  Rx     0001CA51  7  01 00 00 0F 03 51 CA 
   858)      2141.9  Rx     0011CA51  5  01 00 00 51 CA 
   859)      2146.7  Rx     0001FC2D  7  01 00 00 0F 03 2D FC 
   860)      2146.9  Rx     0011FC2D  5  01 00 00 2D FC 
   861)      2151.7  Rx     0001CDAE  7  01 00 00 0F 03 AE CD 
   862)      2151.8  Rx     0011CDAE  5  01 00 00 AE CD 
   863)      2156.8  Rx     0001E8AD  7  01 00 00 0F 03 AD E8 
   864)      2156.8  Rx     0011E8AD  5  01 00 00 AD E8 
   865)      2161.7  Rx     0001C976  7  01 00 00 0F 03 76 C9 
   866)      2161.9  Rx     0011C976  5  01 00 00 76 C9 
   867)      2166.7  Rx     0001072F  7  01 00 00 0F 03 2F 07 
   868)      2166.9  Rx     0011072F  5  01 00 00 2F 07 
   869)      2171.7  Rx     0001C83F  7  01 00 00 0F 03 3F C8 
   870)      2171.9  Rx     0011C83F  5  01 00 00 3F C8 
   871)      2176.7  Rx     0001A615  7  01 00 00 0F 03 15 A6 
   872)      2176.8  Rx     0011A615  5  01 00 00 15 A6 
   873)      2181.8  Rx     0001C465  7  01 00 00 0F 03 65 C4 
   874)      2181.8  Rx     0011C465  5  01 00 00 65 C4 
   875)      2186.7  Rx     0001A515  7  01 00 00 0F 03 15 A5 
   876)      2186.8  Rx     0011A515  5  01 00 00 15 A5 
   877)      2191.7  Rx     0001FA66  7  01 00 00 0F 03 66 FA 
   878)      2191.9  Rx     0011FA66  5  01 00 00 66 FA 
   879)      2196.7  Rx     0001BBA5  7  01 00 00 0F 03 A5 BB 
   880)      2196.9  Rx     0011BBA5  5  01 00 00 A5 BB 
   881)      2201.7  Rx     00011383  7  01 00 00 0F 03 83 13 
   882)      2201.8  Rx     00111383  5  01 00 00 83 13 
   883)      2206.7  Rx     00014733  7  01 00 00 0F 03 33 47 
   884)      2206.8  Rx     00114733  5  01 00 00 33 47 
   885)      2211.7  Rx     0001763E  7  01 00 00 0F 03 3E 76 
   886)      2211.8  Rx     0011763E  5  01 00 00 3E 76 
   887)      2216.7  Rx     0001166E  7  01 00 00 0F 03 6E 16 
   888)      2216.8  Rx     0011166E  5  01 00 00 6E 16 
   889)      2221.7  Rx     0001A5F5  7  01 00 00 0F 03 F5 A5 
   890)      2221.8  Rx     0011A5F5  5  01 00 00 F5 A5 
   891)      2226.7  Rx     0001D570  7  01 00 00 0F 03 70 D5 
   892)      2226.8  Rx     0011D570  5  01 00 00 70 D5 
   893)      2231.7  Rx     00010CA4  7  01 00 00 0F 03 A4 0C 
   894)      2231.8  Rx     00110CA4  5  01 00 00 A4 0C 
   895)      2236.7  Rx     00018B7F  7  01 00 00 0F 03 7F 8B 
   896)      2236.8  Rx     00118B7F  5  01 00 00 7F 8B 
   897)      2241.7  Rx     00011994  7  01 00 00 0F 03 94 19 
   898)      2241.8  Rx     00111994  5  01 00 00 94 19 
   899)      2246.7  Rx     000131CB  7  01 00 00 0F 03 CB 31 
   900)      2246.8  Rx     001131CB  5  01 00 00 CB 31 
   901)      2251.7  Rx     0001F589  7  01 00 00 0F 03 89 F5 
   902)      2251.8  Rx     0011F589  5  01 00 00 89 F5 
   903)      2256.7  Rx     00018F47  7  01 00 00 0F 03 47 8F 
   904)      2256.8  Rx     00118F47  5  01 00 00 47 8F 
   905)      2261.7  Rx     0001D0A1  7  01 00 00 0F 03 A1 D0 
   906)      2261.8  Rx     0011D0A1  5  01 00 00 A1 D0 
   907)      2266.7  Rx     0001689B  7  01 00 00 0F 03 9B 68 
   908)      2266.8  Rx     0011689B  5  01 00 00 9B 68 
   909)      2271.7  Rx     00013009  7  01 00 00 0F 03 09 30 
   910)      2271.8  Rx     00113009  5  01 00 00 09 30 
   911)      2276.7  Rx     000127B8  7  01 00 00 0F 03 B8 27 
   912)      2276.8  Rx     001127B8  5  01 00 00 B8 27 
   913)      2281.7  Rx     0001E537  7  01 00 00 0F 03 37 E5 
   914)      2281.8  Rx     0011E537  5  01 00 00 37 E5 
   915)      2286.7  Rx     00011D98  7  01 00 00 0F 03 98 1D 
   916)      2286.8  Rx     00111D98  5  01 00 00 98 1D 
   917)      2291.7  Rx     0001463F  7  01 00 00 0F 03 3F 46 
   918)      2291.8  Rx     0011463F  5  01 00 00 3F 46 
   919)      2296.7  Rx     00019930  7  01 00 00 0F 03 30 99 
   920)      2296.8  Rx     00119930  5  01 00 00 30 99 
   921)      2301.7  Rx     00016283  7  01 00 00 0F 03 83 62 
   922)      2301.8  Rx     00116283  5  01 00 00 83 62 
   923)      2306.7  Rx     0001B99C  7  01 00 00 0F 03 9C B9 
   924)      2306.8  Rx     0011B99C  5  01 00 00 9C B9 
   925)      2311.7  Rx     0001B4D5  7  01 00 00 0F 03 D5 B4 
   926)      2311.8  Rx     0011B4D5  5  01 00 00 D5 B4 
   927)      2316.7  Rx     00014E16  7  01 00 00 0F 03 16 4E 
   928)      2316.8  Rx     00114E16  5  01 00 00 16 4E 
   929)      2321.7  Rx     000127B5  7  01 00 00 0F 03 B5 27 
   930)      2321.8  Rx     001127B5  5  01 00 00 B5 27 
   931)      2326.7  Rx     0001D529  7  01 00 00 0F 03 29 D5 
   932)      2326.8  Rx     0011D529  5  01 00 00 29 D5 
   933)      2331.7  Rx     0001965D  7  01 00 00 0F 03 5D 96 
   934)      2331.8  Rx     0011965D  5  01 00 00 5D 96 
   935)      2336.7  Rx     0001A546  7  01 00 00 0F 03 46 A5 
   936)      2336.8  Rx     0011A546  5  01 00 00 46 A5 
   937)      2341.7  Rx     00011CB5  7  01 00 00 0F 03 B5 1C 
   938)      2341.8  Rx     00111CB5  5  01 00 00 B5 1C 
   939)      2346.6  Rx     000183A9  7  01 00 00 0F 03 A9 83 
   940)      2346.8  Rx     001183A9  5  01 00 00 A9 83 
   941)      2351.7  Rx     00012261  7  01 00 00 0F 03 61 22 
   942)      2351.8  Rx     00112261  5  01 00 00 61 22 
   943)      2356.7  Rx     0001B32C  7  01 00 00 0F 03 2C B3 
   944)      2356.8  Rx     0011B32C  5  01 00 00 2C B3 
   945)      2361.7  Rx     00013495  7  01 00 00 0F 03 95 34 
   946)      2361.8  Rx     00113495  5  01 00 00 95 34 
   947)      2366.7  Rx     00019778  7  01 00 00 0F 03 78 97 
   948)      2366.8  Rx     00119778  5  01 00 00 78 97 
   949)      2371.6  Rx     0001403C  7  01 00 00 0F 03 3C 40 
   950)      2371.8  Rx     0011403C  5  01 00 00 3C 40 
   951)      2376.7  Rx     00011DB2  7  01 00 00 0F 03 B2 1D 
   952)      2376.8  Rx     00111DB2  5  01 00 00 B2 1D 
   953)      2381.7  Rx     00017DC8  7  01 00 00 0F 03 C8 7D 
   954)      2381.8  Rx     00117DC8  5  01 00 00 C8 7D 
   955)      2386.7  Rx     0001FEA1  7  01 00 00 0F 03 A1 FE 
   956)      2386.8  Rx     0011FEA1  5  01 00 00 A1 FE 
   957)      2391.7  Rx     000125A6  7  01 00 00 0F 03 A6 25 
   958)      2391.8  Rx     001125A6  5  01 00 00 A6 25 
   959)      2396.7  Rx     0001EEDA  7  01 00 00 0F 03 DA EE 
   960)      2396.8  Rx     0011EEDA  5  01 00 00 DA EE 
   961)      2401.6  Rx     00012817  7  01 00 00 0F 03 17 28 
   962)      2401.8  Rx     00112817  5  01 00 00 17 28 
   963)      2406.7  Rx     0001086B  7  01 00 00 0F 03 6B 08 
   964)      2406.8  Rx     0011086B  5  01 00 00 6B 08 
   965)      2411.7  Rx     0001D110  7  01 00 00 0F 03 10 D1 
   966)      2411.8  Rx     0011D110  5  01 00 00 10 D1 
   967)      2416.7  Rx     00015A2A  7  01 00 00 0F 03 2A 5A 
   968)      2416.8  Rx     00115A2A  5  01 00 00 2A 5A 
   969)      2421.7  Rx     0001AC4E  7  01 00 00 0F 03 4E AC 
   970)      2421.8  Rx     0011AC4E  5  01 00 00 4E AC 
   971)      2426.6  Rx     0001C792  7  01 00 00 0F 03 92 C7 
   972)      2426.8  Rx     0011C792  5  01 00 00 92 C7 
   973)      2431.6  Rx     0001ABB4  7  01 00 00 0F 03 B4 AB 
   974)      2431.8  Rx     0011ABB4  5  01 00 00 B4 AB 
   975)      2436.7  Rx     000190CA  7  01 00 00 0F 03 CA 90 
   976)      2436.8  Rx     001190CA  5  01 00 00 CA 90 
   977)      2441.7  Rx     0001C5B9  7  01 00 00 0F 03 B9 C5 
   978)      2441.7  Rx     0011C5B9  5  01 00 00 B9 C5 
   979)      2446.7  Rx     00014954  7  01 00 00 0F 03 54 49 
   980)      2446.8  Rx     00114954  5  01 00 00 54 49 
   981)      2451.6  Rx     0001076A  7  01 00 00 0F 03 6A 07 
   982)      2451.8  Rx     0011076A  5  01 00 00 6A 07 
   983)      2456.6  Rx     00019C6E  7  01 00 00 0F 03 6E 9C 
   984)      2456.8  Rx     00119C6E  5  01 00 00 6E 9C 
   985)      2461.7  Rx     00018551  7  01 00 00 0F 03 51 85 
   986)      2461.8  Rx     00118551  5  01 00 00 51 85 
   987)      2466.7  Rx     0001F531  7  01 00 00 0F 03 31 F5 
   988)      2466.8  Rx     0011F531  5  01 00 00 31 F5 
   989)      2471.7  Rx     0001C03C  7  01 00 00 0F 03 3C C0 
   990)      2471.8  Rx     0011C03C  5  01 00 00 3C C0 
   991)      2476.6  Rx     000118F4  7  01 00 00 0F 03 F4 18 
   992)      2476.8  Rx     001118F4  5  01 00 00 F4 18 
   993)      2481.6  Rx     000172B5  7  01 00 00 0F 03 B5 72 
   994)      2481.8  Rx     001172B5  5  01 00 00 B5 72 
   995)      2486.6  Rx     0001DD71  7  01 00 00 0F 03 71 DD 
   996)      2486.8  Rx     0011DD71  5  01 00 00 71 DD 
   997)      2491.7  Rx     0001CDB7  7  01 00 00 0F 03 B7 CD 
   998)      2491.8  Rx     0011CDB7  5  01 00 00 B7 CD 
   999)      2496.7  Rx     00011CCC  7  01 00 00 0F 03 CC 1C 
  1000)      2496.8  Rx     00111CCC  5  01 00 00 CC 1C 
  1001)      2501.7  Rx     00018ADA  7  01 00 00 0F 03 DA 8A 
  1002)      2501.8  Rx     00118ADA  5  01 00 00 DA 8A 
  1003)      2506.6  Rx     00010865  7  01 00 00 0F 03 65 08 
  1004)      2506.8  Rx     00110865  5  01 00 00 65 08 
  1005)      2511.6  Rx     0001B406  7  01 00 00 0F 03 06 B4 
  1006)      2511.8  Rx     0011B406  5  01 00 00 06 B4 
  1007)      2516.7  Rx     0001F81B  7  01 00 00 0F 03 1B F8 
  1008)      2516.8  Rx     0011F81B  5  01 00 00 1B F8 
  1009)      2521.7  Rx     00015481  7  01 00 00 0F 03 81 54 
  1010)      2521.7  Rx     00115481  5  01 00 00 81 54 
  1011)      2526.7  Rx     0001C66D  7  01 00 00 0F 03 6D C6 
  1012)      2526.7  Rx     0011C66D  5  01 00 00 6D C6 
  1013)      2531.6  Rx     00013CC0  7  01 00 00 0F 03 C0 3C 
  1014)      2531.8  Rx     00113CC0  5  01 00 00 C0 3C 
  1015)      2536.6  Rx     0001069D  7  01 00 00 0F 03 9D 06 
  1016)      2536.8  Rx     0011069D  5  01 00 00 9D 06 
  1017)      2541.6  Rx     0001F66B  7  01 00 00 0F 03 6B F6 
  1018)      2541.8  Rx     0011F66B  5  01 00 00 6B F6 
  1019)      2546.7  Rx     0001F8BD  7  01 00 00 0F 03 BD F8 
  1020)      2546.8  Rx     0011F8BD  5  01 00 00 BD F8 
  1021)      2551.7  Rx     0001F37B  7  01 00 00 0F 03 7B F3 
  1022)      2551.7  Rx     0011F37B  5  01 00 00 7B F3 
  1023)      2556.6  Rx     0001884E  7  01 00 00 0F 03 4E 88 
  1024)      2556.8  Rx     0011884E  5  01 00 00 4E 88 
  1025)      2561.6  Rx     00013B4D  7  01 00 00 0F 03 4D 3B 
  1026)      2561.8  Rx     00113B4D  5  01 00 00 4D 3B 
  1027)      2566.6  Rx     000168DE  7  01 00 00 0F 03 DE 68 
  1028)      2566.8  Rx     001168DE  5  01 00 00 DE 68 
  1029)      2571.6  Rx     0001AA28  7  01 00 00 0F 03 28 AA 
  1030)      2571.8  Rx     0011AA28  5  01 00 00 28 AA 
  1031)      2576.7  Rx     000168C6  7  01 00 00 0F 03 C6 68 
  1032)      2576.7  Rx     001168C6  5  01 00 00 C6 68 
  1033)      2581.7  Rx     0001B385  7  01 00 00 0F 03 85 B3 
  1034)      2581.7  Rx     0011B385  5  01 00 00 85 B3 
  1035)      2586.6  Rx     000120F5  7  01 00 00 0F 03 F5 20 
  1036)      2586.8  Rx     001120F5  5  01 00 00 F5 20 
  1037)      2591.6  Rx     0001211D  7  01 00 00 0F 03 1D 21 
  1038)      2591.8  Rx     0011211D  5  01 00 00 1D 21 
  1039)      2596.6  Rx     00011967  7  01 00 00 0F 03 67 19 
  1040)      2596.8  Rx     00111967  5  01 00 00 67 19 
  1041)      2601.6  Rx     0001A889  7  01 00 00 0F 03 89 A8 
  1042)      2601.7  Rx     0011A889  5  01 00 00 89 A8 
  1043)      2606.7  Rx     0001A4C5  7  01 00 00 0F 03 C5 A4 
  1044)      2606.7  Rx     0011A4C5  5  01 00 00 C5 A4 
  1045)      2611.6  Rx     00018AF1  7  01 00 00 0F 03 F1 8A 
  1046)      2611.8  Rx     00118AF1  5  01 00 00 F1 8A 
  1047)      2616.6  Rx     00015238  7  01 00 00 0F 03 38 52 
  1048)      2616.8  Rx     00115238  5  01 00 00 38 52 
  1049)      2621.6  Rx     00015622  7  01 00 00 0F 03 22 56 
  1050)      2621.8  Rx     00115622  5  01 00 00 22 56 
  1051)      2626.6  Rx     00015775  7  01 00 00 0F 03 75 57 
  1052)      2626.7  Rx     00115775  5  01 00 00 75 57 
  1053)      2631.7  Rx     0001180A  7  01 00 00 0F 03 0A 18 
  1054)      2631.7  Rx     0011180A  5  01 00 00 0A 18 
  1055)      2636.6  Rx     0001ED8F  7  01 00 00 0F 03 8F ED 
  1056)      2636.7  Rx     0011ED8F  5  01 00 00 8F ED 
  1057)      2641.6  Rx     0001CD5D  7  01 00 00 0F 03 5D CD 
  1058)      2641.8  Rx     0011CD5D  5  01 00 00 5D CD 
  1059)      2646.6  Rx     0001C211  7  01 00 00 0F 03 11 C2 
  1060)      2646.8  Rx     0011C211  5  01 00 00 11 C2 
  1061)      2651.6  Rx     00018DF7  7  01 00 00 0F 03 F7 8D 
  1062)      2651.8  Rx     00118DF7  5  01 00 00 F7 8D 
  1063)      2656.6  Rx     0001B271  7  01 00 00 0F 03 71 B2 
  1064)      2656.7  Rx     0011B271  5  01 00 00 71 B2 
  1065)      2661.6  Rx     0001293C  7  01 00 00 0F 03 3C 29 
  1066)      2661.7  Rx     0011293C  5  01 00 00 3C 29 
  1067)      2666.6  Rx     0001DED1  7  01 00 00 0F 03 D1 DE 
  1068)      2666.7  Rx     0011DED1  5  01 00 00 D1 DE 
  1069)      2671.6  Rx     0001DA7D  7  01 00 00 0F 03 7D DA 
  1070)      2671.8  Rx     0011DA7D  5  01 00 00 7D DA 
  1071)      2676.6  Rx     00012DB8  7  01 00 00 0F 03 B8 2D 
  1072)      2676.8  Rx     00112DB8  5  01 00 00 B8 2D 
  1073)      2681.6  Rx     0001892F  7  01 00 00 0F 03 2F 89 
  1074)      2681.7  Rx     0011892F  5  01 00 00 2F 89 
  1075)      2686.7  Rx     0001751C  7  01 00 00 0F 03 1C 75 
  1076)      2686.7  Rx     0011751C  5  01 00 00 1C 75 
  1077)      2691.6  Rx     00019273  7  01 00 00 0F 03 73 92 
  1078)      2691.7  Rx     00119273  5  01 00 00 73 92 
  1079)      2696.6  Rx     000171F8  7  01 00 00 0F 03 F8 71 
  1080)      2696.8  Rx     001171F8  5  01 00 00 F8 71 
  1081)      2701.6  Rx     00012945  7  01 00 00 0F 03 45 29 
  1082)      2701.8  Rx     00112945  5  01 00 00 45 29 
  1083)      2706.6  Rx     00016A4A  7  01 00 00 0F 03 4A 6A 
  1084)      2706.7  Rx     00116A4A  5  01 00 00 4A 6A 
  1085)      2711.6  Rx     0001944D  7  01 00 00 0F 03 4D 94 
  1086)      2711.7  Rx     0011944D  5  01 00 00 4D 94 
  1087)      2716.6  Rx     0001FA22  7  01 00 00 0F 03 22 FA 
  1088)      2716.7  Rx     0011FA22  5  01 00 00 22 FA 
  1089)      2721.6  Rx     00016C20  7  01 00 00 0F 03 20 6C 
  1090)      2721.8  Rx     00116C20  5  01 00 00 20 6C 
  1091)      2726.6  Rx     0001F72C  7  01 00 00 0F 03 2C F7 
  1092)      2726.8  Rx     0011F72C  5  01 00 00 2C F7 
  1093)      2731.6  Rx     00019E79  7  01 00 00 0F 03 79 9E 
  1094)      2731.7  Rx     00119E79  5  01 00 00 79 9E 
  1095)      2736.6  Rx     000166E5  7  01 00 00 0F 03 E5 66 
  1096)      2736.7  Rx     001166E5  5  01 00 00 E5 66 
  1097)      2741.6  Rx     0001FAAD  7  01 00 00 0F 03 AD FA 
  1098)      2741.7  Rx     0011FAAD  5  01 00 00 AD FA 
  1099)      2746.6  Rx     0001164C  7  01 00 00 0F 03 4C 16 
  1100)      2746.7  Rx     0011164C  5  01 00 00 4C 16 
  1101)      2751.6  Rx     0001B96C  7  01 00 00 0F 03 6C B9 
  1102)      2751.8  Rx     0011B96C  5  01 00 00 6C B9 
  1103)      2756.6  Rx     000162D7  7  01 00 00 0F 03 D7 62 
  1104)      2756.8  Rx     001162D7  5  01 00 00 D7 62 
  1105)      2761.6  Rx     0001B98F  7  01 00 00 0F 03 8F B9 
  1106)      2761.7  Rx     0011B98F  5  01 00 00 8F B9 
  1107)      2766.6  Rx     0001D2F3  7  01 00 00 0F 03 F3 D2 
  1108)      2766.7  Rx     0011D2F3  5  01 00 00 F3 D2 
  1109)      2771.6  Rx     0001F17A  7  01 00 00 0F 03 7A F1 
  1110)      2771.7  Rx     0011F17A  5  01 00 00 7A F1 
  1111)      2776.6  Rx     00015956  7  01 00 00 0F 03 56 59 
  1112)      2776.7  Rx     00115956  5  01 00 00 56 59 
  1113)      2781.6  Rx     0001F05F  7  01 00 00 0F 03 5F F0 
  1114)      2781.8  Rx     0011F05F  5  01 00 00 5F F0 
  1115)      2786.6  Rx     00017CEE  7  01 00 00 0F 03 EE 7C 
  1116)      2786.7  Rx     00117CEE  5  01 00 00 EE 7C 
  1117)      2791.6  Rx     0001D069  7  01 00 00 0F 03 69 D0 
  1118)      2791.7  Rx     0011D069  5  01 00 00 69 D0 
  1119)      2796.6  Rx     0001602E  7  01 00 00 0F 03 2E 60 
  1120)      2796.7  Rx     0011602E  5  01 00 00 2E 60 
  1121)      2801.6  Rx     00015E95  7  01 00 00 0F 03 95 5E 
  1122)      2801.7  Rx     00115E95  5  01 00 00 95 5E 
  1123)      2806.6  Rx     00011910  7  01 00 00 0F 03 10 19 
  1124)      2806.8  Rx     00111910  5  01 00 00 10 19 
  1125)      2811.6  Rx     0001FAC3  7  01 00 00 0F 03 C3 FA 
  1126)      2811.7  Rx     0011FAC3  5  01 00 00 C3 FA 
  1127)      2816.6  Rx     0001FFFB  7  01 00 00 0F 03 FB FF 
  1128)      2816.7  Rx     0011FFFB  5  01 00 00 FB FF 
  1129)      2821.6  Rx     00012244  7  01 00 00 0F 04 44 22 
  1130)      2821.7  Rx     00112244  5  01 00 00 44 22 
  1131)      2826.6  Rx     00019E76  7  01 00 00 0F 03 76 9E 
  1132)      2826.7  Rx     00119E76  5  01 00 00 76 9E 
  1133)      2831.6  Rx     0001A8EE  7  01 00 00 0F 03 EE A8 
  1134)      2831.7  Rx     0011A8EE  5  01 00 00 EE A8 
  1135)      2836.6  Rx     0001EF4C  7  01 00 00 0F 03 4C EF 
  1136)      2836.8  Rx     0011EF4C  5  01 00 00 4C EF 
  1137)      2841.6  Rx     0001F888  7  01 00 00 0F 03 88 F8 
  1138)      2841.7  Rx     0011F888  5  01 00 00 88 F8 
  1139)      2846.6  Rx     0001448C  7  01 00 00 0F 03 8C 44 
  1140)      2846.7  Rx     0011448C  5  01 00 00 8C 44 
  1141)      2851.6  Rx     000157FD  7  01 00 00 0F 03 FD 57 
  1142)      2851.7  Rx     001157FD  5  01 00 00 FD 57 
  1143)      2856.6  Rx     0001FC8B  7  01 00 00 0F 03 8B FC 
  1144)      2856.7  Rx     0011FC8B  5  01 00 00 8B FC 
  1145)      2861.6  Rx     00013BBE  7  01 00 00 0F 03 BE 3B 
  1146)      2861.8  Rx     00113BBE  5  01 00 00 BE 3B 
  1147)      2866.6  Rx     0001E9D2  7  01 00 00 0F 03 D2 E9 
  1148)      2866.7  Rx     0011E9D2  5  01 00 00 D2 E9 
  1149)      2871.6  Rx     00013243  7  01 00 00 0F 03 43 32 
  1150)      2871.7  Rx     00113243  5  01 00 00 43 32 
  1151)      2876.6  Rx     0001DE9E  7  01 00 00 0F 03 9E DE 
  1152)      2876.7  Rx     0011DE9E  5  01 00 00 9E DE 
  1153)      2881.6  Rx     0001DF78  7  01 00 00 0F 03 78 DF 
  1154)      2881.7  Rx     0011DF78  5  01 00 00 78 DF 
  1155)      2886.6  Rx     0001475E  7  01 00 00 0F 03 5E 47 
  1156)      2886.7  Rx     0011475E  5  01 00 00 5E 47 
  1157)      2891.6  Rx     0001CBAB  7  01 00 00 0F 03 AB CB 
  1158)      2891.7  Rx     0011CBAB  5  01 00 00 AB CB 
  1159)      2896.6  Rx     0001EC4D  7  01 00 00 0F 03 4D EC 
  1160)      2896.7  Rx     0011EC4D  5  01 00 00 4D EC 
  1161)      2901.6  Rx     0001A62E  7  01 00 00 0F 03 2E A6 
  1162)      2901.7  Rx     0011A62E  5  01 00 00 2E A6 
  1163)      2906.6  Rx     00014520  7  01 00 00 0F 03 20 45 
  1164)      2906.7  Rx     00114520  5  01 00 00 20 45 
  1165)      2911.6  Rx     00018DC9  7  01 00 00 0F 03 C9 8D 
  1166)      2911.7  Rx     00118DC9  5  01 00 00 C9 8D 
  1167)      2916.6  Rx     00010661  7  01 00 00 0F 03 61 06 
  1168)      2916.7  Rx     00110661  5  01 00 00 61 06 
  1169)      2921.6  Rx     00010CB4  7  01 00 00 0F 03 B4 0C 
  1170)      2921.7  Rx     00110CB4  5  01 00 00 B4 0C 
  1171)      2926.6  Rx     00016EE7  7  01 00 00 0F 03 E7 6E 
  1172)      2926.7  Rx     00116EE7  5  01 00 00 E7 6E 
  1173)      2931.6  Rx     00015BAF  7  01 00 00 0F 03 AF 5B 
  1174)      2931.7  Rx     00115BAF  5  01 00 00 AF 5B 
  1175)      2936.6  Rx     00015090  7  01 00 00 0F 03 90 50 
  1176)      2936.7  Rx     00115090  5  01 00 00 90 50 
  1177)      2941.6  Rx     00017F6F  7  01 00 00 0F 03 6F 7F 
  1178)      2941.7  Rx     00117F6F  5  01 00 00 6F 7F 
  1179)      2946.6  Rx     00010626  7  01 00 00 0F 03 26 06 
  1180)      2946.7  Rx     00110626  5  01 00 00 26 06 
  1181)      2951.6  Rx     00011580  7  01 00 00 0F 03 80 15 
  1182)      2951.7  Rx     00111580  5  01 00 00 80 15 
  1183)      2956.6  Rx     0001211B  7  01 00 00 0F 03 1B 21 
  1184)      2956.7  Rx     0011211B  5  01 00 00 1B 21 
  1185)      2961.6  Rx     00013946  7  01 00 00 0F 03 46 39 
  1186)      2961.7  Rx     00113946  5  01 00 00 46 39 
  1187)      2966.6  Rx     00018876  7  01 00 00 0F 03 76 88 
  1188)      2966.7  Rx     00118876  5  01 00 00 76 88 
  1189)      2971.6  Rx     000133C5  7  01 00 00 0F 03 C5 33 
  1190)      2971.7  Rx     001133C5  5  01 00 00 C5 33 
  1191)      2976.6  Rx     0001A733  7  01 00 00 0F 03 33 A7 
  1192)      2976.7  Rx     0011A733  5  01 00 00 33 A7 
  1193)      2981.6  Rx     00018859  7  01 00 00 0F 03 59 88 
  1194)      2981.7  Rx     00118859  5  01 00 00 59 88 
  1195)      2986.6  Rx     0001EADA  7  01 00 00 0F 03 DA EA 
  1196)      2986.7  Rx     0011EADA  5  01 00 00 DA EA 
  1197)      2991.6  Rx     00014A81  7  01 00 00 0F 03 81 4A 
  1198)      2991.7  Rx     00114A81  5  01 00 00 81 4A 
  1199)      2996.6  Rx     0001DC1F  7  01 00 00 0F 03 1F DC 
  1200)      2996.7  Rx     0011DC1F  5  01 00 00 1F DC 
  1201)      3001.6  Rx     0001C073  7  01 00 00 0F 03 73 C0 
  1202)      3001.7  Rx     0011C073  5  01 00 00 73 C0 
  1203)      3006.6  Rx     0001D5C5  7  01 00 00 0F 03 C5 D5 
  1204)      3006.7  Rx     0011D5C5  5  01 00 00 C5 D5 
  1205)      3011.6  Rx     0001A805  7  01 00 00 0F 03 05 A8 
  1206)      3011.7  Rx     0011A805  5  01 00 00 05 A8 
  1207)      3016.6  Rx     00014F1E  7  01 00 00 0F 03 1E 4F 
  1208)      3016.7  Rx     00114F1E  5  01 00 00 1E 4F 
  1209)      3021.6  Rx     0001473F  7  01 00 00 0F 03 3F 47 
  1210)      3021.7  Rx     0011473F  5  01 00 00 3F 47 
  1211)      3026.6  Rx     000121DC  7  01 00 00 0F 03 DC 21 
  1212)      3026.7  Rx     001121DC  5  01 00 00 DC 21 
  1213)      3031.6  Rx     0001E384  7  01 00 00 0F 03 84 E3 
  1214)      3031.7  Rx     0011E384  5  01 00 00 84 E3 
  1215)      3036.6  Rx     0001D80C  7  01 00 00 0F 03 0C D8 
  1216)      3036.7  Rx     0011D80C  5  01 00 00 0C D8 
  1217)      3041.6  Rx     0001B23C  7  01 00 00 0F 03 3C B2 
  1218)      3041.7  Rx     0011B23C  5  01 00 00 3C B2 
  1219)      3046.6  Rx     0001FD7B  7  01 00 00 0F 03 7B FD 
  1220)      3046.7  Rx     0011FD7B  5  01 00 00 7B FD 
  1221)      3051.6  Rx     00015366  7  01 00 00 0F 03 66 53 
  1222)      3051.7  Rx     00115366  5  01 00 00 66 53 
  1223)      3056.6  Rx     00019CC6  7  01 00 00 0F 03 C6 9C 
  1224)      3056.7  Rx     00119CC6  5  01 00 00 C6 9C 
  1225)      3061.6  Rx     0001D671  7  01 00 00 0F 03 71 D6 
  1226)      3061.7  Rx     0011D671  5  01 00 00 71 D6 
  1227)      3066.6  Rx     000156F7  7  01 00 00 0F 03 F7 56 
  1228)      3066.7  Rx     001156F7  5  01 00 00 F7 56 
  1229)      3071.6  Rx     0001C35C  7  01 00 00 0F 03 5C C3 
  1230)      3071.7  Rx     0011C35C  5  01 00 00 5C C3 
  1231)      3076.6  Rx     0001A94E  7  01 00 00 0F 03 4E A9 
  1232)      3076.7  Rx     0011A94E  5  01 00 00 4E A9 
  1233)      3081.6  Rx     0001CDE0  7  01 00 00 0F 03 E0 CD 
  1234)      3081.7  Rx     0011CDE0  5  01 00 00 E0 CD 
  1235)      3086.6  Rx     00011BA8  7  01 00 00 0F 03 A8 1B 
  1236)      3086.7  Rx     00111BA8  5  01 00 00 A8 1B 
  1237)      3091.6  Rx     0001E636  7  01 00 00 0F 03 36 E6 
  1238)      3091.7  Rx     0011E636  5  01 00 00 36 E6 
  1239)      3096.6  Rx     0001DEAD  7  01 00 00 0F 03 AD DE 
  1240)      3096.7  Rx     0011DEAD  5  01 00 00 AD DE 
  1241)      3101.6  Rx     000116BB  7  01 00 00 0F 03 BB 16 
  1242)      3101.7  Rx     001116BB  5  01 00 00 BB 16 
  1243)      3106.6  Rx     000193A4  7  01 00 00 0F 03 A4 93 
  1244)      3106.7  Rx     001193A4  5  01 00 00 A4 93 
  1245)      3111.6  Rx     0001FF76  7  01 00 00 0F 03 76 FF 
  1246)      3111.7  Rx     0011FF76  5  01 00 00 76 FF 
  1247)      3116.6  Rx     0001C09B  7  01 00 00 0F 03 9B C0 
  1248)      3116.7  Rx     0011C09B  5  01 00 00 9B C0 
  1249)      3121.6  Rx     00018857  7  01 00 00 0F 03 57 88 
  1250)      3121.7  Rx     00118857  5  01 00 00 57 88 
  1251)      3126.6  Rx     0001B24C  7  01 00 00 0F 03 4C B2 
  1252)      3126.7  Rx     0011B24C  5  01 00 00 4C B2 
  1253)      3131.6  Rx     000150A3  7  01 00 00 0F 03 A3 50 
  1254)      3131.7  Rx     001150A3  5  01 00 00 A3 50 
  1255)      3136.6  Rx     000145E0  7  01 00 00 0F 03 E0 45 
  1256)      3136.7  Rx     001145E0  5  01 00 00 E0 45 
  1257)      3141.6  Rx     000189E3  7  01 00 00 0F 03 E3 89 
  1258)      3141.7  Rx     001189E3  5  01 00 00 E3 89 
  1259)      3146.6  Rx     00015F87  7  01 00 00 0F 03 87 5F 
  1260)      3146.7  Rx     00115F87  5  01 00 00 87 5F 
  1261)      3151.6  Rx     0001DA5E  7  01 00 00 0F 03 5E DA 
  1262)      3151.7  Rx     0011DA5E  5  01 00 00 5E DA 
  1263)      3156.6  Rx     00019B78  7  01 00 00 0F 03 78 9B 
  1264)      3156.7  Rx     00119B78  5  01 00 00 78 9B 
  1265)      3161.6  Rx     000102D8  7  01 00 00 0F 03 D8 02 
  1266)      3161.7  Rx     001102D8  5  01 00 00 D8 02 
  1267)      3166.6  Rx     0001C5D0  7  01 00 00 0F 03 D0 C5 
  1268)      3166.7  Rx     0011C5D0  5  01 00 00 D0 C5 
  1269)      3171.6  Rx     0001B535  7  01 00 00 0F 03 35 B5 
  1270)      3171.7  Rx     0011B535  5  01 00 00 35 B5 
  1271)      3176.6  Rx     0001FE78  7  01 00 00 0F 03 78 FE 
  1272)      3176.7  Rx     0011FE78  5  01 00 00 78 FE 
  1273)      3181.6  Rx     00016D2F  7  01 00 00 0F 03 2F 6D 
  1274)      3181.7  Rx     00116D2F  5  01 00 00 2F 6D 
  1275)      3186.6  Rx     0001ACF0  7  01 00 00 0F 03 F0 AC 
  1276)      3186.7  Rx     0011ACF0  5  01 00 00 F0 AC 
  1277)      3191.6  Rx     0001CA3A  7  01 00 00 0F 03 3A CA 
  1278)      3191.7  Rx     0011CA3A  5  01 00 00 3A CA 
  1279)      3196.6  Rx     00018CB2  7  01 00 00 0F 03 B2 8C 
  1280)      3196.7  Rx     00118CB2  5  01 00 00 B2 8C 
  1281)      3201.6  Rx     00010555  7  01 00 00 0F 03 55 05 
  1282)      3201.7  Rx     00110555  5  01 00 00 55 05 
  1283)      3206.6  Rx     0001BD8A  7  01 00 00 0F 03 8A BD 
  1284)      3206.7  Rx     0011BD8A  5  01 00 00 8A BD 
  1285)      3211.6  Rx     00015752  7  01 00 00 0F 03 52 57 
  1286)      3211.7  Rx     00115752  5  01 00 00 52 57 
  1287)      3216.6  Rx     00011419  7  01 00 00 0F 03 19 14 
  1288)      3216.7  Rx     00111419  5  01 00 00 19 14 
  1289)      3221.6  Rx     0001AFDD  7  01 00 00 0F 03 DD AF 
  1290)      3221.7  Rx     0011AFDD  5  01 00 00 DD AF 
  1291)      3226.6  Rx     0001DD5B  7  01 00 00 0F 03 5B DD 
  1292)      3226.7  Rx     0011DD5B  5  01 00 00 5B DD 
  1293)      3231.6  Rx     0001774C  7  01 00 00 0F 03 4C 77 
  1294)      3231.7  Rx     0011774C  5  01 00 00 4C 77 
  1295)      3236.6  Rx     0001E8E5  7  01 00 00 0F 03 E5 E8 
  1296)      3236.7  Rx     0011E8E5  5  01 00 00 E5 E8 
  1297)      3241.6  Rx     000118FA  7  01 00 00 0F 03 FA 18 
  1298)      3241.7  Rx     001118FA  5  01 00 00 FA 18 
  1299)      3246.6  Rx     0001703E  7  01 00 00 0F 03 3E 70 
  1300)      3246.7  Rx     0011703E  5  01 00 00 3E 70 
  1301)      3251.6  Rx     0001B5B8  7  01 00 00 0F 03 B8 B5 
  1302)      3251.7  Rx     0011B5B8  5  01 00 00 B8 B5 
  1303)      3256.6  Rx     00019E76  7  01 00 00 0F 03 76 9E 
  1304)      3256.7  Rx     00119E76  5  01 00 00 76 9E 
  1305)      3261.6  Rx     0001D9A9  7  01 00 00 0F 03 A9 D9 
  1306)      3261.7  Rx     0011D9A9  5  01 00 00 A9 D9 
  1307)      3266.6  Rx     0001C1F1  7  01 00 00 0F 03 F1 C1 
  1308)      3266.7  Rx     0011C1F1  5  01 00 00 F1 C1 
  1309)      3271.6  Rx     0001AE75  7  01 00 00 0F 03 75 AE 
  1310)      3271.7  Rx     0011AE75  5  01 00 00 75 AE 
  1311)      3276.6  Rx     0001EEF9  7  01 00 00 0F 03 F9 EE 
  1312)      3276.7  Rx     0011EEF9  5  01 00 00 F9 EE 
  1313)      3281.6  Rx     00016AB1  7  01 00 00 0F 03 B1 6A 
  1314)      3281.7  Rx     00116AB1  5  01 00 00 B1 6A 
  1315)      3286.6  Rx     00013098  7  01 00 00 0F 03 98 30 
  1316)      3286.7  Rx     00113098  5  01 00 00 98 30 
  1317)      3291.6  Rx     00018106  7  01 00 00 0F 03 06 81 
  1318)      3291.7  Rx     00118106  5  01 00 00 06 81 
  1319)      3296.6  Rx     000181CB  7  01 00 00 0F 03 CB 81 
  1320)      3296.7  Rx     001181CB  5  01 00 00 CB 81 
  1321)      3301.6  Rx     00013D4B  7  01 00 00 0F 03 4B 3D 
  1322)      3301.7  Rx     00113D4B  5  01 00 00 4B 3D 
  1323)      3306.6  Rx     0001A004  7  01 00 00 0F 03 04 A0 
  1324)      3306.7  Rx     0011A004  5  01 00 00 04 A0 
  1325)      3311.6  Rx     00017BAD  7  01 00 00 0F 03 AD 7B 
  1326)      3311.7  Rx     00117BAD  5  01 00 00 AD 7B 
  1327)      3316.6  Rx     0001C4A0  7  01 00 00 0F 03 A0 C4 
  1328)      3316.7  Rx     0011C4A0  5  01 00 00 A0 C4 
  1329)      3321.6  Rx     0001D9A0  7  01 00 00 0F 03 A0 D9 
  1330)      3321.7  Rx     0011D9A0  5  01 00 00 A0 D9 
  1331)      3326.6  Rx     0001B5B3  7  01 00 00 0F 03 B3 B5 
  1332)      3326.7  Rx     0011B5B3  5  01 00 00 B3 B5 
  1333)      3331.6  Rx     00019234  7  01 00 00 0F 03 34 92 
  1334)      3331.7  Rx     00119234  5  01 00 00 34 92 
  1335)      3336.6  Rx     0001AF62  7  01 00 00 0F 03 62 AF 
  1336)      3336.7  Rx     0011AF62  5  01 00 00 62 AF 
  1337)      3341.6  Rx     0001D6F7  7  01 00 00 0F 03 F7 D6 
  1338)      3341.7  Rx     0011D6F7  5  01 00 00 F7 D6 
  1339)      3346.6  Rx     00012996  7  01 00 00 0F 03 96 29 
  1340)      3346.7  Rx     00112996  5  01 00 00 96 29 
  1341)      3351.6  Rx     0001088B  7  01 00 00 0F 03 8B 08 
  1342)      3351.7  Rx     0011088B  5  01 00 00 8B 08 
  1343)      3356.6  Rx     000196D9  7  01 00 00 0F 03 D9 96 
  1344)      3356.7  Rx     001196D9  5  01 00 00 D9 96 
  1345)      3361.6  Rx     0001F9A9  7  01 00 00 0F 03 A9 F9 
  1346)      3361.7  Rx     0011F9A9  5  01 00 00 A9 F9 
  1347)      3366.6  Rx     00012796  7  01 00 00 0F 03 96 27 
  1348)      3366.7  Rx     00112796  5  01 00 00 96 27 
  1349)      3371.6  Rx     0001F516  7  01 00 00 0F 03 16 F5 
  1350)      3371.7  Rx     0011F516  5  01 00 00 16 F5 
  1351)      3376.6  Rx     0001FA0E  7  01 00 00 0F 03 0E FA 
  1352)      3376.7  Rx     0011FA0E  5  01 00 00 0E FA 
  1353)      3381.6  Rx     000146DB  7  01 00 00 0F 03 DB 46 
  1354)      3381.7  Rx     001146DB  5  01 00 00 DB 46 
  1355)      3386.6  Rx     000181D3  7  01 00 00 0F 03 D3 81 
  1356)      3386.7  Rx     001181D3  5  01 00 00 D3 81 
  1357)      3391.6  Rx     0001C6C3  7  01 00 00 0F 03 C3 C6 
  1358)      3391.7  Rx     0011C6C3  5  01 00 00 C3 C6 
  1359)      3396.6  Rx     00016670  7  01 00 00 0F 03 70 66 
  1360)      3396.7  Rx     00116670  5  01 00 00 70 66 
  1361)      3401.6  Rx     000109EA  7  01 00 00 0F 03 EA 09 
  1362)      3401.7  Rx     001109EA  5  01 00 00 EA 09 
  1363)      3406.6  Rx     00011FB1  7  01 00 00 0F 03 B1 1F 
  1364)      3406.7  Rx     00111FB1  5  01 00 00 B1 1F 
  1365)      3411.6  Rx     0001EADE  7  01 00 00 0F 03 DE EA 
  1366)      3411.7  Rx     0011EADE  5  01 00 00 DE EA 
  1367)      3416.6  Rx     00012AB3  7  01 00 00 0F 03 B3 2A 
  1368)      3416.7  Rx     00112AB3  5  01 00 00 B3 2A 
  1369)      3421.6  Rx     0001EBA4  7  01 00 00 0F 03 A4 EB 
  1370)      3421.7  Rx     0011EBA4  5  01 00 00 A4 EB 
  1371)      3426.6  Rx     00013593  7  01 00 00 0F 03 93 35 
  1372)      3426.7  Rx     00113593  5  01 00 00 93 35 
  1373)      3431.6  Rx     000142A3  7  01 00 00 0F 03 A3 42 
  1374)      3431.7  Rx     001142A3  5  01 00 00 A3 42 
  1375)      3436.6  Rx     0001387B  7  01 00 00 0F 03 7B 38 
  1376)      3436.7  Rx     0011387B  5  01 00 00 7B 38 
  1377)      3441.6  Rx     0001FB3B  7  01 00 00 0F 03 3B FB 
  1378)      3441.7  Rx     0011FB3B  5  01 00 00 3B FB 
  1379)      3446.6  Rx     0001A964  7  01 00 00 0F 03 64 A9 
  1380)      3446.7  Rx     0011A964  5  01 00 00 64 A9 
  1381)      3451.6  Rx     0001D496  7  01 00 00 0F 03 96 D4 
  1382)      3451.7  Rx     0011D496  5  01 00 00 96 D4 
  1383)      3456.6  Rx     0001F4BC  7  01 00 00 0F 03 BC F4 
  1384)      3456.7  Rx     0011F4BC  5  01 00 00 BC F4 
  1385)      3461.6  Rx     0001C8F9  7  01 00 00 0F 03 F9 C8 
  1386)      3461.7  Rx     0011C8F9  5  01 00 00 F9 C8 
  1387)      3466.6  Rx     00014FD9  7  01 00 00 0F 03 D9 4F 
  1388)      3466.7  Rx     00114FD9  5  01 00 00 D9 4F 
  1389)      3471.6  Rx     00014595  7  01 00 00 0F 03 95 45 
  1390)      3471.7  Rx     00114595  5  01 00 00 95 45 
  1391)      3476.6  Rx     0001FEDE  7  01 00 00 0F 03 DE FE 
  1392)      3476.7  Rx     0011FEDE  5  01 00 00 DE FE 
  1393)      3481.6  Rx     00016AB3  7  01 00 00 0F 03 B3 6A 
  1394)      3481.7  Rx     00116AB3  5  01 00 00 B3 6A 
  1395)      3486.6  Rx     00014678  7  01 00 00 0F 03 78 46 
  1396)      3486.7  Rx     00114678  5  01 00 00 78 46 
  1397)      3491.6  Rx     00015DAA  7  01 00 00 0F 03 AA 5D 
  1398)      3491.7  Rx     00115DAA  5  01 00 00 AA 5D 
  1399)      3496.6  Rx     000102A3  7  01 00 00 0F 03 A3 02 
  1400)      3496.7  Rx     001102A3  5  01 00 00 A3 02 
  1401)      3501.6  Rx     000199FE  7  01 00 00 0F 03 FE 99 
  1402)      3501.7  Rx     001199FE  5  01 00 00 FE 99 
  1403)      3506.6  Rx     00013E57  7  01 00 00 0F 03 57 3E 
  1404)      3506.7  Rx     00113E57  5  01 00 00 57 3E 
  1405)      3511.6  Rx     0001BCA1  7  01 00 00 0F 03 A1 BC 
  1406)      3511.7  Rx     0011BCA1  5  01 00 00 A1 BC 
  1407)      3516.6  Rx     000190C8  7  01 00 00 0F 03 C8 90 
  1408)      3516.7  Rx     001190C8  5  01 00 00 C8 90 
  1409)      3521.6  Rx     0001AC23  7  01 00 00 0F 03 23 AC 
  1410)      3521.7  Rx     0011AC23  5  01 00 00 23 AC 
  1411)      3526.6  Rx     0001D7A4  7  01 00 00 0F 03 A4 D7 
  1412)      3526.7  Rx     0011D7A4  5  01 00 00 A4 D7 
  1413)      3531.6  Rx     00014E5C  7  01 00 00 0F 03 5C 4E 
  1414)      3531.7  Rx     00114E5C  5  01 00 00 5C 4E 
  1415)      3536.6  Rx     0001EA6D  7  01 00 00 0F 03 6D EA 
  1416)      3536.7  Rx     0011EA6D  5  01 00 00 6D EA 
  1417)      3541.6  Rx     0001C7D2  7  01 00 00 0F 03 D2 C7 
  1418)      3541.7  Rx     0011C7D2  5  01 00 00 D2 C7 
  1419)      3546.6  Rx     0001E1E8  7  01 00 00 0F 03 E8 E1 
  1420)      3546.7  Rx     0011E1E8  5  01 00 00 E8 E1 
  1421)      3551.6  Rx     0001D6E8  7  01 00 00 0F 03 E8 D6 
  1422)      3551.7  Rx     0011D6E8  5  01 00 00 E8 D6 
  1423)      3556.6  Rx     0001C335  7  01 00 00 0F 03 35 C3 
  1424)      3556.7  Rx     0011C335  5  01 00 00 35 C3 
  1425)      3561.6  Rx     0001C498  7  01 00 00 0F 03 98 C4 
  1426)      3561.7  Rx     0011C498  5  01 00 00 98 C4 
  1427)      3566.6  Rx     0001B909  7  01 00 00 0F 03 09 B9 
  1428)      3566.7  Rx     0011B909  5  01 00 00 09 B9 
  1429)      3571.6  Rx     00019E4E  7  01 00 00 0F 03 4E 9E 
  1430)      3571.7  Rx     00119E4E  5  01 00 00 4E 9E 
  1431)      3576.6  Rx     00012A2B  7  01 00 00 0F 03 2B 2A 
  1432)      3576.7  Rx     00112A2B  5  01 00 00 2B 2A 
  1433)      3581.6  Rx     00016412  7  01 00 00 0F 03 12 64 
  1434)      3581.7  Rx     00116412  5  01 00 00 12 64 
  1435)      3586.6  Rx     00018F14  7  01 00 00 0F 03 14 8F 
  1436)      3586.7  Rx     00118F14  5  01 00 00 14 8F 
  1437)      3591.6  Rx     0001E029  7  01 00 00 0F 03 29 E0 
  1438)      3591.7  Rx     0011E029  5  01 00 00 29 E0 
  1439)      3596.6  Rx     00014D6A  7  01 00 00 0F 03 6A 4D 
  1440)      3596.7  Rx     00114D6A  5  01 00 00 6A 4D 
  1441)      3601.6  Rx     000158DE  7  01 00 00 0F 03 DE 58 
  1442)      3601.7  Rx     001158DE  5  01 00 00 DE 58 
  1443)      3606.6  Rx     0001BAB7  7  01 00 00 0F 03 B7 BA 
  1444)      3606.7  Rx     0011BAB7  5  01 00 00 B7 BA 
  1445)      3611.6  Rx     00017AFC  7  01 00 00 0F 03 FC 7A 
  1446)      3611.7  Rx     00117AFC  5  01 00 00 FC 7A 
  1447)      3616.6  Rx     0001447B  7  01 00 00 0F 03 7B 44 
  1448)      3616.7  Rx     0011447B  5  01 00 00 7B 44 
  1449)      3621.6  Rx     00014754  7  01 00 00 0F 03 54 47 
  1450)      3621.7  Rx     00114754  5  01 00 00 54 47 
  1451)      3626.6  Rx     00010A8F  7  01 00 00 0F 03 8F 0A 
  1452)      3626.7  Rx     00110A8F  5  01 00 00 8F 0A 
  1453)      3631.6  Rx     00016340  7  01 00 00 0F 03 40 63 
  1454)      3631.7  Rx     00116340  5  01 00 00 40 63 
  1455)      3636.6  Rx     0001E57C  7  01 00 00 0F 03 7C E5 
  1456)      3636.7  Rx     0011E57C  5  01 00 00 7C E5 
  1457)      3641.6  Rx     0001D7F8  7  01 00 00 0F 03 F8 D7 
  1458)      3641.7  Rx     0011D7F8  5  01 00 00 F8 D7 
  1459)      3646.6  Rx     00011126  7  01 00 00 0F 03 26 11 
  1460)      3646.7  Rx     00111126  5  01 00 00 26 11 
  1461)      3651.6  Rx     0001423E  7  01 00 00 0F 03 3E 42 
  1462)      3651.7  Rx     0011423E  5  01 00 00 3E 42 
  1463)      3656.6  Rx     00019904  7  01 00 00 0F 03 04 99 
  1464)      3656.7  Rx     00119904  5  01 00 00 04 99 
  1465)      3661.6  Rx     0001DBAC  7  01 00 00 0F 03 AC DB 
  1466)      3661.7  Rx     0011DBAC  5  01 00 00 AC DB 
  1467)      3666.5  Rx     000181BA  7  01 00 00 0F 03 BA 81 
  1468)      3666.7  Rx     001181BA  5  01 00 00 BA 81 
  1469)      3671.6  Rx     000108A2  7  01 00 00 0F 03 A2 08 
  1470)      3671.7  Rx     001108A2  5  01 00 00 A2 08 
  1471)      3676.6  Rx     000124C9  7  01 00 00 0F 03 C9 24 
  1472)      3676.7  Rx     001124C9  5  01 00 00 C9 24 
  1473)      3681.6  Rx     000145A9  7  01 00 00 0F 03 A9 45 
  1474)      3681.7  Rx     001145A9  5  01 00 00 A9 45 
  1475)      3686.6  Rx     00016DBD  7  01 00 00 0F 03 BD 6D 
  1476)      3686.7  Rx     00116DBD  5  01 00 00 BD 6D 
  1477)      3691.6  Rx     000180CB  7  01 00 00 0F 03 CB 80 
  1478)      3691.7  Rx     001180CB  5  01 00 00 CB 80 
  1479)      3696.6  Rx     00017CFD  7  01 00 00 0F 03 FD 7C 
  1480)      3696.7  Rx     00117CFD  5  01 00 00 FD 7C 
  1481)      3701.6  Rx     00014B2B  7  01 00 00 0F 03 2B 4B 
  1482)      3701.7  Rx     00114B2B  5  01 00 00 2B 4B 
  1483)      3706.6  Rx     00019F20  7  01 00 00 0F 03 20 9F 
  1484)      3706.7  Rx     00119F20  5  01 00 00 20 9F 
  1485)      3711.6  Rx     0001C4E2  7  01 00 00 0F 03 E2 C4 
  1486)      3711.7  Rx     0011C4E2  5  01 00 00 E2 C4 
  1487)      3716.6  Rx     0001987C  7  01 00 00 0F 03 7C 98 
  1488)      3716.7  Rx     0011987C  5  01 00 00 7C 98 
  1489)      3721.5  Rx     000164EE  7  01 00 00 0F 03 EE 64 
  1490)      3721.7  Rx     001164EE  5  01 00 00 EE 64 
  1491)      3726.6  Rx     0001E74F  7  01 00 00 0F 03 4F E7 
  1492)      3726.7  Rx     0011E74F  5  01 00 00 4F E7 
  1493)      3731.6  Rx     0001F0B1  7  01 00 00 0F 03 B1 F0 
  1494)      3731.7  Rx     0011F0B1  5  01 00 00 B1 F0 
  1495)      3736.6  Rx     00013FA7  7  01 00 00 0F 03 A7 3F 
  1496)      3736.7  Rx     00113FA7  5  01 00 00 A7 3F 
  1497)      3741.6  Rx     0001725B  7  01 00 00 0F 03 5B 72 
  1498)      3741.7  Rx     0011725B  5  01 00 00 5B 72 
  1499)      3746.5  Rx     00016AFA  7  01 00 00 0F 03 FA 6A 
  1500)      3746.7  Rx     00116AFA  5  01 00 00 FA 6A 
  1501)      3751.5  Rx     0001A730  7  01 00 00 0F 03 30 A7 
  1502)      3751.7  Rx     0011A730  5  01 00 00 30 A7 
  1503)      3756.6  Rx     0001CA0D  7  01 00 00 0F 03 0D CA 
  1504)      3756.7  Rx     0011CA0D  5  01 00 00 0D CA 
  1505)      3761.6  Rx     0001AE81  7  01 00 00 0F 03 81 AE 
  1506)      3761.7  Rx     0011AE81  5  01 00 00 81 AE 
  1507)      3766.6  Rx     00010299  7  01 00 00 0F 03 99 02 
  1508)      3766.7  Rx     00110299  5  01 00 00 99 02 
  1509)      3771.6  Rx     000187DE  7  01 00 00 0F 03 DE 87 
  1510)      3771.7  Rx     001187DE  5  01 00 00 DE 87 
  1511)      3776.5  Rx     00010ECF  7  01 00 00 0F 03 CF 0E 
  1512)      3776.7  Rx     00110ECF  5  01 00 00 CF 0E 
  1513)      3781.6  Rx     0001DAC4  7  01 00 00 0F 03 C4 DA 
  1514)      3781.7  Rx     0011DAC4  5  01 00 00 C4 DA 
  1515)      3786.6  Rx     00016FAC  7  01 00 00 0F 03 AC 6F 
  1516)      3786.7  Rx     00116FAC  5  01 00 00 AC 6F 
  1517)      3791.6  Rx     0001EBD4  7  01 00 00 0F 03 D4 EB 
  1518)      3791.7  Rx     0011EBD4  5  01 00 00 D4 EB 
  1519)      3796.6  Rx     00011BC0  7  01 00 00 0F 03 C0 1B 
  1520)      3796.7  Rx     00111BC0  5  01 00 00 C0 1B 
  1521)      3801.5  Rx     00013B57  7  01 00 00 0F 03 57 3B 
  1522)      3801.7  Rx     00113B57  5  01 00 00 57 3B 
  1523)      3806.5  Rx     0001C2C5  7  01 00 00 0F 03 C5 C2 
  1524)      3806.7  Rx     0011C2C5  5  01 00 00 C5 C2 
  1525)      3811.6  Rx     0001569A  7  01 00 00 0F 03 9A 56 
  1526)      3811.7  Rx     0011569A  5  01 00 00 9A 56 
  1527)      3816.6  Rx     00010F4D  7  01 00 00 0F 03 4D 0F 
  1528)      3816.6  Rx     00110F4D  5  01 00 00 4D 0F 
  1529)      3821.6  Rx     0001B56A  7  01 00 00 0F 03 6A B5 
  1530)      3821.7  Rx     0011B56A  5  01 00 00 6A B5 
  1531)      3826.5  Rx     00019E47  7  01 00 00 0F 03 47 9E 
  1532)      3826.7  Rx     00119E47  5  01 00 00 47 9E 
  1533)      3831.5  Rx     00010EB7  7  01 00 00 0F 03 B7 0E 
  1534)      3831.7  Rx     00110EB7  5  01 00 00 B7 0E 
  1535)      3836.5  Rx     0001ED22  7  01 00 00 0F 03 22 ED 
  1536)      3836.7  Rx     0011ED22  5  01 00 00 22 ED 
  1537)      3841.6  Rx     0001DB23  7  01 00 00 0F 03 23 DB 
  1538)      3841.7  Rx     0011DB23  5  01 00 00 23 DB 
  1539)      3846.6  Rx     00018DEA  7  01 00 00 0F 03 EA 8D 
  1540)      3846.7  Rx     00118DEA  5  01 00 00 EA 8D 
  1541)      3851.5  Rx     0001AE0A  7  01 00 00 0F 03 0A AE 
  1542)      3851.7  Rx     0011AE0A  5  01 00 00 0A AE 
  1543)      3856.5  Rx     00015D87  7  01 00 00 0F 03 87 5D 
  1544)      3856.7  Rx     00115D87  5  01 00 00 87 5D 
  1545)      3861.5  Rx     0001F14D  7  01 00 00 0F 03 4D F1 
  1546)      3861.7  Rx     0011F14D  5  01 00 00 4D F1 
  1547)      3866.6  Rx     00015705  7  01 00 00 0F 03 05 57 
  1548)      3866.7  Rx     00115705  5  01 00 00 05 57 
  1549)      3871.6  Rx     0001B1DB  7  01 00 00 0F 03 DB B1 
  1550)      3871.6  Rx     0011B1DB  5  01 00 00 DB B1 
  1551)      3876.6  Rx     0001938F  7  01 00 00 0F 03 8F 93 
  1552)      3876.7  Rx     0011938F  5  01 00 00 8F 93 
  1553)      3881.5  Rx     000112D1  7  01 00 00 0F 03 D1 12 
  1554)      3881.7  Rx     001112D1  5  01 00 00 D1 12 
  1555)      3886.5  Rx     00013D8A  7  01 00 00 0F 03 8A 3D 
  1556)      3886.7  Rx     00113D8A  5  01 00 00 8A 3D 
  1557)      3891.5  Rx     00010EAF  7  01 00 00 0F 03 AF 0E 
  1558)      3891.7  Rx     00110EAF  5  01 00 00 AF 0E 
  1559)      3896.6  Rx     000101EF  7  01 00 00 0F 03 EF 01 
  1560)      3896.6  Rx     001101EF  5  01 00 00 EF 01 
  1561)      3901.6  Rx     000129E8  7  01 00 00 0F 03 E8 29 
  1562)      3901.7  Rx     001129E8  5  01 00 00 E8 29 
  1563)      3906.5  Rx     000169CF  7  01 00 00 0F 03 CF 69 
  1564)      3906.7  Rx     001169CF  5  01 00 00 CF 69 
  1565)      3911.5  Rx     0001AFDE  7  01 00 00 0F 03 DE AF 
  1566)      3911.7  Rx     0011AFDE  5  01 00 00 DE AF 
  1567)      3916.5  Rx     000146AE  7  01 00 00 0F 03 AE 46 
  1568)      3916.7  Rx     001146AE  5  01 00 00 AE 46 
  1569)      3921.6  Rx     0001130C  7  01 00 00 0F 03 0C 13 
  1570)      3921.6  Rx     0011130C  5  01 00 00 0C 13 
  1571)      3926.6  Rx     00012312  7  01 00 00 0F 03 12 23 
  1572)      3926.6  Rx     00112312  5  01 00 00 12 23 
  1573)      3931.5  Rx     00011EE5  7  01 00 00 0F 03 E5 1E 
  1574)      3931.7  Rx     00111EE5  5  01 00 00 E5 1E 
  1575)      3936.5  Rx     0001ED81  7  01 00 00 0F 03 81 ED 
  1576)      3936.7  Rx     0011ED81  5  01 00 00 81 ED 
  1577)      3941.5  Rx     00019DB2  7  01 00 00 0F 03 B2 9D 
  1578)      3941.7  Rx     00119DB2  5  01 00 00 B2 9D 
  1579)      3946.5  Rx     000122BA  7  01 00 00 0F 03 BA 22 
  1580)      3946.7  Rx     001122BA  5  01 00 00 BA 22 
  1581)      3951.6  Rx     0001067B  7  01 00 00 0F 03 7B 06 
  1582)      3951.6  Rx     0011067B  5  01 00 00 7B 06 
  1583)      3956.6  Rx     000138F2  7  01 00 00 0F 03 F2 38 
  1584)      3956.6  Rx     001138F2  5  01 00 00 F2 38 
  1585)      3961.5  Rx     0001B6B9  7  01 00 00 0F 03 B9 B6 
  1586)      3961.7  Rx     0011B6B9  5  01 00 00 B9 B6 
  1587)      3966.5  Rx     0001EC5E  7  01 00 00 0F 03 5E EC 
  1588)      3966.7  Rx     0011EC5E  5  01 00 00 5E EC 
  1589)      3971.5  Rx     0001BD64  7  01 00 00 0F 03 64 BD 
  1590)      3971.7  Rx     0011BD64  5  01 00 00 64 BD 
  1591)      3976.6  Rx     00010A46  7  01 00 00 0F 03 46 0A 
  1592)      3976.6  Rx     00110A46  5  01 00 00 46 0A 
  1593)      3981.6  Rx     00014CA0  7  01 00 00 0F 03 A0 4C 
  1594)      3981.6  Rx     00114CA0  5  01 00 00 A0 4C 
  1595)      3986.5  Rx     00012A86  7  01 00 00 0F 03 86 2A 
  1596)      3986.6  Rx     00112A86  5  01 00 00 86 2A 
  1597)      3991.5  Rx     0001E908  7  01 00 00 0F 03 08 E9 
  1598)      3991.7  Rx     0011E908  5  01 00 00 08 E9 
  1599)      3996.5  Rx     0001881B  7  01 00 00 0F 03 1B 88 
  1600)      3996.7  Rx     0011881B  5  01 00 00 1B 88 
  1601)      4001.5  Rx     00019179  7  01 00 00 0F 03 79 91 
  1602)      4001.6  Rx     00119179  5  01 00 00 79 91 
  1603)      4006.6  Rx     0001D032  7  01 00 00 0F 03 32 D0 
  1604)      4006.6  Rx     0011D032  5  01 00 00 32 D0 
  1605)      4011.5  Rx     0001F7C3  7  01 00 00 0F 03 C3 F7 
  1606)      4011.7  Rx     0011F7C3  5  01 00 00 C3 F7 
  1607)      4016.5  Rx     00012BD3  7  01 00 00 0F 03 D3 2B 
  1608)      4016.7  Rx     00112BD3  5  01 00 00 D3 2B 
  1609)      4021.5  Rx     0001E2A0  7  01 00 00 0F 03 A0 E2 
  1610)      4021.7  Rx     0011E2A0  5  01 00 00 A0 E2 
  1611)      4026.5  Rx     0001AB1E  7  01 00 00 0F 03 1E AB 
  1612)      4026.7  Rx     0011AB1E  5  01 00 00 1E AB 
  1613)      4031.5  Rx     0001C2F9  7  01 00 00 0F 03 F9 C2 
  1614)      4031.6  Rx     0011C2F9  5  01 00 00 F9 C2 
  1615)      4036.5  Rx     000145B4  7  01 00 00 0F 03 B4 45 
  1616)      4036.6  Rx     001145B4  5  01 00 00 B4 45 
  1617)      4041.5  Rx     0001E62B  7  01 00 00 0F 03 2B E6 
  1618)      4041.6  Rx     0011E62B  5  01 00 00 2B E6 
  1619)      4046.5  Rx     00016AC2  7  01 00 00 0F 03 C2 6A 
  1620)      4046.7  Rx     00116AC2  5  01 00 00 C2 6A 
  1621)      4051.5  Rx     000108F0  7  01 00 00 0F 03 F0 08 
  1622)      4051.7  Rx     001108F0  5  01 00 00 F0 08 
  1623)      4056.5  Rx     000117CA  7  01 00 00 0F 03 CA 17 
  1624)      4056.6  Rx     001117CA  5  01 00 00 CA 17 
  1625)      4061.6  Rx     0001AE20  7  01 00 00 0F 03 20 AE 
  1626)      4061.6  Rx     0011AE20  5  01 00 00 20 AE 
  1627)      4066.5  Rx     00012C1A  7  01 00 00 0F 03 1A 2C 
  1628)      4066.6  Rx     00112C1A  5  01 00 00 1A 2C 
  1629)      4071.5  Rx     0001225C  7  01 00 00 0F 03 5C 22 
  1630)      4071.7  Rx     0011225C  5  01 00 00 5C 22 
  1631)      4076.5  Rx     00016F93  7  01 00 00 0F 03 93 6F 
