;$FILEVERSION=1.1
;$STARTTIME=46290.8464924537
;
;   Start time: 25/09/2026 20:18:56.948.0
;   Generated by PCAN-View v5.3.3.958
;
;   Message Number
;   |         Time Offset (ms)
;   |         |        Type
;   |         |        |        ID (hex)
;   |         |        |        |     Data Length
;   |         |        |        |     |   Data Bytes (hex) ...
;   |         |        |        |     |   |
;---+--   ----+----  --+--  ----+---  +  -+ -- -- -- -- -- -- --
     1)      7035.5  Error      0004  4  01 0A 00 00
     2)     14526.6  Rx     0001FFCB  7  01 00 00 0F 00 CB FF 
     3)     14526.7  Rx     0011FFCB  5  01 00 00 CB FF 
     4)     14531.6  Rx     0001FD85  7  01 00 00 0F 03 85 FD 
     5)     14531.7  Rx     0011FD85  5  01 00 00 85 FD 
     6)     14536.6  Rx     0001DD1C  7  01 00 00 0F 03 1C DD 
     7)     14536.7  Rx     0011DD1C  5  01 00 00 1C DD 
     8)     14541.6  Rx     0001C844  7  01 00 00 0F 03 44 C8 
     9)     14541.7  Rx     0011C844  5  01 00 00 44 C8 
    10)     14546.6  Rx     00011509  7  01 00 00 0F 03 09 15 
    11)     14546.7  Rx     00111509  5  01 00 00 09 15 
    12)     14551.6  Rx     0001F71B  7  01 00 00 0F 03 1B F7 
    13)     14551.7  Rx     0011F71B  5  01 00 00 1B F7 
    14)     14556.6  Rx     0001A222  7  01 00 00 0F 03 22 A2 
    15)     14556.7  Rx     0011A222  5  01 00 00 22 A2 
    16)     14561.6  Rx     00016F3D  7  01 00 00 0F 03 3D 6F 
    17)     14561.7  Rx     00116F3D  5  01 00 00 3D 6F 
    18)     14566.6  Rx     000122E5  7  01 00 00 0F 03 E5 22 
    19)     14566.7  Rx     001122E5  5  01 00 00 E5 22 
    20)     14571.6  Rx     0001C0A7  7  01 00 00 0F 03 A7 C0 
    21)     14571.7  Rx     0011C0A7  5  01 00 00 A7 C0 
    22)     14576.6  Rx     0001E6F1  7  01 00 00 0F 03 F1 E6 
    23)     14576.7  Rx     0011E6F1  5  01 00 00 F1 E6 
    24)     14581.6  Rx     0001D8E6  7  01 00 00 0F 03 E6 D8 
    25)     14581.7  Rx     0011D8E6  5  01 00 00 E6 D8 
    26)     14586.6  Rx     00016190  7  01 00 00 0F 03 90 61 
    27)     14586.7  Rx     00116190  5  01 00 00 90 61 
    28)     14591.6  Rx     000172B8  7  01 00 00 0F 03 B8 72 
    29)     14591.7  Rx     001172B8  5  01 00 00 B8 72 
    30)     14596.6  Rx     0001330E  7  01 00 00 0F 03 0E 33 
    31)     14596.7  Rx     0011330E  5  01 00 00 0E 33 
    32)     14601.6  Rx     000133AC  7  01 00 00 0F 03 AC 33 
    33)     14601.7  Rx     001133AC  5  01 00 00 AC 33 
    34)     14606.6  Rx     0001C23B  7  01 00 00 0F 03 3B C2 
    35)     14606.7  Rx     0011C23B  5  01 00 00 3B C2 
    36)     14611.6  Rx     0001AFB1  7  01 00 00 0F 03 B1 AF 
    37)     14611.7  Rx     0011AFB1  5  01 00 00 B1 AF 
    38)     14616.6  Rx     0001C904  7  01 00 00 0F 03 04 C9 
    39)     14616.7  Rx     0011C904  5  01 00 00 04 C9 
    40)     14621.6  Rx     00016F38  7  01 00 00 0F 03 38 6F 
    41)     14621.7  Rx     00116F38  5  01 00 00 38 6F 
    42)     14626.6  Rx     0001C70B  7  01 00 00 0F 03 0B C7 
    43)     14626.7  Rx     0011C70B  5  01 00 00 0B C7 
    44)     14631.6  Rx     0001FF4D  7  01 00 00 0F 03 4D FF 
    45)     14631.7  Rx     0011FF4D  5  01 00 00 4D FF 
    46)     14636.6  Rx     00014AAF  7  01 00 00 0F 03 AF 4A 
    47)     14636.7  Rx     00114AAF  5  01 00 00 AF 4A 
    48)     14641.6  Rx     000143D6  7  01 00 00 0F 03 D6 43 
    49)     14641.7  Rx     001143D6  5  01 00 00 D6 43 
    50)     14646.6  Rx     0001BCCD  7  01 00 00 0F 03 CD BC 
    51)     14646.7  Rx     0011BCCD  5  01 00 00 CD BC 
    52)     14651.6  Rx     000126DF  7  01 00 00 0F 03 DF 26 
    53)     14651.7  Rx     001126DF  5  01 00 00 DF 26 
    54)     14656.6  Rx     00012D57  7  01 00 00 0F 03 57 2D 
    55)     14656.7  Rx     00112D57  5  01 00 00 57 2D 
    56)     14661.6  Rx     0001D495  7  01 00 00 0F 03 95 D4 
    57)     14661.7  Rx     0011D495  5  01 00 00 95 D4 
    58)     14666.6  Rx     0001BE6A  7  01 00 00 0F 03 6A BE 
    59)     14666.7  Rx     0011BE6A  5  01 00 00 6A BE 
    60)     14671.6  Rx     0001725C  7  01 00 00 0F 03 5C 72 
    61)     14671.7  Rx     0011725C  5  01 00 00 5C 72 
    62)     14676.6  Rx     00016583  7  01 00 00 0F 03 83 65 
    63)     14676.7  Rx     00116583  5  01 00 00 83 65 
    64)     14681.6  Rx     0001A42D  7  01 00 00 0F 03 2D A4 
    65)     14681.7  Rx     0011A42D  5  01 00 00 2D A4 
    66)     14686.6  Rx     0001B218  7  01 00 00 0F 03 18 B2 
    67)     14686.7  Rx     0011B218  5  01 00 00 18 B2 
    68)     14691.6  Rx     0001FE1A  7  01 00 00 0F 03 1A FE 
    69)     14691.7  Rx     0011FE1A  5  01 00 00 1A FE 
    70)     14696.6  Rx     0001EA8A  7  01 00 00 0F 03 8A EA 
    71)     14696.7  Rx     0011EA8A  5  01 00 00 8A EA 
    72)     14701.6  Rx     000148A4  7  01 00 00 0F 03 A4 48 
    73)     14701.7  Rx     001148A4  5  01 00 00 A4 48 
    74)     14706.6  Rx     00017854  7  01 00 00 0F 03 54 78 
    75)     14706.7  Rx     00117854  5  01 00 00 54 78 
    76)     14711.6  Rx     00011155  7  01 00 00 0F 03 55 11 
    77)     14711.7  Rx     00111155  5  01 00 00 55 11 
    78)     14716.6  Rx     000139E9  7  01 00 00 0F 03 E9 39 
    79)     14716.7  Rx     001139E9  5  01 00 00 E9 39 
    80)     14721.6  Rx     00014DAF  7  01 00 00 0F 03 AF 4D 
    81)     14721.7  Rx     00114DAF  5  01 00 00 AF 4D 
    82)     14726.6  Rx     0001E892  7  01 00 00 0F 03 92 E8 
    83)     14726.7  Rx     0011E892  5  01 00 00 92 E8 
    84)     14731.6  Rx     00017175  7  01 00 00 0F 03 75 71 
    85)     14731.7  Rx     00117175  5  01 00 00 75 71 
    86)     14736.6  Rx     0001FE57  7  01 00 00 0F 03 57 FE 
    87)     14736.7  Rx     0011FE57  5  01 00 00 57 FE 
    88)     14741.6  Rx     0001FDD9  7  01 00 00 0F 03 D9 FD 
    89)     14741.7  Rx     0011FDD9  5  01 00 00 D9 FD 
    90)     14746.6  Rx     0001E3B1  7  01 00 00 0F 03 B1 E3 
    91)     14746.7  Rx     0011E3B1  5  01 00 00 B1 E3 
    92)     14751.6  Rx     0001A210  7  01 00 00 0F 03 10 A2 
    93)     14751.7  Rx     0011A210  5  01 00 00 10 A2 
    94)     14756.6  Rx     00019699  7  01 00 00 0F 03 99 96 
    95)     14756.7  Rx     00119699  5  01 00 00 99 96 
    96)     14761.6  Rx     00012A64  7  01 00 00 0F 03 64 2A 
    97)     14761.7  Rx     00112A64  5  01 00 00 64 2A 
    98)     14766.6  Rx     00015830  7  01 00 00 0F 03 30 58 
    99)     14766.7  Rx     00115830  5  01 00 00 30 58 
   100)     14771.6  Rx     000139B0  7  01 00 00 0F 03 B0 39 
   101)     14771.7  Rx     001139B0  5  01 00 00 B0 39 
   102)     14776.6  Rx     0001A015  7  01 00 00 0F 03 15 A0 
   103)     14776.7  Rx     0011A015  5  01 00 00 15 A0 
   104)     14781.6  Rx     00010DF2  7  01 00 00 0F 03 F2 0D 
   105)     14781.7  Rx     00110DF2  5  01 00 00 F2 0D 
   106)     14786.6  Rx     00017C22  7  01 00 00 0F 03 22 7C 
   107)     14786.7  Rx     00117C22  5  01 00 00 22 7C 
   108)     14791.6  Rx     00014755  7  01 00 00 0F 03 55 47 
   109)     14791.7  Rx     00114755  5  01 00 00 55 47 
   110)     14796.6  Rx     00019127  7  01 00 00 0F 03 27 91 
   111)     14796.7  Rx     00119127  5  01 00 00 27 91 
   112)     14801.6  Rx     000109E2  7  01 00 00 0F 03 E2 09 
   113)     14801.7  Rx     001109E2  5  01 00 00 E2 09 
   114)     14806.6  Rx     0001A8E1  7  01 00 00 0F 03 E1 A8 
   115)     14806.7  Rx     0011A8E1  5  01 00 00 E1 A8 
   116)     14811.6  Rx     000178B8  7  01 00 00 0F 03 B8 78 
   117)     14811.7  Rx     001178B8  5  01 00 00 B8 78 
   118)     14816.6  Rx     00013B36  7  01 00 00 0F 03 36 3B 
   119)     14816.7  Rx     00113B36  5  01 00 00 36 3B 
   120)     14821.6  Rx     00018A7A  7  01 00 00 0F 03 7A 8A 
   121)     14821.7  Rx     00118A7A  5  01 00 00 7A 8A 
   122)     14826.6  Rx     00019084  7  01 00 00 0F 03 84 90 
   123)     14826.7  Rx     00119084  5  01 00 00 84 90 
   124)     14831.6  Rx     00019954  7  01 00 00 0F 03 54 99 
   125)     14831.7  Rx     00119954  5  01 00 00 54 99 
   126)     14836.6  Rx     00016484  7  01 00 00 0F 03 84 64 
   127)     14836.7  Rx     00116484  5  01 00 00 84 64 
   128)     14841.6  Rx     0001B9C9  7  01 00 00 0F 03 C9 B9 
   129)     14841.7  Rx     0011B9C9  5  01 00 00 C9 B9 
   130)     14846.6  Rx     00013510  7  01 00 00 0F 03 10 35 
   131)     14846.7  Rx     00113510  5  01 00 00 10 35 
   132)     14851.6  Rx     0001C225  7  01 00 00 0F 03 25 C2 
   133)     14851.7  Rx     0011C225  5  01 00 00 25 C2 
   134)     14856.6  Rx     000159C8  7  01 00 00 0F 03 C8 59 
   135)     14856.7  Rx     001159C8  5  01 00 00 C8 59 
   136)     14861.6  Rx     00016D49  7  01 00 00 0F 03 49 6D 
   137)     14861.7  Rx     00116D49  5  01 00 00 49 6D 
   138)     14866.6  Rx     00010D70  7  01 00 00 0F 03 70 0D 
   139)     14866.7  Rx     00110D70  5  01 00 00 70 0D 
   140)     14871.6  Rx     0001AA2D  7  01 00 00 0F 03 2D AA 
   141)     14871.7  Rx     0011AA2D  5  01 00 00 2D AA 
   142)     14876.6  Rx     00017B7D  7  01 00 00 0F 03 7D 7B 
   143)     14876.7  Rx     00117B7D  5  01 00 00 7D 7B 
   144)     14881.6  Rx     0001EA47  7  01 00 00 0F 03 47 EA 
   145)     14881.7  Rx     0011EA47  5  01 00 00 47 EA 
   146)     14886.6  Rx     00010426  7  01 00 00 0F 03 26 04 
   147)     14886.7  Rx     00110426  5  01 00 00 26 04 
   148)     14891.6  Rx     000113BB  7  01 00 00 0F 03 BB 13 
   149)     14891.7  Rx     001113BB  5  01 00 00 BB 13 
   150)     14896.6  Rx     0001C6F8  7  01 00 00 0F 03 F8 C6 
   151)     14896.7  Rx     0011C6F8  5  01 00 00 F8 C6 
   152)     14901.6  Rx     0001AD02  7  01 00 00 0F 03 02 AD 
   153)     14901.7  Rx     0011AD02  5  01 00 00 02 AD 
   154)     14906.6  Rx     000197BE  7  01 00 00 0F 03 BE 97 
   155)     14906.7  Rx     001197BE  5  01 00 00 BE 97 
   156)     14911.6  Rx     0001EE6A  7  01 00 00 0F 03 6A EE 
   157)     14911.7  Rx     0011EE6A  5  01 00 00 6A EE 
   158)     14916.6  Rx     0001733A  7  01 00 00 0F 03 3A 73 
   159)     14916.7  Rx     0011733A  5  01 00 00 3A 73 
   160)     14921.6  Rx     00014694  7  01 00 00 0F 03 94 46 
   161)     14921.7  Rx     00114694  5  01 00 00 94 46 
   162)     14926.6  Rx     0001CD05  7  01 00 00 0F 03 05 CD 
   163)     14926.7  Rx     0011CD05  5  01 00 00 05 CD 
   164)     14931.6  Rx     0001DDE9  7  01 00 00 0F 03 E9 DD 
   165)     14931.7  Rx     0011DDE9  5  01 00 00 E9 DD 
   166)     14936.6  Rx     0001718A  7  01 00 00 0F 03 8A 71 
   167)     14936.7  Rx     0011718A  5  01 00 00 8A 71 
   168)     14941.6  Rx     00012194  7  01 00 00 0F 03 94 21 
   169)     14941.7  Rx     00112194  5  01 00 00 94 21 
   170)     14946.5  Rx     000176FD  7  01 00 00 0F 03 FD 76 
   171)     14946.7  Rx     001176FD  5  01 00 00 FD 76 
   172)     14951.6  Rx     00015580  7  01 00 00 0F 03 80 55 
   173)     14951.7  Rx     00115580  5  01 00 00 80 55 
   174)     14956.6  Rx     000115C1  7  01 00 00 0F 03 C1 15 
   175)     14956.7  Rx     001115C1  5  01 00 00 C1 15 
   176)     14961.6  Rx     00016177  7  01 00 00 0F 03 77 61 
   177)     14961.7  Rx     00116177  5  01 00 00 77 61 
   178)     14966.6  Rx     0001FC8E  7  01 00 00 0F 03 8E FC 
   179)     14966.7  Rx     0011FC8E  5  01 00 00 8E FC 
   180)     14971.6  Rx     0001084D  7  01 00 00 0F 03 4D 08 
   181)     14971.7  Rx     0011084D  5  01 00 00 4D 08 
   182)     14976.5  Rx     00018662  7  01 00 00 0F 03 62 86 
   183)     14976.7  Rx     00118662  5  01 00 00 62 86 
   184)     14981.6  Rx     00019CBA  7  01 00 00 0F 03 BA 9C 
   185)     14981.7  Rx     00119CBA  5  01 00 00 BA 9C 
   186)     14986.6  Rx     0001AFFC  7  01 00 00 0F 03 FC AF 
   187)     14986.7  Rx     0011AFFC  5  01 00 00 FC AF 
   188)     14991.6  Rx     00013651  7  01 00 00 0F 03 51 36 
   189)     14991.7  Rx     00113651  5  01 00 00 51 36 
   190)     14996.6  Rx     00016070  7  01 00 00 0F 03 70 60 
   191)     14996.7  Rx     00116070  5  01 00 00 70 60 
   192)     15001.5  Rx     0001C1C0  7  01 00 00 0F 03 C0 C1 
   193)     15001.7  Rx     0011C1C0  5  01 00 00 C0 C1 
   194)     15006.6  Rx     0001A41C  7  01 00 00 0F 03 1C A4 
   195)     15006.7  Rx     0011A41C  5  01 00 00 1C A4 
   196)     15011.6  Rx     0001E62E  7  01 00 00 0F 03 2E E6 
   197)     15011.7  Rx     0011E62E  5  01 00 00 2E E6 
   198)     15016.6  Rx     000152FF  7  01 00 00 0F 03 FF 52 
   199)     15016.7  Rx     001152FF  5  01 00 00 FF 52 
   200)     15021.6  Rx     0001DA7B  7  01 00 00 0F 03 7B DA 
   201)     15021.7  Rx     0011DA7B  5  01 00 00 7B DA 
   202)     15026.5  Rx     0001F345  7  01 00 00 0F 03 45 F3 
   203)     15026.7  Rx     0011F345  5  01 00 00 45 F3 
   204)     15031.5  Rx     00015BAD  7  01 00 00 0F 03 AD 5B 
   205)     15031.7  Rx     00115BAD  5  01 00 00 AD 5B 
   206)     15036.6  Rx     00018686  7  01 00 00 0F 03 86 86 
   207)     15036.7  Rx     00118686  5  01 00 00 86 86 
   208)     15041.6  Rx     0001DECC  7  01 00 00 0F 03 CC DE 
   209)     15041.7  Rx     0011DECC  5  01 00 00 CC DE 
   210)     15046.6  Rx     00019406  7  01 00 00 0F 03 06 94 
   211)     15046.7  Rx     00119406  5  01 00 00 06 94 
   212)     15051.5  Rx     00013B01  7  01 00 00 0F 03 01 3B 
   213)     15051.7  Rx     00113B01  5  01 00 00 01 3B 
   214)     15056.5  Rx     00015FFA  7  01 00 00 0F 03 FA 5F 
   215)     15056.7  Rx     00115FFA  5  01 00 00 FA 5F 
   216)     15061.6  Rx     000189AA  7  01 00 00 0F 03 AA 89 
   217)     15061.7  Rx     001189AA  5  01 00 00 AA 89 
   218)     15066.6  Rx     0001A39C  7  01 00 00 0F 03 9C A3 
   219)     15066.7  Rx     0011A39C  5  01 00 00 9C A3 
   220)     15071.6  Rx     0001FCCC  7  01 00 00 0F 03 CC FC 
   221)     15071.7  Rx     0011FCCC  5  01 00 00 CC FC 
   222)     15076.6  Rx     0001DF9B  7  01 00 00 0F 03 9B DF 
   223)     15076.7  Rx     0011DF9B  5  01 00 00 9B DF 
   224)     15081.5  Rx     00012104  7  01 00 00 0F 03 04 21 
   225)     15081.7  Rx     00112104  5  01 00 00 04 21 
   226)     15086.5  Rx     00014221  7  01 00 00 0F 03 21 42 
   227)     15086.7  Rx     00114221  5  01 00 00 21 42 
   228)     15091.6  Rx     000132E5  7  01 00 00 0F 03 E5 32 
   229)     15091.7  Rx     001132E5  5  01 00 00 E5 32 
   230)     15096.6  Rx     00015B8B  7  01 00 00 0F 03 8B 5B 
   231)     15096.6  Rx     00115B8B  5  01 00 00 8B 5B 
   232)     15101.6  Rx     00014867  7  01 00 00 0F 03 67 48 
   233)     15101.7  Rx     00114867  5  01 00 00 67 48 
   234)     15106.5  Rx     0001CC84  7  01 00 00 0F 03 84 CC 
   235)     15106.7  Rx     0011CC84  5  01 00 00 84 CC 
   236)     15111.5  Rx     0001C9D6  7  01 00 00 0F 03 D6 C9 
   237)     15111.7  Rx     0011C9D6  5  01 00 00 D6 C9 
   238)     15116.5  Rx     0001F223  7  01 00 00 0F 03 23 F2 
   239)     15116.7  Rx     0011F223  5  01 00 00 23 F2 
   240)     15121.6  Rx     0001DE5E  7  01 00 00 0F 03 5E DE 
   241)     15121.7  Rx     0011DE5E  5  01 00 00 5E DE 
   242)     15126.6  Rx     0001D43C  7  01 00 00 0F 03 3C D4 
   243)     15126.6  Rx     0011D43C  5  01 00 00 3C D4 
   244)     15131.5  Rx     00017726  7  01 00 00 0F 03 26 77 
   245)     15131.7  Rx     00117726  5  01 00 00 26 77 
   246)     15136.5  Rx     00012C04  7  01 00 00 0F 03 04 2C 
   247)     15136.7  Rx     00112C04  5  01 00 00 04 2C 
   248)     15141.5  Rx     0001AC9C  7  01 00 00 0F 03 9C AC 
   249)     15141.7  Rx     0011AC9C  5  01 00 00 9C AC 
   250)     15146.6  Rx     000134BB  7  01 00 00 0F 03 BB 34 
   251)     15146.7  Rx     001134BB  5  01 00 00 BB 34 
   252)     15151.6  Rx     0001DC5C  7  01 00 00 0F 03 5C DC 
   253)     15151.6  Rx     0011DC5C  5  01 00 00 5C DC 
   254)     15156.6  Rx     000185EF  7  01 00 00 0F 03 EF 85 
   255)     15156.7  Rx     001185EF  5  01 00 00 EF 85 
   256)     15161.5  Rx     00015ADB  7  01 00 00 0F 03 DB 5A 
   257)     15161.7  Rx     00115ADB  5  01 00 00 DB 5A 
   258)     15166.5  Rx     000126A3  7  01 00 00 0F 03 A3 26 
   259)     15166.7  Rx     001126A3  5  01 00 00 A3 26 
   260)     15171.5  Rx     000112BE  7  01 00 00 0F 03 BE 12 
   261)     15171.7  Rx     001112BE  5  01 00 00 BE 12 
   262)     15176.6  Rx     0001F255  7  01 00 00 0F 03 55 F2 
   263)     15176.6  Rx     0011F255  5  01 00 00 55 F2 
   264)     15181.6  Rx     00012881  7  01 00 00 0F 03 81 28 
   265)     15181.6  Rx     00112881  5  01 00 00 81 28 
   266)     15186.5  Rx     000148B9  7  01 00 00 0F 03 B9 48 
   267)     15186.7  Rx     001148B9  5  01 00 00 B9 48 
   268)     15191.5  Rx     0001BFDC  7  01 00 00 0F 03 DC BF 
   269)     15191.7  Rx     0011BFDC  5  01 00 00 DC BF 
   270)     15196.5  Rx     00017EAC  7  01 00 00 0F 03 AC 7E 
   271)     15196.7  Rx     00117EAC  5  01 00 00 AC 7E 
   272)     15201.6  Rx     0001CD07  7  01 00 00 0F 03 07 CD 
   273)     15201.6  Rx     0011CD07  5  01 00 00 07 CD 
   274)     15206.6  Rx     0001BA9C  7  01 00 00 0F 03 9C BA 
   275)     15206.6  Rx     0011BA9C  5  01 00 00 9C BA 
   276)     15211.5  Rx     00018ECF  7  01 00 00 0F 03 CF 8E 
   277)     15211.6  Rx     00118ECF  5  01 00 00 CF 8E 
   278)     15216.5  Rx     0001E086  7  01 00 00 0F 03 86 E0 
   279)     15216.7  Rx     0011E086  5  01 00 00 86 E0 
   280)     15221.5  Rx     00013719  7  01 00 00 0F 03 19 37 
   281)     15221.7  Rx     00113719  5  01 00 00 19 37 
   282)     15226.5  Rx     00012935  7  01 00 00 0F 03 35 29 
   283)     15226.7  Rx     00112935  5  01 00 00 35 29 
   284)     15231.6  Rx     00016A40  7  01 00 00 0F 03 40 6A 
   285)     15231.6  Rx     00116A40  5  01 00 00 40 6A 
   286)     15236.5  Rx     0001FE62  7  01 00 00 0F 03 62 FE 
   287)     15236.6  Rx     0011FE62  5  01 00 00 62 FE 
   288)     15241.5  Rx     0001627C  7  01 00 00 0F 03 7C 62 
   289)     15241.7  Rx     0011627C  5  01 00 00 7C 62 
   290)     15246.5  Rx     0001D0ED  7  01 00 00 0F 03 ED D0 
   291)     15246.7  Rx     0011D0ED  5  01 00 00 ED D0 
   292)     15251.5  Rx     0001DB2A  7  01 00 00 0F 03 2A DB 
   293)     15251.7  Rx     0011DB2A  5  01 00 00 2A DB 
   294)     15256.5  Rx     00017840  7  01 00 00 0F 03 40 78 
   295)     15256.6  Rx     00117840  5  01 00 00 40 78 
   296)     15261.6  Rx     000128B2  7  01 00 00 0F 03 B2 28 
   297)     15261.6  Rx     001128B2  5  01 00 00 B2 28 
   298)     15266.5  Rx     0001A5A0  7  01 00 00 0F 03 A0 A5 
   299)     15266.6  Rx     0011A5A0  5  01 00 00 A0 A5 
   300)     15271.5  Rx     0001485F  7  01 00 00 0F 03 5F 48 
   301)     15271.7  Rx     0011485F  5  01 00 00 5F 48 
   302)     15276.5  Rx     00014FF6  7  01 00 00 0F 03 F6 4F 
   303)     15276.7  Rx     00114FF6  5  01 00 00 F6 4F 
   304)     15281.5  Rx     0001245F  7  01 00 00 0F 03 5F 24 
   305)     15281.6  Rx     0011245F  5  01 00 00 5F 24 
   306)     15286.6  Rx     00015054  7  01 00 00 0F 03 54 50 
   307)     15286.6  Rx     00115054  5  01 00 00 54 50 
   308)     15291.5  Rx     00015ACC  7  01 00 00 0F 03 CC 5A 
   309)     15291.6  Rx     00115ACC  5  01 00 00 CC 5A 
   310)     15296.5  Rx     00015945  7  01 00 00 0F 03 45 59 
   311)     15296.6  Rx     00115945  5  01 00 00 45 59 
   312)     15301.5  Rx     00015B69  7  01 00 00 0F 03 69 5B 
   313)     15301.7  Rx     00115B69  5  01 00 00 69 5B 
   314)     15306.5  Rx     000142A8  7  01 00 00 0F 03 A8 42 
   315)     15306.6  Rx     001142A8  5  01 00 00 A8 42 
   316)     15311.5  Rx     0001367B  7  01 00 00 0F 03 7B 36 
   317)     15311.6  Rx     0011367B  5  01 00 00 7B 36 
   318)     15316.5  Rx     0001E9A9  7  01 00 00 0F 03 A9 E9 
   319)     15316.6  Rx     0011E9A9  5  01 00 00 A9 E9 
   320)     15321.5  Rx     000127E1  7  01 00 00 0F 03 E1 27 
   321)     15321.6  Rx     001127E1  5  01 00 00 E1 27 
   322)     15326.5  Rx     0001CC0D  7  01 00 00 0F 03 0D CC 
   323)     15326.7  Rx     0011CC0D  5  01 00 00 0D CC 
   324)     15331.5  Rx     0001E05C  7  01 00 00 0F 03 5C E0 
   325)     15331.7  Rx     0011E05C  5  01 00 00 5C E0 
   326)     15336.5  Rx     000157F3  7  01 00 00 0F 03 F3 57 
   327)     15336.6  Rx     001157F3  5  01 00 00 F3 57 
   328)     15341.6  Rx     000103A4  7  01 00 00 0F 03 A4 03 
   329)     15341.6  Rx     001103A4  5  01 00 00 A4 03 
   330)     15346.5  Rx     00012CB7  7  01 00 00 0F 03 B7 2C 
   331)     15346.6  Rx     00112CB7  5  01 00 00 B7 2C 
   332)     15351.5  Rx     00017CC2  7  01 00 00 0F 03 C2 7C 
   333)     15351.7  Rx     00117CC2  5  01 00 00 C2 7C 
   334)     15356.5  Rx     00018397  7  01 00 00 0F 03 97 83 
   335)     15356.7  Rx     00118397  5  01 00 00 97 83 
   336)     15361.5  Rx     000156C0  7  01 00 00 0F 03 C0 56 
   337)     15361.6  Rx     001156C0  5  01 00 00 C0 56 
   338)     15366.5  Rx     00019650  7  01 00 00 0F 03 50 96 
   339)     15366.6  Rx     00119650  5  01 00 00 50 96 
   340)     15371.5  Rx     0001AEAE  7  01 00 00 0F 03 AE AE 
   341)     15371.6  Rx     0011AEAE  5  01 00 00 AE AE 
   342)     15376.5  Rx     000177C4  7  01 00 00 0F 03 C4 77 
   343)     15376.6  Rx     001177C4  5  01 00 00 C4 77 
   344)     15381.5  Rx     00014C96  7  01 00 00 0F 03 96 4C 
   345)     15381.7  Rx     00114C96  5  01 00 00 96 4C 
   346)     15386.5  Rx     00014671  7  01 00 00 0F 03 71 46 
   347)     15386.6  Rx     00114671  5  01 00 00 71 46 
   348)     15391.5  Rx     0001D7CD  7  01 00 00 0F 03 CD D7 
   349)     15391.6  Rx     0011D7CD  5  01 00 00 CD D7 
   350)     15396.5  Rx     0001EE38  7  01 00 00 0F 03 38 EE 
   351)     15396.6  Rx     0011EE38  5  01 00 00 38 EE 
   352)     15401.5  Rx     00019FC3  7  01 00 00 0F 03 C3 9F 
   353)     15401.6  Rx     00119FC3  5  01 00 00 C3 9F 
   354)     15406.5  Rx     00019ED0  7  01 00 00 0F 03 D0 9E 
   355)     15406.6  Rx     00119ED0  5  01 00 00 D0 9E 
   356)     15411.5  Rx     00017542  7  01 00 00 0F 03 42 75 
   357)     15411.7  Rx     00117542  5  01 00 00 42 75 
   358)     15416.5  Rx     0001EDD1  7  01 00 00 0F 03 D1 ED 
   359)     15416.6  Rx     0011EDD1  5  01 00 00 D1 ED 
   360)     15421.5  Rx     000160BF  7  01 00 00 0F 03 BF 60 
   361)     15421.6  Rx     001160BF  5  01 00 00 BF 60 
   362)     15426.5  Rx     00012339  7  01 00 00 0F 03 39 23 
   363)     15426.6  Rx     00112339  5  01 00 00 39 23 
   364)     15431.5  Rx     00016D24  7  01 00 00 0F 03 24 6D 
   365)     15431.6  Rx     00116D24  5  01 00 00 24 6D 
   366)     15436.5  Rx     000140E3  7  01 00 00 0F 03 E3 40 
   367)     15436.7  Rx     001140E3  5  01 00 00 E3 40 
   368)     15441.5  Rx     0001D742  7  01 00 00 0F 03 42 D7 
   369)     15441.6  Rx     0011D742  5  01 00 00 42 D7 
   370)     15446.5  Rx     0001913D  7  01 00 00 0F 03 3D 91 
   371)     15446.6  Rx     0011913D  5  01 00 00 3D 91 
   372)     15451.5  Rx     00015CC5  7  01 00 00 0F 03 C5 5C 
   373)     15451.6  Rx     00115CC5  5  01 00 00 C5 5C 
   374)     15456.5  Rx     00011F4B  7  01 00 00 0F 03 4B 1F 
   375)     15456.6  Rx     00111F4B  5  01 00 00 4B 1F 
   376)     15461.5  Rx     00014669  7  01 00 00 0F 03 69 46 
   377)     15461.5  Rx     00114669  5  01 00 00 69 46 
   378)     15466.5  Rx     0001F9AC  7  01 00 00 0F 03 AC F9 
   379)     15466.6  Rx     0011F9AC  5  01 00 00 AC F9 
   380)     15471.4  Rx     0001E3B8  7  01 00 00 0F 03 B8 E3 
   381)     15471.6  Rx     0011E3B8  5  01 00 00 B8 E3 
   382)     15476.4  Rx     0001B046  7  01 00 00 0F 03 46 B0 
   383)     15476.6  Rx     0011B046  5  01 00 00 46 B0 
   384)     15481.4  Rx     0001C39B  7  01 00 00 0F 03 9B C3 
   385)     15481.6  Rx     0011C39B  5  01 00 00 9B C3 
   386)     15486.5  Rx     0001C7C3  7  01 00 00 0F 03 C3 C7 
   387)     15486.5  Rx     0011C7C3  5  01 00 00 C3 C7 
   388)     15491.5  Rx     0001F38F  7  01 00 00 0F 03 8F F3 
   389)     15491.6  Rx     0011F38F  5  01 00 00 8F F3 
   390)     15496.4  Rx     0001A000  7  01 00 00 0F 03 00 A0 
   391)     15496.6  Rx     0011A000  5  01 00 00 00 A0 
   392)     15501.4  Rx     0001FC2C  7  01 00 00 0F 03 2C FC 
   393)     15501.6  Rx     0011FC2C  5  01 00 00 2C FC 
   394)     15506.4  Rx     0001C624  7  01 00 00 0F 03 24 C6 
   395)     15506.6  Rx     0011C624  5  01 00 00 24 C6 
   396)     15511.4  Rx     00013067  7  01 00 00 0F 03 67 30 
   397)     15511.6  Rx     00113067  5  01 00 00 67 30 
   398)     15516.5  Rx     0001ACEE  7  01 00 00 0F 03 EE AC 
   399)     15516.5  Rx     0011ACEE  5  01 00 00 EE AC 
   400)     15521.4  Rx     000119BE  7  01 00 00 0F 03 BE 19 
   401)     15521.6  Rx     001119BE  5  01 00 00 BE 19 
   402)     15526.4  Rx     00014589  7  01 00 00 0F 03 89 45 
   403)     15526.6  Rx     00114589  5  01 00 00 89 45 
   404)     15531.4  Rx     00013A24  7  01 00 00 0F 03 24 3A 
   405)     15531.6  Rx     00113A24  5  01 00 00 24 3A 
   406)     15536.4  Rx     000138DD  7  01 00 00 0F 03 DD 38 
   407)     15536.6  Rx     001138DD  5  01 00 00 DD 38 
   408)     15541.5  Rx     0001756A  7  01 00 00 0F 03 6A 75 
   409)     15541.5  Rx     0011756A  5  01 00 00 6A 75 
   410)     15546.5  Rx     00011D37  7  01 00 00 0F 03 37 1D 
   411)     15546.5  Rx     00111D37  5  01 00 00 37 1D 
   412)     15551.4  Rx     0001E67C  7  01 00 00 0F 03 7C E6 
   413)     15551.6  Rx     0011E67C  5  01 00 00 7C E6 
   414)     15556.4  Rx     0001D5C6  7  01 00 00 0F 03 C6 D5 
   415)     15556.6  Rx     0011D5C6  5  01 00 00 C6 D5 
   416)     15561.4  Rx     000181A2  7  01 00 00 0F 03 A2 81 
   417)     15561.6  Rx     001181A2  5  01 00 00 A2 81 
   418)     15566.4  Rx     0001C933  7  01 00 00 0F 03 33 C9 
   419)     15566.5  Rx     0011C933  5  01 00 00 33 C9 
   420)     15571.5  Rx     0001A7B4  7  01 00 00 0F 03 B4 A7 
   421)     15571.5  Rx     0011A7B4  5  01 00 00 B4 A7 
   422)     15576.4  Rx     0001DA66  7  01 00 00 0F 03 66 DA 
   423)     15576.5  Rx     0011DA66  5  01 00 00 66 DA 
   424)     15581.4  Rx     00018ED4  7  01 00 00 0F 03 D4 8E 
   425)     15581.6  Rx     00118ED4  5  01 00 00 D4 8E 
   426)     15586.4  Rx     00015E36  7  01 00 00 0F 03 36 5E 
   427)     15586.6  Rx     00115E36  5  01 00 00 36 5E 
   428)     15591.4  Rx     0001DC2C  7  01 00 00 0F 03 2C DC 
   429)     15591.5  Rx     0011DC2C  5  01 00 00 2C DC 
   430)     15596.5  Rx     0001EE90  7  01 00 00 0F 03 90 EE 
   431)     15596.5  Rx     0011EE90  5  01 00 00 90 EE 
   432)     15601.4  Rx     000192CE  7  01 00 00 0F 03 CE 92 
   433)     15601.5  Rx     001192CE  5  01 00 00 CE 92 
   434)     15606.4  Rx     0001B760  7  01 00 00 0F 03 60 B7 
   435)     15606.6  Rx     0011B760  5  01 00 00 60 B7 
   436)     15611.4  Rx     00011A9B  7  01 00 00 0F 03 9B 1A 
   437)     15611.6  Rx     00111A9B  5  01 00 00 9B 1A 
   438)     15616.4  Rx     0001A73F  7  01 00 00 0F 03 3F A7 
   439)     15616.6  Rx     0011A73F  5  01 00 00 3F A7 
   440)     15621.4  Rx     000112E3  7  01 00 00 0F 03 E3 12 
   441)     15621.5  Rx     001112E3  5  01 00 00 E3 12 
   442)     15626.4  Rx     000179AE  7  01 00 00 0F 03 AE 79 
   443)     15626.5  Rx     001179AE  5  01 00 00 AE 79 
   444)     15631.4  Rx     00017B1A  7  01 00 00 0F 03 1A 7B 
   445)     15631.5  Rx     00117B1A  5  01 00 00 1A 7B 
   446)     15636.4  Rx     0001FE6D  7  01 00 00 0F 03 6D FE 
   447)     15636.6  Rx     0011FE6D  5  01 00 00 6D FE 
   448)     15641.4  Rx     0001D0D1  7  01 00 00 0F 03 D1 D0 
   449)     15641.6  Rx     0011D0D1  5  01 00 00 D1 D0 
   450)     15646.4  Rx     0001292C  7  01 00 00 0F 03 2C 29 
   451)     15646.5  Rx     0011292C  5  01 00 00 2C 29 
   452)     15651.4  Rx     0001E8E2  7  01 00 00 0F 03 E2 E8 
   453)     15651.5  Rx     0011E8E2  5  01 00 00 E2 E8 
   454)     15656.4  Rx     0001F6A6  7  01 00 00 0F 03 A6 F6 
   455)     15656.5  Rx     0011F6A6  5  01 00 00 A6 F6 
   456)     15661.4  Rx     0001BE60  7  01 00 00 0F 03 60 BE 
   457)     15661.6  Rx     0011BE60  5  01 00 00 60 BE 
   458)     15666.4  Rx     00012FEA  7  01 00 00 0F 03 EA 2F 
   459)     15666.6  Rx     00112FEA  5  01 00 00 EA 2F 
   460)     15671.4  Rx     000180D3  7  01 00 00 0F 03 D3 80 
   461)     15671.5  Rx     001180D3  5  01 00 00 D3 80 
   462)     15676.4  Rx     0001265B  7  01 00 00 0F 03 5B 26 
   463)     15676.5  Rx     0011265B  5  01 00 00 5B 26 
   464)     15681.4  Rx     0001B7CA  7  01 00 00 0F 03 CA B7 
   465)     15681.5  Rx     0011B7CA  5  01 00 00 CA B7 
   466)     15686.4  Rx     0001EAAF  7  01 00 00 0F 03 AF EA 
   467)     15686.5  Rx     0011EAAF  5  01 00 00 AF EA 
   468)     15691.4  Rx     0001D0BB  7  01 00 00 0F 03 BB D0 
   469)     15691.6  Rx     0011D0BB  5  01 00 00 BB D0 
   470)     15696.4  Rx     00014AF7  7  01 00 00 0F 03 F7 4A 
   471)     15696.6  Rx     00114AF7  5  01 00 00 F7 4A 
   472)     15701.4  Rx     000148DD  7  01 00 00 0F 03 DD 48 
   473)     15701.5  Rx     001148DD  5  01 00 00 DD 48 
   474)     15706.4  Rx     0001D36F  7  01 00 00 0F 03 6F D3 
   475)     15706.5  Rx     0011D36F  5  01 00 00 6F D3 
   476)     15711.4  Rx     00013353  7  01 00 00 0F 03 53 33 
   477)     15711.5  Rx     00113353  5  01 00 00 53 33 
   478)     15716.4  Rx     0001CFB2  7  01 00 00 0F 03 B2 CF 
   479)     15716.6  Rx     0011CFB2  5  01 00 00 B2 CF 
   480)     15721.4  Rx     0001A4E1  7  01 00 00 0F 03 E1 A4 
   481)     15721.6  Rx     0011A4E1  5  01 00 00 E1 A4 
   482)     15726.4  Rx     00016D7D  7  01 00 00 0F 03 7D 6D 
   483)     15726.5  Rx     00116D7D  5  01 00 00 7D 6D 
   484)     15731.4  Rx     00010908  7  01 00 00 0F 03 08 09 
   485)     15731.5  Rx     00110908  5  01 00 00 08 09 
   486)     15736.4  Rx     00015827  7  01 00 00 0F 03 27 58 
   487)     15736.5  Rx     00115827  5  01 00 00 27 58 
   488)     15741.4  Rx     00014D3A  7  01 00 00 0F 03 3A 4D 
   489)     15741.5  Rx     00114D3A  5  01 00 00 3A 4D 
   490)     15746.4  Rx     00017B7F  7  01 00 00 0F 03 7F 7B 
   491)     15746.6  Rx     00117B7F  5  01 00 00 7F 7B 
   492)     15751.4  Rx     0001317F  7  01 00 00 0F 03 7F 31 
   493)     15751.5  Rx     0011317F  5  01 00 00 7F 31 
   494)     15756.4  Rx     00017AA6  7  01 00 00 0F 03 A6 7A 
   495)     15756.5  Rx     00117AA6  5  01 00 00 A6 7A 
   496)     15761.4  Rx     0001F6CC  7  01 00 00 0F 03 CC F6 
   497)     15761.5  Rx     0011F6CC  5  01 00 00 CC F6 
   498)     15766.4  Rx     0001E324  7  01 00 00 0F 03 24 E3 
   499)     15766.5  Rx     0011E324  5  01 00 00 24 E3 
   500)     15771.4  Rx     000135D5  7  01 00 00 0F 03 D5 35 
   501)     15771.5  Rx     001135D5  5  01 00 00 D5 35 
   502)     15776.4  Rx     00010A49  7  01 00 00 0F 03 49 0A 
   503)     15776.5  Rx     00110A49  5  01 00 00 49 0A 
   504)     15781.4  Rx     00015621  7  01 00 00 0F 03 21 56 
   505)     15781.5  Rx     00115621  5  01 00 00 21 56 
   506)     15786.4  Rx     0001E697  7  01 00 00 0F 03 97 E6 
   507)     15786.5  Rx     0011E697  5  01 00 00 97 E6 
   508)     15791.4  Rx     0001A3A9  7  01 00 00 0F 03 A9 A3 
   509)     15791.5  Rx     0011A3A9  5  01 00 00 A9 A3 
   510)     15796.4  Rx     0001E8C8  7  01 00 00 0F 03 C8 E8 
   511)     15796.5  Rx     0011E8C8  5  01 00 00 C8 E8 
   512)     15801.4  Rx     0001F24B  7  01 00 00 0F 03 4B F2 
   513)     15801.6  Rx     0011F24B  5  01 00 00 4B F2 
   514)     15806.4  Rx     00011BB1  7  01 00 00 0F 03 B1 1B 
   515)     15806.5  Rx     00111BB1  5  01 00 00 B1 1B 
   516)     15811.4  Rx     000160DA  7  01 00 00 0F 03 DA 60 
   517)     15811.5  Rx     001160DA  5  01 00 00 DA 60 
   518)     15816.4  Rx     00016C0C  7  01 00 00 0F 03 0C 6C 
   519)     15816.5  Rx     00116C0C  5  01 00 00 0C 6C 
   520)     15821.4  Rx     0001E689  7  01 00 00 0F 03 89 E6 
   521)     15821.5  Rx     0011E689  5  01 00 00 89 E6 
   522)     15826.4  Rx     000184F1  7  01 00 00 0F 03 F1 84 
   523)     15826.5  Rx     001184F1  5  01 00 00 F1 84 
   524)     15831.4  Rx     0001040F  7  01 00 00 0F 03 0F 04 
   525)     15831.5  Rx     0011040F  5  01 00 00 0F 04 
   526)     15836.4  Rx     00010B85  7  01 00 00 0F 03 85 0B 
   527)     15836.5  Rx     00110B85  5  01 00 00 85 0B 
   528)     15841.4  Rx     0001CAAC  7  01 00 00 0F 03 AC CA 
   529)     15841.5  Rx     0011CAAC  5  01 00 00 AC CA 
   530)     15846.4  Rx     0001A02B  7  01 00 00 0F 03 2B A0 
   531)     15846.5  Rx     0011A02B  5  01 00 00 2B A0 
   532)     15851.4  Rx     000115FA  7  01 00 00 0F 03 FA 15 
   533)     15851.5  Rx     001115FA  5  01 00 00 FA 15 
   534)     15856.4  Rx     0001C93B  7  01 00 00 0F 03 3B C9 
   535)     15856.5  Rx     0011C93B  5  01 00 00 3B C9 
   536)     15861.4  Rx     00016E37  7  01 00 00 0F 03 37 6E 
   537)     15861.5  Rx     00116E37  5  01 00 00 37 6E 
   538)     15866.4  Rx     00017B02  7  01 00 00 0F 03 02 7B 
   539)     15866.5  Rx     00117B02  5  01 00 00 02 7B 
   540)     15871.4  Rx     00015F5C  7  01 00 00 0F 03 5C 5F 
   541)     15871.5  Rx     00115F5C  5  01 00 00 5C 5F 
   542)     15876.4  Rx     0001F6A5  7  01 00 00 0F 03 A5 F6 
   543)     15876.5  Rx     0011F6A5  5  01 00 00 A5 F6 
   544)     15881.4  Rx     0001AA47  7  01 00 00 0F 03 47 AA 
   545)     15881.5  Rx     0011AA47  5  01 00 00 47 AA 
   546)     15886.4  Rx     0001B116  7  01 00 00 0F 03 16 B1 
   547)     15886.5  Rx     0011B116  5  01 00 00 16 B1 
   548)     15891.4  Rx     000143C7  7  01 00 00 0F 03 C7 43 
   549)     15891.5  Rx     001143C7  5  01 00 00 C7 43 
   550)     15896.4  Rx     0001953B  7  01 00 00 0F 03 3B 95 
   551)     15896.5  Rx     0011953B  5  01 00 00 3B 95 
   552)     15901.4  Rx     00014238  7  01 00 00 0F 03 38 42 
   553)     15901.5  Rx     00114238  5  01 00 00 38 42 
   554)     15906.4  Rx     000197FD  7  01 00 00 0F 03 FD 97 
   555)     15906.5  Rx     001197FD  5  01 00 00 FD 97 
   556)     15911.4  Rx     00011125  7  01 00 00 0F 03 25 11 
   557)     15911.5  Rx     00111125  5  01 00 00 25 11 
   558)     15916.4  Rx     0001FECD  7  01 00 00 0F 03 CD FE 
   559)     15916.5  Rx     0011FECD  5  01 00 00 CD FE 
   560)     15921.4  Rx     0001A703  7  01 00 00 0F 03 03 A7 
   561)     15921.5  Rx     0011A703  5  01 00 00 03 A7 
   562)     15926.4  Rx     00012CF2  7  01 00 00 0F 03 F2 2C 
   563)     15926.5  Rx     00112CF2  5  01 00 00 F2 2C 
   564)     15931.4  Rx     00014BFB  7  01 00 00 0F 03 FB 4B 
   565)     15931.5  Rx     00114BFB  5  01 00 00 FB 4B 
   566)     15936.4  Rx     00016D91  7  01 00 00 0F 03 91 6D 
   567)     15936.5  Rx     00116D91  5  01 00 00 91 6D 
   568)     15941.4  Rx     0001BD68  7  01 00 00 0F 03 68 BD 
   569)     15941.5  Rx     0011BD68  5  01 00 00 68 BD 
   570)     15946.4  Rx     0001544E  7  01 00 00 0F 03 4E 54 
   571)     15946.5  Rx     0011544E  5  01 00 00 4E 54 
   572)     15951.4  Rx     0001F86D  7  01 00 00 0F 03 6D F8 
   573)     15951.5  Rx     0011F86D  5  01 00 00 6D F8 
   574)     15956.4  Rx     00019BFD  7  01 00 00 0F 03 FD 9B 
   575)     15956.5  Rx     00119BFD  5  01 00 00 FD 9B 
   576)     15961.4  Rx     0001C2D0  7  01 00 00 0F 03 D0 C2 
   577)     15961.5  Rx     0011C2D0  5  01 00 00 D0 C2 
   578)     15966.4  Rx     0001B6B9  7  01 00 00 0F 03 B9 B6 
   579)     15966.5  Rx     0011B6B9  5  01 00 00 B9 B6 
   580)     15971.4  Rx     0001FC00  7  01 00 00 0F 03 00 FC 
   581)     15971.5  Rx     0011FC00  5  01 00 00 00 FC 
   582)     15976.4  Rx     00012C5A  7  01 00 00 0F 03 5A 2C 
   583)     15976.5  Rx     00112C5A  5  01 00 00 5A 2C 
   584)     15981.4  Rx     000114EF  7  01 00 00 0F 03 EF 14 
   585)     15981.5  Rx     001114EF  5  01 00 00 EF 14 
   586)     15986.4  Rx     0001EC20  7  01 00 00 0F 03 20 EC 
   587)     15986.5  Rx     0011EC20  5  01 00 00 20 EC 
   588)     15991.4  Rx     00016422  7  01 00 00 0F 03 22 64 
   589)     15991.5  Rx     00116422  5  01 00 00 22 64 
   590)     15996.4  Rx     00017413  7  01 00 00 0F 03 13 74 
   591)     15996.5  Rx     00117413  5  01 00 00 13 74 
   592)     16001.4  Rx     0001F82B  7  01 00 00 0F 03 2B F8 
   593)     16001.5  Rx     0011F82B  5  01 00 00 2B F8 
   594)     16006.4  Rx     00018C65  7  01 00 00 0F 03 65 8C 
   595)     16006.5  Rx     00118C65  5  01 00 00 65 8C 
   596)     16011.4  Rx     0001A56A  7  01 00 00 0F 03 6A A5 
   597)     16011.5  Rx     0011A56A  5  01 00 00 6A A5 
   598)     16016.4  Rx     0001DAD1  7  01 00 00 0F 03 D1 DA 
   599)     16016.5  Rx     0011DAD1  5  01 00 00 D1 DA 
   600)     16021.4  Rx     00017CBF  7  01 00 00 0F 03 BF 7C 
   601)     16021.5  Rx     00117CBF  5  01 00 00 BF 7C 
   602)     16026.4  Rx     000139D7  7  01 00 00 0F 03 D7 39 
   603)     16026.5  Rx     001139D7  5  01 00 00 D7 39 
   604)     16031.4  Rx     00010B9E  7  01 00 00 0F 03 9E 0B 
   605)     16031.5  Rx     00110B9E  5  01 00 00 9E 0B 
   606)     16036.4  Rx     00017547  7  01 00 00 0F 03 47 75 
   607)     16036.5  Rx     00117547  5  01 00 00 47 75 
   608)     16041.4  Rx     0001329D  7  01 00 00 0F 03 9D 32 
   609)     16041.5  Rx     0011329D  5  01 00 00 9D 32 
   610)     16046.4  Rx     0001B167  7  01 00 00 0F 03 67 B1 
   611)     16046.5  Rx     0011B167  5  01 00 00 67 B1 
   612)     16051.4  Rx     0001EE77  7  01 00 00 0F 03 77 EE 
   613)     16051.5  Rx     0011EE77  5  01 00 00 77 EE 
   614)     16056.4  Rx     0001A7CC  7  01 00 00 0F 03 CC A7 
   615)     16056.5  Rx     0011A7CC  5  01 00 00 CC A7 
   616)     16061.4  Rx     00011017  7  01 00 00 0F 03 17 10 
   617)     16061.5  Rx     00111017  5  01 00 00 17 10 
   618)     16066.4  Rx     0001D097  7  01 00 00 0F 03 97 D0 
   619)     16066.5  Rx     0011D097  5  01 00 00 97 D0 
   620)     16071.4  Rx     00011726  7  01 00 00 0F 03 26 17 
   621)     16071.5  Rx     00111726  5  01 00 00 26 17 
   622)     16076.4  Rx     00019CAD  7  01 00 00 0F 03 AD 9C 
   623)     16076.5  Rx     00119CAD  5  01 00 00 AD 9C 
   624)     16081.4  Rx     00013F3C  7  01 00 00 0F 03 3C 3F 
   625)     16081.5  Rx     00113F3C  5  01 00 00 3C 3F 
   626)     16086.4  Rx     0001C131  7  01 00 00 0F 03 31 C1 
   627)     16086.5  Rx     0011C131  5  01 00 00 31 C1 
   628)     16091.4  Rx     0001FA96  7  01 00 00 0F 03 96 FA 
   629)     16091.5  Rx     0011FA96  5  01 00 00 96 FA 
   630)     16096.4  Rx     0001F23F  7  01 00 00 0F 03 3F F2 
   631)     16096.5  Rx     0011F23F  5  01 00 00 3F F2 
   632)     16101.4  Rx     0001DE03  7  01 00 00 0F 03 03 DE 
   633)     16101.5  Rx     0011DE03  5  01 00 00 03 DE 
   634)     16106.4  Rx     0001F2BB  7  01 00 00 0F 03 BB F2 
   635)     16106.5  Rx     0011F2BB  5  01 00 00 BB F2 
   636)     16111.4  Rx     0001206F  7  01 00 00 0F 03 6F 20 
   637)     16111.5  Rx     0011206F  5  01 00 00 6F 20 
   638)     16116.4  Rx     000128B6  7  01 00 00 0F 03 B6 28 
   639)     16116.5  Rx     001128B6  5  01 00 00 B6 28 
   640)     16121.4  Rx     0001E529  7  01 00 00 0F 03 29 E5 
   641)     16121.5  Rx     0011E529  5  01 00 00 29 E5 
   642)     16126.4  Rx     000121AD  7  01 00 00 0F 03 AD 21 
   643)     16126.5  Rx     001121AD  5  01 00 00 AD 21 
   644)     16131.4  Rx     000162DD  7  01 00 00 0F 03 DD 62 
   645)     16131.5  Rx     001162DD  5  01 00 00 DD 62 
   646)     16136.4  Rx     000157B8  7  01 00 00 0F 03 B8 57 
   647)     16136.5  Rx     001157B8  5  01 00 00 B8 57 
   648)     16141.4  Rx     0001E9D9  7  01 00 00 0F 03 D9 E9 
   649)     16141.5  Rx     0011E9D9  5  01 00 00 D9 E9 
   650)     16146.4  Rx     0001845F  7  01 00 00 0F 03 5F 84 
   651)     16146.5  Rx     0011845F  5  01 00 00 5F 84 
   652)     16151.4  Rx     00013B14  7  01 00 00 0F 03 14 3B 
   653)     16151.5  Rx     00113B14  5  01 00 00 14 3B 
   654)     16156.4  Rx     00018FAF  7  01 00 00 0F 03 AF 8F 
   655)     16156.5  Rx     00118FAF  5  01 00 00 AF 8F 
   656)     16161.4  Rx     0001E210  7  01 00 00 0F 03 10 E2 
   657)     16161.5  Rx     0011E210  5  01 00 00 10 E2 
   658)     16166.4  Rx     0001D1C3  7  01 00 00 0F 03 C3 D1 
   659)     16166.5  Rx     0011D1C3  5  01 00 00 C3 D1 
   660)     16171.4  Rx     00012291  7  01 00 00 0F 03 91 22 
   661)     16171.5  Rx     00112291  5  01 00 00 91 22 
   662)     16176.4  Rx     00019AE1  7  01 00 00 0F 03 E1 9A 
   663)     16176.5  Rx     00119AE1  5  01 00 00 E1 9A 
   664)     16181.4  Rx     00011BBE  7  01 00 00 0F 03 BE 1B 
   665)     16181.5  Rx     00111BBE  5  01 00 00 BE 1B 
   666)     16186.4  Rx     000135D7  7  01 00 00 0F 03 D7 35 
   667)     16186.5  Rx     001135D7  5  01 00 00 D7 35 
   668)     16191.4  Rx     0001D521  7  01 00 00 0F 03 21 D5 
   669)     16191.5  Rx     0011D521  5  01 00 00 21 D5 
   670)     16196.4  Rx     00016640  7  01 00 00 0F 03 40 66 
   671)     16196.5  Rx     00116640  5  01 00 00 40 66 
   672)     16201.4  Rx     0001DAAB  7  01 00 00 0F 03 AB DA 
   673)     16201.5  Rx     0011DAAB  5  01 00 00 AB DA 
   674)     16206.4  Rx     00018FD8  7  01 00 00 0F 03 D8 8F 
   675)     16206.5  Rx     00118FD8  5  01 00 00 D8 8F 
   676)     16211.4  Rx     0001AFA2  7  01 00 00 0F 03 A2 AF 
   677)     16211.5  Rx     0011AFA2  5  01 00 00 A2 AF 
   678)     16216.4  Rx     0001AA01  7  01 00 00 0F 03 01 AA 
   679)     16216.5  Rx     0011AA01  5  01 00 00 01 AA 
   680)     16221.4  Rx     0001511F  7  01 00 00 0F 03 1F 51 
   681)     16221.5  Rx     0011511F  5  01 00 00 1F 51 
   682)     16226.4  Rx     00015235  7  01 00 00 0F 03 35 52 
   683)     16226.5  Rx     00115235  5  01 00 00 35 52 
   684)     16231.4  Rx     0001E38B  7  01 00 00 0F 03 8B E3 
   685)     16231.5  Rx     0011E38B  5  01 00 00 8B E3 
   686)     16236.4  Rx     000175EE  7  01 00 00 0F 03 EE 75 
   687)     16236.5  Rx     001175EE  5  01 00 00 EE 75 
   688)     16241.4  Rx     0001633F  7  01 00 00 0F 03 3F 63 
   689)     16241.5  Rx     0011633F  5  01 00 00 3F 63 
   690)     16246.4  Rx     0001B849  7  01 00 00 0F 03 49 B8 
   691)     16246.5  Rx     0011B849  5  01 00 00 49 B8 
   692)     16251.4  Rx     0001EB2C  7  01 00 00 0F 03 2C EB 
   693)     16251.5  Rx     0011EB2C  5  01 00 00 2C EB 
   694)     16256.4  Rx     0001B17B  7  01 00 00 0F 03 7B B1 
   695)     16256.5  Rx     0011B17B  5  01 00 00 7B B1 
   696)     16261.4  Rx     00015D38  7  01 00 00 0F 03 38 5D 
   697)     16261.5  Rx     00115D38  5  01 00 00 38 5D 
   698)     16266.4  Rx     0001D1C7  7  01 00 00 0F 03 C7 D1 
   699)     16266.5  Rx     0011D1C7  5  01 00 00 C7 D1 
   700)     16271.4  Rx     0001BAB5  7  01 00 00 0F 03 B5 BA 
   701)     16271.5  Rx     0011BAB5  5  01 00 00 B5 BA 
   702)     16276.4  Rx     0001C399  7  01 00 00 0F 03 99 C3 
   703)     16276.5  Rx     0011C399  5  01 00 00 99 C3 
   704)     16281.4  Rx     0001FC1D  7  01 00 00 0F 03 1D FC 
   705)     16281.5  Rx     0011FC1D  5  01 00 00 1D FC 
   706)     16286.4  Rx     000177F4  7  01 00 00 0F 03 F4 77 
   707)     16286.5  Rx     001177F4  5  01 00 00 F4 77 
   708)     16291.4  Rx     000125F8  7  01 00 00 0F 03 F8 25 
   709)     16291.5  Rx     001125F8  5  01 00 00 F8 25 
   710)     16296.3  Rx     0001064D  7  01 00 00 0F 03 4D 06 
   711)     16296.5  Rx     0011064D  5  01 00 00 4D 06 
   712)     16301.4  Rx     00010190  7  01 00 00 0F 03 90 01 
   713)     16301.5  Rx     00110190  5  01 00 00 90 01 
   714)     16306.4  Rx     00017097  7  01 00 00 0F 03 97 70 
   715)     16306.5  Rx     00117097  5  01 00 00 97 70 
   716)     16311.4  Rx     000126ED  7  01 00 00 0F 03 ED 26 
   717)     16311.5  Rx     001126ED  5  01 00 00 ED 26 
   718)     16316.4  Rx     000171FF  7  01 00 00 0F 03 FF 71 
   719)     16316.5  Rx     001171FF  5  01 00 00 FF 71 
   720)     16321.4  Rx     00012623  7  01 00 00 0F 03 23 26 
   721)     16321.5  Rx     00112623  5  01 00 00 23 26 
   722)     16326.4  Rx     000186AF  7  01 00 00 0F 03 AF 86 
   723)     16326.5  Rx     001186AF  5  01 00 00 AF 86 
   724)     16331.4  Rx     000124F9  7  01 00 00 0F 03 F9 24 
   725)     16331.5  Rx     001124F9  5  01 00 00 F9 24 
   726)     16336.4  Rx     00012492  7  01 00 00 0F 03 92 24 
   727)     16336.5  Rx     00112492  5  01 00 00 92 24 
   728)     16341.4  Rx     0001E67B  7  01 00 00 0F 03 7B E6 
   729)     16341.5  Rx     0011E67B  5  01 00 00 7B E6 
   730)     16346.4  Rx     000188E9  7  01 00 00 0F 03 E9 88 
   731)     16346.5  Rx     001188E9  5  01 00 00 E9 88 
   732)     16351.3  Rx     000160ED  7  01 00 00 0F 03 ED 60 
   733)     16351.5  Rx     001160ED  5  01 00 00 ED 60 
   734)     16356.4  Rx     0001E438  7  01 00 00 0F 03 38 E4 
   735)     16356.5  Rx     0011E438  5  01 00 00 38 E4 
   736)     16361.4  Rx     00014739  7  01 00 00 0F 03 39 47 
   737)     16361.5  Rx     00114739  5  01 00 00 39 47 
   738)     16366.4  Rx     000165CF  7  01 00 00 0F 03 CF 65 
   739)     16366.5  Rx     001165CF  5  01 00 00 CF 65 
   740)     16371.4  Rx     00011DCF  7  01 00 00 0F 03 CF 1D 
   741)     16371.5  Rx     00111DCF  5  01 00 00 CF 1D 
   742)     16376.3  Rx     0001C601  7  01 00 00 0F 03 01 C6 
   743)     16376.5  Rx     0011C601  5  01 00 00 01 C6 
   744)     16381.3  Rx     0001AB97  7  01 00 00 0F 03 97 AB 
   745)     16381.5  Rx     0011AB97  5  01 00 00 97 AB 
   746)     16386.4  Rx     00012DC0  7  01 00 00 0F 03 C0 2D 
   747)     16386.5  Rx     00112DC0  5  01 00 00 C0 2D 
   748)     16391.4  Rx     0001165B  7  01 00 00 0F 03 5B 16 
   749)     16391.5  Rx     0011165B  5  01 00 00 5B 16 
   750)     16396.4  Rx     0001A838  7  01 00 00 0F 03 38 A8 
   751)     16396.5  Rx     0011A838  5  01 00 00 38 A8 
   752)     16401.3  Rx     0001AED4  7  01 00 00 0F 03 D4 AE 
   753)     16401.5  Rx     0011AED4  5  01 00 00 D4 AE 
   754)     16406.3  Rx     00013AA3  7  01 00 00 0F 03 A3 3A 
   755)     16406.5  Rx     00113AA3  5  01 00 00 A3 3A 
   756)     16411.3  Rx     0001B347  7  01 00 00 0F 03 47 B3 
   757)     16411.5  Rx     0011B347  5  01 00 00 47 B3 
   758)     16416.4  Rx     0001D06D  7  01 00 00 0F 03 6D D0 
   759)     16416.5  Rx     0011D06D  5  01 00 00 6D D0 
   760)     16421.4  Rx     0001DC50  7  01 00 00 0F 03 50 DC 
   761)     16421.5  Rx     0011DC50  5  01 00 00 50 DC 
   762)     16426.4  Rx     00011D5A  7  01 00 00 0F 03 5A 1D 
   763)     16426.5  Rx     00111D5A  5  01 00 00 5A 1D 
   764)     16431.3  Rx     00016249  7  01 00 00 0F 03 49 62 
   765)     16431.5  Rx     00116249  5  01 00 00 49 62 
   766)     16436.3  Rx     00017950  7  01 00 00 0F 03 50 79 
   767)     16436.5  Rx     00117950  5  01 00 00 50 79 
   768)     16441.4  Rx     0001A676  7  01 00 00 0F 03 76 A6 
   769)     16441.5  Rx     0011A676  5  01 00 00 76 A6 
   770)     16446.4  Rx     0001D8F6  7  01 00 00 0F 03 F6 D8 
   771)     16446.4  Rx     0011D8F6  5  01 00 00 F6 D8 
   772)     16451.4  Rx     0001EDD9  7  01 00 00 0F 03 D9 ED 
   773)     16451.5  Rx     0011EDD9  5  01 00 00 D9 ED 
   774)     16456.3  Rx     00015843  7  01 00 00 0F 03 43 58 
   775)     16456.5  Rx     00115843  5  01 00 00 43 58 
   776)     16461.3  Rx     0001005C  7  01 00 00 0F 03 5C 00 
   777)     16461.5  Rx     0011005C  5  01 00 00 5C 00 
   778)     16466.3  Rx     0001CFAF  7  01 00 00 0F 03 AF CF 
   779)     16466.5  Rx     0011CFAF  5  01 00 00 AF CF 
   780)     16471.4  Rx     0001C9B5  7  01 00 00 0F 03 B5 C9 
   781)     16471.5  Rx     0011C9B5  5  01 00 00 B5 C9 
   782)     16476.4  Rx     000142AC  7  01 00 00 0F 03 AC 42 
   783)     16476.4  Rx     001142AC  5  01 00 00 AC 42 
   784)     16481.3  Rx     0001622B  7  01 00 00 0F 03 2B 62 
   785)     16481.5  Rx     0011622B  5  01 00 00 2B 62 
   786)     16486.3  Rx     0001D191  7  01 00 00 0F 03 91 D1 
   787)     16486.5  Rx     0011D191  5  01 00 00 91 D1 
   788)     16491.3  Rx     00015828  7  01 00 00 0F 03 28 58 
   789)     16491.5  Rx     00115828  5  01 00 00 28 58 
   790)     16496.4  Rx     0001A30E  7  01 00 00 0F 03 0E A3 
   791)     16496.5  Rx     0011A30E  5  01 00 00 0E A3 
   792)     16501.4  Rx     00017C3F  7  01 00 00 0F 03 3F 7C 
   793)     16501.5  Rx     00117C3F  5  01 00 00 3F 7C 
   794)     16506.4  Rx     000154F6  7  01 00 00 0F 03 F6 54 
   795)     16506.5  Rx     001154F6  5  01 00 00 F6 54 
   796)     16511.4  Rx     00014C0A  7  01 00 00 0F 03 0A 4C 
   797)     16511.5  Rx     00114C0A  5  01 00 00 0A 4C 
   798)     16516.4  Rx     00011DD7  7  01 00 00 0F 03 D7 1D 
   799)     16516.5  Rx     00111DD7  5  01 00 00 D7 1D 
   800)     16521.4  Rx     0001110E  7  01 00 00 0F 03 0E 11 
   801)     16521.5  Rx     0011110E  5  01 00 00 0E 11 
   802)     16526.4  Rx     000158B6  7  01 00 00 0F 03 B6 58 
   803)     16526.5  Rx     001158B6  5  01 00 00 B6 58 
   804)     16531.4  Rx     0001E786  7  01 00 00 0F 03 86 E7 
   805)     16531.5  Rx     0011E786  5  01 00 00 86 E7 
   806)     16536.4  Rx     00011DF6  7  01 00 00 0F 03 F6 1D 
   807)     16536.5  Rx     00111DF6  5  01 00 00 F6 1D 
   808)     16541.4  Rx     0001B5C8  7  01 00 00 0F 03 C8 B5 
   809)     16541.5  Rx     0011B5C8  5  01 00 00 C8 B5 
   810)     16546.4  Rx     00018C20  7  01 00 00 0F 03 20 8C 
   811)     16546.5  Rx     00118C20  5  01 00 00 20 8C 
   812)     16551.3  Rx     0001539E  7  01 00 00 0F 03 9E 53 
   813)     16551.5  Rx     0011539E  5  01 00 00 9E 53 
   814)     16556.4  Rx     00015932  7  01 00 00 0F 03 32 59 
   815)     16556.5  Rx     00115932  5  01 00 00 32 59 
   816)     16561.4  Rx     0001C1C2  7  01 00 00 0F 03 C2 C1 
   817)     16561.5  Rx     0011C1C2  5  01 00 00 C2 C1 
   818)     16566.4  Rx     000158A6  7  01 00 00 0F 03 A6 58 
   819)     16566.5  Rx     001158A6  5  01 00 00 A6 58 
   820)     16571.4  Rx     0001F46E  7  01 00 00 0F 03 6E F4 
   821)     16571.5  Rx     0011F46E  5  01 00 00 6E F4 
   822)     16576.4  Rx     0001703C  7  01 00 00 0F 03 3C 70 
   823)     16576.5  Rx     0011703C  5  01 00 00 3C 70 
   824)     16581.4  Rx     0001F893  7  01 00 00 0F 03 93 F8 
   825)     16581.5  Rx     0011F893  5  01 00 00 93 F8 
   826)     16586.4  Rx     0001F55B  7  01 00 00 0F 03 5B F5 
   827)     16586.5  Rx     0011F55B  5  01 00 00 5B F5 
   828)     16591.4  Rx     0001BA32  7  01 00 00 0F 03 32 BA 
   829)     16591.5  Rx     0011BA32  5  01 00 00 32 BA 
   830)     16596.4  Rx     00017681  7  01 00 00 0F 03 81 76 
   831)     16596.5  Rx     00117681  5  01 00 00 81 76 
   832)     16601.4  Rx     00017EFA  7  01 00 00 0F 03 FA 7E 
   833)     16601.5  Rx     00117EFA  5  01 00 00 FA 7E 
   834)     16606.3  Rx     0001681C  7  01 00 00 0F 03 1C 68 
   835)     16606.5  Rx     0011681C  5  01 00 00 1C 68 
   836)     16611.4  Rx     00015B08  7  01 00 00 0F 03 08 5B 
   837)     16611.5  Rx     00115B08  5  01 00 00 08 5B 
   838)     16616.4  Rx     000175C0  7  01 00 00 0F 03 C0 75 
   839)     16616.5  Rx     001175C0  5  01 00 00 C0 75 
   840)     16621.4  Rx     00018685  7  01 00 00 0F 03 85 86 
   841)     16621.5  Rx     00118685  5  01 00 00 85 86 
   842)     16626.4  Rx     0001B890  7  01 00 00 0F 03 90 B8 
   843)     16626.5  Rx     0011B890  5  01 00 00 90 B8 
   844)     16631.3  Rx     0001C575  7  01 00 00 0F 03 75 C5 
   845)     16631.5  Rx     0011C575  5  01 00 00 75 C5 
   846)     16636.4  Rx     0001195F  7  01 00 00 0F 03 5F 19 
   847)     16636.5  Rx     0011195F  5  01 00 00 5F 19 
   848)     16641.4  Rx     00013BF1  7  01 00 00 0F 03 F1 3B 
   849)     16641.5  Rx     00113BF1  5  01 00 00 F1 3B 
   850)     16646.4  Rx     0001D0D0  7  01 00 00 0F 03 D0 D0 
   851)     16646.5  Rx     0011D0D0  5  01 00 00 D0 D0 
   852)     16651.4  Rx     00015BA8  7  01 00 00 0F 03 A8 5B 
   853)     16651.5  Rx     00115BA8  5  01 00 00 A8 5B 
   854)     16656.3  Rx     0001297C  7  01 00 00 0F 03 7C 29 
   855)     16656.5  Rx     0011297C  5  01 00 00 7C 29 
   856)     16661.3  Rx     00018452  7  01 00 00 0F 03 52 84 
   857)     16661.5  Rx     00118452  5  01 00 00 52 84 
   858)     16666.4  Rx     0001BBE5  7  01 00 00 0F 03 E5 BB 
   859)     16666.5  Rx     0011BBE5  5  01 00 00 E5 BB 
   860)     16671.4  Rx     00013781  7  01 00 00 0F 03 81 37 
   861)     16671.5  Rx     00113781  5  01 00 00 81 37 
   862)     16676.4  Rx     000125C4  7  01 00 00 0F 03 C4 25 
   863)     16676.5  Rx     001125C4  5  01 00 00 C4 25 
   864)     16681.4  Rx     0001DCF3  7  01 00 00 0F 03 F3 DC 
   865)     16681.5  Rx     0011DCF3  5  01 00 00 F3 DC 
   866)     16686.3  Rx     00018DF5  7  01 00 00 0F 03 F5 8D 
   867)     16686.5  Rx     00118DF5  5  01 00 00 F5 8D 
   868)     16691.3  Rx     0001A34F  7  01 00 00 0F 03 4F A3 
   869)     16691.5  Rx     0011A34F  5  01 00 00 4F A3 
   870)     16696.4  Rx     0001C406  7  01 00 00 0F 03 06 C4 
   871)     16696.5  Rx     0011C406  5  01 00 00 06 C4 
   872)     16701.4  Rx     000119FA  7  01 00 00 0F 03 FA 19 
   873)     16701.5  Rx     001119FA  5  01 00 00 FA 19 
   874)     16706.4  Rx     00018E3C  7  01 00 00 0F 03 3C 8E 
   875)     16706.5  Rx     00118E3C  5  01 00 00 3C 8E 
   876)     16711.3  Rx     0001375C  7  01 00 00 0F 03 5C 37 
   877)     16711.5  Rx     0011375C  5  01 00 00 5C 37 
   878)     16716.3  Rx     0001A286  7  01 00 00 0F 03 86 A2 
   879)     16716.5  Rx     0011A286  5  01 00 00 86 A2 
   880)     16721.4  Rx     000143D2  7  01 00 00 0F 03 D2 43 
   881)     16721.5  Rx     001143D2  5  01 00 00 D2 43 
   882)     16726.4  Rx     000142BB  7  01 00 00 0F 03 BB 42 
   883)     16726.4  Rx     001142BB  5  01 00 00 BB 42 
   884)     16731.4  Rx     00015429  7  01 00 00 0F 03 29 54 
   885)     16731.5  Rx     00115429  5  01 00 00 29 54 
   886)     16736.3  Rx     0001AE12  7  01 00 00 0F 03 12 AE 
   887)     16736.5  Rx     0011AE12  5  01 00 00 12 AE 
   888)     16741.3  Rx     00015748  7  01 00 00 0F 03 48 57 
   889)     16741.5  Rx     00115748  5  01 00 00 48 57 
   890)     16746.3  Rx     000171B2  7  01 00 00 0F 03 B2 71 
   891)     16746.5  Rx     001171B2  5  01 00 00 B2 71 
   892)     16751.4  Rx     00015D78  7  01 00 00 0F 03 78 5D 
   893)     16751.5  Rx     00115D78  5  01 00 00 78 5D 
   894)     16756.4  Rx     0001D3D5  7  01 00 00 0F 03 D5 D3 
   895)     16756.4  Rx     0011D3D5  5  01 00 00 D5 D3 
   896)     16761.3  Rx     00012871  7  01 00 00 0F 03 71 28 
   897)     16761.5  Rx     00112871  5  01 00 00 71 28 
   898)     16766.3  Rx     000144CE  7  01 00 00 0F 03 CE 44 
   899)     16766.5  Rx     001144CE  5  01 00 00 CE 44 
   900)     16771.3  Rx     00010A0D  7  01 00 00 0F 03 0D 0A 
   901)     16771.5  Rx     00110A0D  5  01 00 00 0D 0A 
   902)     16776.3  Rx     000176EE  7  01 00 00 0F 03 EE 76 
   903)     16776.5  Rx     001176EE  5  01 00 00 EE 76 
   904)     16781.4  Rx     00012C52  7  01 00 00 0F 03 52 2C 
   905)     16781.4  Rx     00112C52  5  01 00 00 52 2C 
   906)     16786.4  Rx     00015621  7  01 00 00 0F 03 21 56 
   907)     16786.4  Rx     00115621  5  01 00 00 21 56 
   908)     16791.3  Rx     0001B834  7  01 00 00 0F 03 34 B8 
   909)     16791.5  Rx     0011B834  5  01 00 00 34 B8 
   910)     16796.3  Rx     00011DBE  7  01 00 00 0F 03 BE 1D 
   911)     16796.5  Rx     00111DBE  5  01 00 00 BE 1D 
   912)     16801.3  Rx     0001493D  7  01 00 00 0F 03 3D 49 
   913)     16801.5  Rx     0011493D  5  01 00 00 3D 49 
   914)     16806.4  Rx     0001AAD5  7  01 00 00 0F 03 D5 AA 
   915)     16806.4  Rx     0011AAD5  5  01 00 00 D5 AA 
   916)     16811.4  Rx     0001C301  7  01 00 00 0F 03 01 C3 
   917)     16811.4  Rx     0011C301  5  01 00 00 01 C3 
   918)     16816.3  Rx     0001E304  7  01 00 00 0F 03 04 E3 
   919)     16816.5  Rx     0011E304  5  01 00 00 04 E3 
   920)     16821.3  Rx     000199FC  7  01 00 00 0F 03 FC 99 
   921)     16821.5  Rx     001199FC  5  01 00 00 FC 99 
   922)     16826.3  Rx     0001DB9E  7  01 00 00 0F 03 9E DB 
   923)     16826.5  Rx     0011DB9E  5  01 00 00 9E DB 
   924)     16831.3  Rx     0001C059  7  01 00 00 0F 03 59 C0 
   925)     16831.5  Rx     0011C059  5  01 00 00 59 C0 
   926)     16836.4  Rx     00011EA9  7  01 00 00 0F 03 A9 1E 
   927)     16836.4  Rx     00111EA9  5  01 00 00 A9 1E 
   928)     16841.3  Rx     00014FAF  7  01 00 00 0F 03 AF 4F 
   929)     16841.4  Rx     00114FAF  5  01 00 00 AF 4F 
   930)     16846.3  Rx     00011EF3  7  01 00 00 0F 03 F3 1E 
   931)     16846.5  Rx     00111EF3  5  01 00 00 F3 1E 
   932)     16851.3  Rx     0001EFB3  7  01 00 00 0F 03 B3 EF 
   933)     16851.5  Rx     0011EFB3  5  01 00 00 B3 EF 
   934)     16856.3  Rx     0001EA5B  7  01 00 00 0F 03 5B EA 
   935)     16856.5  Rx     0011EA5B  5  01 00 00 5B EA 
   936)     16861.3  Rx     00017675  7  01 00 00 0F 03 75 76 
   937)     16861.4  Rx     00117675  5  01 00 00 75 76 
   938)     16866.4  Rx     00014CFC  7  01 00 00 0F 03 FC 4C 
   939)     16866.4  Rx     00114CFC  5  01 00 00 FC 4C 
   940)     16871.3  Rx     0001619D  7  01 00 00 0F 03 9D 61 
   941)     16871.4  Rx     0011619D  5  01 00 00 9D 61 
   942)     16876.3  Rx     0001A5DB  7  01 00 00 0F 03 DB A5 
   943)     16876.5  Rx     0011A5DB  5  01 00 00 DB A5 
   944)     16881.3  Rx     0001C8CC  7  01 00 00 0F 03 CC C8 
   945)     16881.5  Rx     0011C8CC  5  01 00 00 CC C8 
   946)     16886.3  Rx     00010D49  7  01 00 00 0F 03 49 0D 
   947)     16886.4  Rx     00110D49  5  01 00 00 49 0D 
   948)     16891.4  Rx     00017000  7  01 00 00 0F 03 00 70 
   949)     16891.4  Rx     00117000  5  01 00 00 00 70 
   950)     16896.3  Rx     0001AB16  7  01 00 00 0F 03 16 AB 
   951)     16896.4  Rx     0011AB16  5  01 00 00 16 AB 
   952)     16901.3  Rx     000189B8  7  01 00 00 0F 03 B8 89 
   953)     16901.5  Rx     001189B8  5  01 00 00 B8 89 
   954)     16906.3  Rx     0001B648  7  01 00 00 0F 03 48 B6 
   955)     16906.5  Rx     0011B648  5  01 00 00 48 B6 
   956)     16911.3  Rx     0001F724  7  01 00 00 0F 03 24 F7 
   957)     16911.4  Rx     0011F724  5  01 00 00 24 F7 
   958)     16916.3  Rx     0001B1F4  7  01 00 00 0F 03 F4 B1 
   959)     16916.4  Rx     0011B1F4  5  01 00 00 F4 B1 
   960)     16921.3  Rx     000145A5  7  01 00 00 0F 03 A5 45 
   961)     16921.4  Rx     001145A5  5  01 00 00 A5 45 
   962)     16926.3  Rx     00019273  7  01 00 00 0F 03 73 92 
   963)     16926.4  Rx     00119273  5  01 00 00 73 92 
   964)     16931.3  Rx     00019F71  7  01 00 00 0F 03 71 9F 
   965)     16931.5  Rx     00119F71  5  01 00 00 71 9F 
   966)     16936.3  Rx     00017FF3  7  01 00 00 0F 03 F3 7F 
   967)     16936.5  Rx     00117FF3  5  01 00 00 F3 7F 
   968)     16941.3  Rx     00019E0C  7  01 00 00 0F 03 0C 9E 
   969)     16941.4  Rx     00119E0C  5  01 00 00 0C 9E 
   970)     16946.3  Rx     0001C34A  7  01 00 00 0F 03 4A C3 
   971)     16946.4  Rx     0011C34A  5  01 00 00 4A C3 
   972)     16951.3  Rx     000147FA  7  01 00 00 0F 03 FA 47 
   973)     16951.4  Rx     001147FA  5  01 00 00 FA 47 
   974)     16956.3  Rx     00016B72  7  01 00 00 0F 03 72 6B 
   975)     16956.5  Rx     00116B72  5  01 00 00 72 6B 
   976)     16961.3  Rx     000137D7  7  01 00 00 0F 03 D7 37 
   977)     16961.5  Rx     001137D7  5  01 00 00 D7 37 
   978)     16966.3  Rx     00017206  7  01 00 00 0F 03 06 72 
   979)     16966.4  Rx     00117206  5  01 00 00 06 72 
   980)     16971.3  Rx     000139B9  7  01 00 00 0F 03 B9 39 
   981)     16971.4  Rx     001139B9  5  01 00 00 B9 39 
   982)     16976.3  Rx     0001EACD  7  01 00 00 0F 03 CD EA 
   983)     16976.4  Rx     0011EACD  5  01 00 00 CD EA 
   984)     16981.3  Rx     00015C84  7  01 00 00 0F 03 84 5C 
   985)     16981.4  Rx     00115C84  5  01 00 00 84 5C 
   986)     16986.3  Rx     0001D20A  7  01 00 00 0F 03 0A D2 
   987)     16986.5  Rx     0011D20A  5  01 00 00 0A D2 
   988)     16991.3  Rx     00018F9A  7  01 00 00 0F 03 9A 8F 
   989)     16991.4  Rx     00118F9A  5  01 00 00 9A 8F 
   990)     16996.3  Rx     00012F2D  7  01 00 00 0F 03 2D 2F 
   991)     16996.4  Rx     00112F2D  5  01 00 00 2D 2F 
   992)     17001.3  Rx     0001FE0B  7  01 00 00 0F 03 0B FE 
   993)     17001.4  Rx     0011FE0B  5  01 00 00 0B FE 
   994)     17006.3  Rx     00012919  7  01 00 00 0F 03 19 29 
   995)     17006.4  Rx     00112919  5  01 00 00 19 29 
   996)     17011.3  Rx     00017339  7  01 00 00 0F 03 39 73 
   997)     17011.4  Rx     00117339  5  01 00 00 39 73 
   998)     17016.3  Rx     0001A31B  7  01 00 00 0F 03 1B A3 
   999)     17016.4  Rx     0011A31B  5  01 00 00 1B A3 
  1000)     17021.3  Rx     00016180  7  01 00 00 0F 03 80 61 
  1001)     17021.4  Rx     00116180  5  01 00 00 80 61 
  1002)     17026.3  Rx     0001F149  7  01 00 00 0F 03 49 F1 
  1003)     17026.4  Rx     0011F149  5  01 00 00 49 F1 
  1004)     17031.3  Rx     0001766A  7  01 00 00 0F 03 6A 76 
  1005)     17031.4  Rx     0011766A  5  01 00 00 6A 76 
  1006)     17036.3  Rx     000184D9  7  01 00 00 0F 03 D9 84 
  1007)     17036.4  Rx     001184D9  5  01 00 00 D9 84 
  1008)     17041.3  Rx     0001FC77  7  01 00 00 0F 03 77 FC 
  1009)     17041.5  Rx     0011FC77  5  01 00 00 77 FC 
  1010)     17046.3  Rx     0001DCB9  7  01 00 00 0F 03 B9 DC 
  1011)     17046.4  Rx     0011DCB9  5  01 00 00 B9 DC 
  1012)     17051.3  Rx     0001E97C  7  01 00 00 0F 03 7C E9 
  1013)     17051.4  Rx     0011E97C  5  01 00 00 7C E9 
  1014)     17056.3  Rx     0001846F  7  01 00 00 0F 03 6F 84 
  1015)     17056.4  Rx     0011846F  5  01 00 00 6F 84 
  1016)     17061.3  Rx     0001412A  7  01 00 00 0F 03 2A 41 
  1017)     17061.4  Rx     0011412A  5  01 00 00 2A 41 
  1018)     17066.3  Rx     0001E704  7  01 00 00 0F 03 04 E7 
  1019)     17066.5  Rx     0011E704  5  01 00 00 04 E7 
  1020)     17071.3  Rx     00011E3C  7  01 00 00 0F 03 3C 1E 
  1021)     17071.4  Rx     00111E3C  5  01 00 00 3C 1E 
  1022)     17076.3  Rx     00013587  7  01 00 00 0F 03 87 35 
  1023)     17076.4  Rx     00113587  5  01 00 00 87 35 
  1024)     17081.3  Rx     0001715C  7  01 00 00 0F 03 5C 71 
  1025)     17081.4  Rx     0011715C  5  01 00 00 5C 71 
  1026)     17086.3  Rx     00016473  7  01 00 00 0F 03 73 64 
  1027)     17086.4  Rx     00116473  5  01 00 00 73 64 
  1028)     17091.3  Rx     0001B7BB  7  01 00 00 0F 03 BB B7 
  1029)     17091.4  Rx     0011B7BB  5  01 00 00 BB B7 
  1030)     17096.3  Rx     0001ACF8  7  01 00 00 0F 03 F8 AC 
  1031)     17096.4  Rx     0011ACF8  5  01 00 00 F8 AC 
  1032)     17101.3  Rx     000177FA  7  01 00 00 0F 03 FA 77 
  1033)     17101.4  Rx     001177FA  5  01 00 00 FA 77 
  1034)     17106.3  Rx     000122F4  7  01 00 00 0F 03 F4 22 
  1035)     17106.4  Rx     001122F4  5  01 00 00 F4 22 
  1036)     17111.3  Rx     00010ACF  7  01 00 00 0F 03 CF 0A 
  1037)     17111.4  Rx     00110ACF  5  01 00 00 CF 0A 
  1038)     17116.3  Rx     00012223  7  01 00 00 0F 03 23 22 
  1039)     17116.4  Rx     00112223  5  01 00 00 23 22 
  1040)     17121.3  Rx     00019986  7  01 00 00 0F 03 86 99 
  1041)     17121.4  Rx     00119986  5  01 00 00 86 99 
  1042)     17126.3  Rx     000150CE  7  01 00 00 0F 03 CE 50 
  1043)     17126.4  Rx     001150CE  5  01 00 00 CE 50 
  1044)     17131.3  Rx     00015B5A  7  01 00 00 0F 03 5A 5B 
  1045)     17131.4  Rx     00115B5A  5  01 00 00 5A 5B 
  1046)     17136.3  Rx     00016001  7  01 00 00 0F 03 01 60 
  1047)     17136.4  Rx     00116001  5  01 00 00 01 60 
  1048)     17141.3  Rx     00016F33  7  01 00 00 0F 03 33 6F 
  1049)     17141.4  Rx     00116F33  5  01 00 00 33 6F 
  1050)     17146.3  Rx     0001BD11  7  01 00 00 0F 03 11 BD 
  1051)     17146.4  Rx     0011BD11  5  01 00 00 11 BD 
  1052)     17151.3  Rx     0001364C  7  01 00 00 0F 03 4C 36 
  1053)     17151.4  Rx     0011364C  5  01 00 00 4C 36 
  1054)     17156.3  Rx     00016DF7  7  01 00 00 0F 03 F7 6D 
  1055)     17156.4  Rx     00116DF7  5  01 00 00 F7 6D 
  1056)     17161.3  Rx     000190CF  7  01 00 00 0F 03 CF 90 
  1057)     17161.4  Rx     001190CF  5  01 00 00 CF 90 
  1058)     17166.3  Rx     0001D1CE  7  01 00 00 0F 03 CE D1 
  1059)     17166.4  Rx     0011D1CE  5  01 00 00 CE D1 
  1060)     17171.3  Rx     0001C468  7  01 00 00 0F 03 68 C4 
  1061)     17171.4  Rx     0011C468  5  01 00 00 68 C4 
  1062)     17176.3  Rx     00010C6F  7  01 00 00 0F 03 6F 0C 
  1063)     17176.4  Rx     00110C6F  5  01 00 00 6F 0C 
  1064)     17181.3  Rx     00018964  7  01 00 00 0F 03 64 89 
  1065)     17181.4  Rx     00118964  5  01 00 00 64 89 
  1066)     17186.3  Rx     0001940A  7  01 00 00 0F 03 0A 94 
  1067)     17186.4  Rx     0011940A  5  01 00 00 0A 94 
  1068)     17191.3  Rx     000111C9  7  01 00 00 0F 03 C9 11 
  1069)     17191.4  Rx     001111C9  5  01 00 00 C9 11 
  1070)     17196.3  Rx     00016127  7  01 00 00 0F 03 27 61 
  1071)     17196.4  Rx     00116127  5  01 00 00 27 61 
  1072)     17201.3  Rx     00017A9C  7  01 00 00 0F 03 9C 7A 
  1073)     17201.4  Rx     00117A9C  5  01 00 00 9C 7A 
  1074)     17206.3  Rx     0001D172  7  01 00 00 0F 03 72 D1 
  1075)     17206.4  Rx     0011D172  5  01 00 00 72 D1 
  1076)     17211.3  Rx     00015E23  7  01 00 00 0F 03 23 5E 
  1077)     17211.4  Rx     00115E23  5  01 00 00 23 5E 
  1078)     17216.3  Rx     00015F47  7  01 00 00 0F 03 47 5F 
  1079)     17216.4  Rx     00115F47  5  01 00 00 47 5F 
  1080)     17221.3  Rx     000116E8  7  01 00 00 0F 03 E8 16 
  1081)     17221.4  Rx     001116E8  5  01 00 00 E8 16 
  1082)     17226.3  Rx     00011FCE  7  01 00 00 0F 03 CE 1F 
  1083)     17226.4  Rx     00111FCE  5  01 00 00 CE 1F 
  1084)     17231.3  Rx     000171CA  7  01 00 00 0F 03 CA 71 
  1085)     17231.4  Rx     001171CA  5  01 00 00 CA 71 
  1086)     17236.3  Rx     00017B34  7  01 00 00 0F 03 34 7B 
  1087)     17236.4  Rx     00117B34  5  01 00 00 34 7B 
  1088)     17241.3  Rx     0001525E  7  01 00 00 0F 03 5E 52 
  1089)     17241.4  Rx     0011525E  5  01 00 00 5E 52 
  1090)     17246.3  Rx     0001EA36  7  01 00 00 0F 03 36 EA 
  1091)     17246.4  Rx     0011EA36  5  01 00 00 36 EA 
  1092)     17251.3  Rx     0001F373  7  01 00 00 0F 03 73 F3 
  1093)     17251.4  Rx     0011F373  5  01 00 00 73 F3 
  1094)     17256.3  Rx     00012625  7  01 00 00 0F 03 25 26 
  1095)     17256.4  Rx     00112625  5  01 00 00 25 26 
  1096)     17261.3  Rx     00015266  7  01 00 00 0F 03 66 52 
  1097)     17261.4  Rx     00115266  5  01 00 00 66 52 
  1098)     17266.3  Rx     00018C07  7  01 00 00 0F 03 07 8C 
  1099)     17266.4  Rx     00118C07  5  01 00 00 07 8C 
  1100)     17271.3  Rx     0001A6BB  7  01 00 00 0F 03 BB A6 
  1101)     17271.4  Rx     0011A6BB  5  01 00 00 BB A6 
  1102)     17276.3  Rx     00016579  7  01 00 00 0F 03 79 65 
  1103)     17276.4  Rx     00116579  5  01 00 00 79 65 
  1104)     17281.3  Rx     00011413  7  01 00 00 0F 03 13 14 
  1105)     17281.4  Rx     00111413  5  01 00 00 13 14 
  1106)     17286.3  Rx     00016193  7  01 00 00 0F 03 93 61 
  1107)     17286.4  Rx     00116193  5  01 00 00 93 61 
  1108)     17291.3  Rx     0001C76A  7  01 00 00 0F 03 6A C7 
  1109)     17291.4  Rx     0011C76A  5  01 00 00 6A C7 
  1110)     17296.3  Rx     000165C6  7  01 00 00 0F 03 C6 65 
  1111)     17296.4  Rx     001165C6  5  01 00 00 C6 65 
  1112)     17301.3  Rx     00016951  7  01 00 00 0F 03 51 69 
  1113)     17301.4  Rx     00116951  5  01 00 00 51 69 
  1114)     17306.3  Rx     0001C699  7  01 00 00 0F 03 99 C6 
  1115)     17306.4  Rx     0011C699  5  01 00 00 99 C6 
  1116)     17311.3  Rx     00016177  7  01 00 00 0F 03 77 61 
  1117)     17311.4  Rx     00116177  5  01 00 00 77 61 
  1118)     17316.3  Rx     000101B1  7  01 00 00 0F 03 B1 01 
  1119)     17316.4  Rx     001101B1  5  01 00 00 B1 01 
  1120)     17321.3  Rx     0001A4C3  7  01 00 00 0F 03 C3 A4 
  1121)     17321.4  Rx     0011A4C3  5  01 00 00 C3 A4 
  1122)     17326.3  Rx     0001367A  7  01 00 00 0F 03 7A 36 
  1123)     17326.4  Rx     0011367A  5  01 00 00 7A 36 
  1124)     17331.3  Rx     00018DCB  7  01 00 00 0F 03 CB 8D 
  1125)     17331.4  Rx     00118DCB  5  01 00 00 CB 8D 
  1126)     17336.3  Rx     0001547F  7  01 00 00 0F 03 7F 54 
  1127)     17336.4  Rx     0011547F  5  01 00 00 7F 54 
  1128)     17341.3  Rx     00018068  7  01 00 00 0F 03 68 80 
  1129)     17341.4  Rx     00118068  5  01 00 00 68 80 
  1130)     17346.3  Rx     00015628  7  01 00 00 0F 03 28 56 
  1131)     17346.4  Rx     00115628  5  01 00 00 28 56 
  1132)     17351.3  Rx     0001D7C4  7  01 00 00 0F 03 C4 D7 
  1133)     17351.4  Rx     0011D7C4  5  01 00 00 C4 D7 
  1134)     17356.3  Rx     0001546F  7  01 00 00 0F 03 6F 54 
  1135)     17356.4  Rx     0011546F  5  01 00 00 6F 54 
  1136)     17361.3  Rx     0001E303  7  01 00 00 0F 03 03 E3 
  1137)     17361.4  Rx     0011E303  5  01 00 00 03 E3 
  1138)     17366.3  Rx     00010BDD  7  01 00 00 0F 03 DD 0B 
  1139)     17366.4  Rx     00110BDD  5  01 00 00 DD 0B 
  1140)     17371.3  Rx     00016F7F  7  01 00 00 0F 03 7F 6F 
  1141)     17371.4  Rx     00116F7F  5  01 00 00 7F 6F 
  1142)     17376.3  Rx     000158C4  7  01 00 00 0F 03 C4 58 
  1143)     17376.4  Rx     001158C4  5  01 00 00 C4 58 
  1144)     17381.3  Rx     0001A438  7  01 00 00 0F 03 38 A4 
  1145)     17381.4  Rx     0011A438  5  01 00 00 38 A4 
  1146)     17386.3  Rx     00017C8F  7  01 00 00 0F 03 8F 7C 
  1147)     17386.4  Rx     00117C8F  5  01 00 00 8F 7C 
  1148)     17391.3  Rx     000198D5  7  01 00 00 0F 03 D5 98 
  1149)     17391.4  Rx     001198D5  5  01 00 00 D5 98 
  1150)     17396.3  Rx     0001A3A4  7  01 00 00 0F 03 A4 A3 
  1151)     17396.4  Rx     0011A3A4  5  01 00 00 A4 A3 
  1152)     17401.3  Rx     00018775  7  01 00 00 0F 03 75 87 
  1153)     17401.4  Rx     00118775  5  01 00 00 75 87 
  1154)     17406.3  Rx     00013B26  7  01 00 00 0F 03 26 3B 
  1155)     17406.4  Rx     00113B26  5  01 00 00 26 3B 
  1156)     17411.3  Rx     0001F321  7  01 00 00 0F 03 21 F3 
  1157)     17411.4  Rx     0011F321  5  01 00 00 21 F3 
  1158)     17416.3  Rx     000103A3  7  01 00 00 0F 03 A3 03 
  1159)     17416.4  Rx     001103A3  5  01 00 00 A3 03 
  1160)     17421.3  Rx     0001D196  7  01 00 00 0F 03 96 D1 
  1161)     17421.4  Rx     0011D196  5  01 00 00 96 D1 
  1162)     17426.3  Rx     00012D6A  7  01 00 00 0F 03 6A 2D 
  1163)     17426.4  Rx     00112D6A  5  01 00 00 6A 2D 
  1164)     17431.3  Rx     0001B5C7  7  01 00 00 0F 03 C7 B5 
  1165)     17431.4  Rx     0011B5C7  5  01 00 00 C7 B5 
  1166)     17436.3  Rx     0001551C  7  01 00 00 0F 03 1C 55 
  1167)     17436.4  Rx     0011551C  5  01 00 00 1C 55 
  1168)     17441.3  Rx     00014D45  7  01 00 00 0F 03 45 4D 
  1169)     17441.4  Rx     00114D45  5  01 00 00 45 4D 
  1170)     17446.3  Rx     0001CABD  7  01 00 00 0F 03 BD CA 
  1171)     17446.4  Rx     0011CABD  5  01 00 00 BD CA 
  1172)     17451.3  Rx     00012173  7  01 00 00 0F 03 73 21 
  1173)     17451.4  Rx     00112173  5  01 00 00 73 21 
  1174)     17456.3  Rx     00011B46  7  01 00 00 0F 03 46 1B 
  1175)     17456.4  Rx     00111B46  5  01 00 00 46 1B 
  1176)     17461.3  Rx     0001F625  7  01 00 00 0F 03 25 F6 
  1177)     17461.4  Rx     0011F625  5  01 00 00 25 F6 
  1178)     17466.3  Rx     0001088D  7  01 00 00 0F 03 8D 08 
  1179)     17466.4  Rx     0011088D  5  01 00 00 8D 08 
  1180)     17471.3  Rx     0001AA24  7  01 00 00 0F 03 24 AA 
  1181)     17471.4  Rx     0011AA24  5  01 00 00 24 AA 
  1182)     17476.3  Rx     00010501  7  01 00 00 0F 03 01 05 
  1183)     17476.4  Rx     00110501  5  01 00 00 01 05 
  1184)     17481.3  Rx     0001DEAE  7  01 00 00 0F 03 AE DE 
  1185)     17481.4  Rx     0011DEAE  5  01 00 00 AE DE 
  1186)     17486.3  Rx     00017886  7  01 00 00 0F 03 86 78 
  1187)     17486.4  Rx     00117886  5  01 00 00 86 78 
  1188)     17491.3  Rx     00016DE7  7  01 00 00 0F 03 E7 6D 
  1189)     17491.4  Rx     00116DE7  5  01 00 00 E7 6D 
  1190)     17496.3  Rx     00019174  7  01 00 00 0F 03 74 91 
  1191)     17496.4  Rx     00119174  5  01 00 00 74 91 
  1192)     17501.3  Rx     0001F0D6  7  01 00 00 0F 03 D6 F0 
  1193)     17501.4  Rx     0011F0D6  5  01 00 00 D6 F0 
  1194)     17506.3  Rx     0001588A  7  01 00 00 0F 03 8A 58 
  1195)     17506.4  Rx     0011588A  5  01 00 00 8A 58 
  1196)     17511.3  Rx     00016062  7  01 00 00 0F 03 62 60 
  1197)     17511.4  Rx     00116062  5  01 00 00 62 60 
  1198)     17516.3  Rx     00018457  7  01 00 00 0F 03 57 84 
  1199)     17516.4  Rx     00118457  5  01 00 00 57 84 
  1200)     17521.3  Rx     0001D173  7  01 00 00 0F 03 73 D1 
  1201)     17521.4  Rx     0011D173  5  01 00 00 73 D1 
  1202)     17526.3  Rx     0001A861  7  01 00 00 0F 03 61 A8 
  1203)     17526.4  Rx     0011A861  5  01 00 00 61 A8 
  1204)     17531.3  Rx     0001BB17  7  01 00 00 0F 03 17 BB 
  1205)     17531.4  Rx     0011BB17  5  01 00 00 17 BB 
  1206)     17536.3  Rx     00018E0F  7  01 00 00 0F 03 0F 8E 
  1207)     17536.4  Rx     00118E0F  5  01 00 00 0F 8E 
  1208)     17541.3  Rx     00019262  7  01 00 00 0F 03 62 92 
  1209)     17541.4  Rx     00119262  5  01 00 00 62 92 
  1210)     17546.3  Rx     0001292F  7  01 00 00 0F 03 2F 29 
  1211)     17546.4  Rx     0011292F  5  01 00 00 2F 29 
  1212)     17551.3  Rx     00012E65  7  01 00 00 0F 03 65 2E 
  1213)     17551.4  Rx     00112E65  5  01 00 00 65 2E 
  1214)     17556.3  Rx     0001CF7E  7  01 00 00 0F 03 7E CF 
  1215)     17556.4  Rx     0011CF7E  5  01 00 00 7E CF 
  1216)     17561.3  Rx     0001AB67  7  01 00 00 0F 03 67 AB 
  1217)     17561.4  Rx     0011AB67  5  01 00 00 67 AB 
  1218)     17566.3  Rx     000176A8  7  01 00 00 0F 03 A8 76 
  1219)     17566.4  Rx     001176A8  5  01 00 00 A8 76 
  1220)     17571.3  Rx     0001574D  7  01 00 00 0F 03 4D 57 
  1221)     17571.4  Rx     0011574D  5  01 00 00 4D 57 
  1222)     17576.3  Rx     00016598  7  01 00 00 0F 03 98 65 
  1223)     17576.4  Rx     00116598  5  01 00 00 98 65 
  1224)     17581.3  Rx     000199D2  7  01 00 00 0F 03 D2 99 
  1225)     17581.4  Rx     001199D2  5  01 00 00 D2 99 
  1226)     17586.3  Rx     00011E05  7  01 00 00 0F 03 05 1E 
  1227)     17586.4  Rx     00111E05  5  01 00 00 05 1E 
  1228)     17591.3  Rx     0001E1F9  7  01 00 00 0F 03 F9 E1 
  1229)     17591.4  Rx     0011E1F9  5  01 00 00 F9 E1 
  1230)     17596.3  Rx     00010CB4  7  01 00 00 0F 03 B4 0C 
  1231)     17596.4  Rx     00110CB4  5  01 00 00 B4 0C 
  1232)     17601.3  Rx     0001DEE6  7  01 00 00 0F 03 E6 DE 
  1233)     17601.4  Rx     0011DEE6  5  01 00 00 E6 DE 
  1234)     17606.3  Rx     0001AAB5  7  01 00 00 0F 03 B5 AA 
  1235)     17606.4  Rx     0011AAB5  5  01 00 00 B5 AA 
  1236)     17611.3  Rx     000104FC  7  01 00 00 0F 03 FC 04 
  1237)     17611.4  Rx     001104FC  5  01 00 00 FC 04 
  1238)     17616.3  Rx     00019FA7  7  01 00 00 0F 03 A7 9F 
  1239)     17616.4  Rx     00119FA7  5  01 00 00 A7 9F 
  1240)     17621.3  Rx     0001B0F8  7  01 00 00 0F 03 F8 B0 
  1241)     17621.4  Rx     0011B0F8  5  01 00 00 F8 B0 
  1242)     17626.3  Rx     0001A0D2  7  01 00 00 0F 03 D2 A0 
  1243)     17626.4  Rx     0011A0D2  5  01 00 00 D2 A0 
  1244)     17631.3  Rx     0001B559  7  01 00 00 0F 03 59 B5 
  1245)     17631.4  Rx     0011B559  5  01 00 00 59 B5 
  1246)     17636.3  Rx     00019E91  7  01 00 00 0F 03 91 9E 
  1247)     17636.4  Rx     00119E91  5  01 00 00 91 9E 
  1248)     17641.3  Rx     0001D759  7  01 00 00 0F 03 59 D7 
  1249)     17641.4  Rx     0011D759  5  01 00 00 59 D7 
  1250)     17646.3  Rx     0001B559  7  01 00 00 0F 03 59 B5 
  1251)     17646.4  Rx     0011B559  5  01 00 00 59 B5 
  1252)     17651.3  Rx     0001FF45  7  01 00 00 0F 03 45 FF 
  1253)     17651.4  Rx     0011FF45  5  01 00 00 45 FF 
  1254)     17656.3  Rx     0001E574  7  01 00 00 0F 03 74 E5 
  1255)     17656.4  Rx     0011E574  5  01 00 00 74 E5 
  1256)     17661.3  Rx     000178F4  7  01 00 00 0F 03 F4 78 
  1257)     17661.4  Rx     001178F4  5  01 00 00 F4 78 
  1258)     17666.3  Rx     0001C018  7  01 00 00 0F 03 18 C0 
  1259)     17666.4  Rx     0011C018  5  01 00 00 18 C0 
  1260)     17671.3  Rx     000153AC  7  01 00 00 0F 03 AC 53 
  1261)     17671.4  Rx     001153AC  5  01 00 00 AC 53 
  1262)     17676.3  Rx     00011288  7  01 00 00 0F 03 88 12 
  1263)     17676.4  Rx     00111288  5  01 00 00 88 12 
  1264)     17681.3  Rx     0001E9B6  7  01 00 00 0F 03 B6 E9 
  1265)     17681.4  Rx     0011E9B6  5  01 00 00 B6 E9 
  1266)     17686.3  Rx     0001CF66  7  01 00 00 0F 03 66 CF 
  1267)     17686.4  Rx     0011CF66  5  01 00 00 66 CF 
  1268)     17691.3  Rx     0001DE74  7  01 00 00 0F 03 74 DE 
  1269)     17691.4  Rx     0011DE74  5  01 00 00 74 DE 
  1270)     17696.3  Rx     00012451  7  01 00 00 0F 03 51 24 
  1271)     17696.4  Rx     00112451  5  01 00 00 51 24 
  1272)     17701.3  Rx     000182B0  7  01 00 00 0F 03 B0 82 
  1273)     17701.4  Rx     001182B0  5  01 00 00 B0 82 
  1274)     17706.3  Rx     00013995  7  01 00 00 0F 03 95 39 
  1275)     17706.4  Rx     00113995  5  01 00 00 95 39 
  1276)     17711.3  Rx     0001D582  7  01 00 00 0F 03 82 D5 
  1277)     17711.4  Rx     0011D582  5  01 00 00 82 D5 
  1278)     17716.3  Rx     00011F6C  7  01 00 00 0F 03 6C 1F 
  1279)     17716.4  Rx     00111F6C  5  01 00 00 6C 1F 
  1280)     17721.3  Rx     00015CFD  7  01 00 00 0F 03 FD 5C 
  1281)     17721.4  Rx     00115CFD  5  01 00 00 FD 5C 
  1282)     17726.3  Rx     0001C026  7  01 00 00 0F 03 26 C0 
  1283)     17726.4  Rx     0011C026  5  01 00 00 26 C0 
  1284)     17731.3  Rx     0001B880  7  01 00 00 0F 03 80 B8 
  1285)     17731.4  Rx     0011B880  5  01 00 00 80 B8 
  1286)     17736.3  Rx     0001702D  7  01 00 00 0F 03 2D 70 
  1287)     17736.4  Rx     0011702D  5  01 00 00 2D 70 
  1288)     17741.3  Rx     00014763  7  01 00 00 0F 03 63 47 
  1289)     17741.4  Rx     00114763  5  01 00 00 63 47 
  1290)     17746.3  Rx     000180C1  7  01 00 00 0F 03 C1 80 
  1291)     17746.4  Rx     001180C1  5  01 00 00 C1 80 
  1292)     17751.3  Rx     0001C55B  7  01 00 00 0F 03 5B C5 
  1293)     17751.4  Rx     0011C55B  5  01 00 00 5B C5 
  1294)     17756.3  Rx     0001B3E9  7  01 00 00 0F 03 E9 B3 
  1295)     17756.4  Rx     0011B3E9  5  01 00 00 E9 B3 
  1296)     17761.3  Rx     00016ABC  7  01 00 00 0F 03 BC 6A 
  1297)     17761.4  Rx     00116ABC  5  01 00 00 BC 6A 
  1298)     17766.3  Rx     00011BE2  7  01 00 00 0F 03 E2 1B 
  1299)     17766.4  Rx     00111BE2  5  01 00 00 E2 1B 
  1300)     17771.3  Rx     0001158E  7  01 00 00 0F 03 8E 15 
  1301)     17771.4  Rx     0011158E  5  01 00 00 8E 15 
  1302)     17776.3  Rx     00010E12  7  01 00 00 0F 03 12 0E 
  1303)     17776.4  Rx     00110E12  5  01 00 00 12 0E 
  1304)     17781.3  Rx     00013512  7  01 00 00 0F 03 12 35 
  1305)     17781.4  Rx     00113512  5  01 00 00 12 35 
  1306)     17786.3  Rx     0001B552  7  01 00 00 0F 03 52 B5 
  1307)     17786.4  Rx     0011B552  5  01 00 00 52 B5 
  1308)     17791.3  Rx     00011C20  7  01 00 00 0F 03 20 1C 
  1309)     17791.4  Rx     00111C20  5  01 00 00 20 1C 
  1310)     17796.3  Rx     0001E907  7  01 00 00 0F 03 07 E9 
  1311)     17796.4  Rx     0011E907  5  01 00 00 07 E9 
  1312)     17801.3  Rx     0001338C  7  01 00 00 0F 03 8C 33 
  1313)     17801.4  Rx     0011338C  5  01 00 00 8C 33 
  1314)     17806.3  Rx     0001125C  7  01 00 00 0F 03 5C 12 
  1315)     17806.4  Rx     0011125C  5  01 00 00 5C 12 
  1316)     17811.3  Rx     0001E06E  7  01 00 00 0F 03 6E E0 
  1317)     17811.4  Rx     0011E06E  5  01 00 00 6E E0 
  1318)     17816.3  Rx     00016EA8  7  01 00 00 0F 03 A8 6E 
  1319)     17816.4  Rx     00116EA8  5  01 00 00 A8 6E 
  1320)     17821.3  Rx     0001B70A  7  01 00 00 0F 03 0A B7 
  1321)     17821.4  Rx     0011B70A  5  01 00 00 0A B7 
  1322)     17826.3  Rx     0001A5BB  7  01 00 00 0F 03 BB A5 
  1323)     17826.4  Rx     0011A5BB  5  01 00 00 BB A5 
  1324)     17831.3  Rx     00014DA8  7  01 00 00 0F 03 A8 4D 
  1325)     17831.4  Rx     00114DA8  5  01 00 00 A8 4D 
  1326)     17836.3  Rx     000114AB  7  01 00 00 0F 03 AB 14 
  1327)     17836.4  Rx     001114AB  5  01 00 00 AB 14 
  1328)     17841.3  Rx     0001CF91  7  01 00 00 0F 03 91 CF 
  1329)     17841.4  Rx     0011CF91  5  01 00 00 91 CF 
  1330)     17846.2  Rx     00019555  7  01 00 00 0F 03 55 95 
  1331)     17846.4  Rx     00119555  5  01 00 00 55 95 
  1332)     17851.3  Rx     0001831C  7  01 00 00 0F 03 1C 83 
  1333)     17851.4  Rx     0011831C  5  01 00 00 1C 83 
  1334)     17856.3  Rx     000138B0  7  01 00 00 0F 03 B0 38 
  1335)     17856.4  Rx     001138B0  5  01 00 00 B0 38 
  1336)     17861.3  Rx     00010A68  7  01 00 00 0F 03 68 0A 
  1337)     17861.4  Rx     00110A68  5  01 00 00 68 0A 
  1338)     17866.3  Rx     0001D5A9  7  01 00 00 0F 03 A9 D5 
  1339)     17866.4  Rx     0011D5A9  5  01 00 00 A9 D5 
  1340)     17871.3  Rx     00012935  7  01 00 00 0F 03 35 29 
  1341)     17871.4  Rx     00112935  5  01 00 00 35 29 
  1342)     17876.3  Rx     0001AC15  7  01 00 00 0F 03 15 AC 
  1343)     17876.4  Rx     0011AC15  5  01 00 00 15 AC 
  1344)     17881.3  Rx     000146FE  7  01 00 00 0F 03 FE 46 
  1345)     17881.4  Rx     001146FE  5  01 00 00 FE 46 
  1346)     17886.3  Rx     00013708  7  01 00 00 0F 03 08 37 
  1347)     17886.4  Rx     00113708  5  01 00 00 08 37 
  1348)     17891.3  Rx     0001C740  7  01 00 00 0F 03 40 C7 
  1349)     17891.4  Rx     0011C740  5  01 00 00 40 C7 
  1350)     17896.3  Rx     0001438A  7  01 00 00 0F 03 8A 43 
  1351)     17896.4  Rx     0011438A  5  01 00 00 8A 43 
  1352)     17901.2  Rx     00017A91  7  01 00 00 0F 03 91 7A 
  1353)     17901.4  Rx     00117A91  5  01 00 00 91 7A 
  1354)     17906.3  Rx     00017085  7  01 00 00 0F 03 85 70 
  1355)     17906.4  Rx     00117085  5  01 00 00 85 70 
  1356)     17911.3  Rx     0001FDF4  7  01 00 00 0F 03 F4 FD 
  1357)     17911.4  Rx     0011FDF4  5  01 00 00 F4 FD 
  1358)     17916.3  Rx     00016263  7  01 00 00 0F 03 63 62 
  1359)     17916.4  Rx     00116263  5  01 00 00 63 62 
  1360)     17921.3  Rx     00018E8F  7  01 00 00 0F 03 8F 8E 
  1361)     17921.4  Rx     00118E8F  5  01 00 00 8F 8E 
  1362)     17926.2  Rx     000140AC  7  01 00 00 0F 03 AC 40 
  1363)     17926.4  Rx     001140AC  5  01 00 00 AC 40 
  1364)     17931.3  Rx     0001F2AF  7  01 00 00 0F 03 AF F2 
  1365)     17931.4  Rx     0011F2AF  5  01 00 00 AF F2 
  1366)     17936.3  Rx     00018DAF  7  01 00 00 0F 03 AF 8D 
  1367)     17936.4  Rx     00118DAF  5  01 00 00 AF 8D 
  1368)     17941.3  Rx     00012DBA  7  01 00 00 0F 03 BA 2D 
  1369)     17941.4  Rx     00112DBA  5  01 00 00 BA 2D 
  1370)     17946.3  Rx     00015FF5  7  01 00 00 0F 03 F5 5F 
  1371)     17946.4  Rx     00115FF5  5  01 00 00 F5 5F 
  1372)     17951.2  Rx     00018B80  7  01 00 00 0F 03 80 8B 
  1373)     17951.4  Rx     00118B80  5  01 00 00 80 8B 
  1374)     17956.2  Rx     00010B0C  7  01 00 00 0F 03 0C 0B 
  1375)     17956.4  Rx     00110B0C  5  01 00 00 0C 0B 
  1376)     17961.3  Rx     00018C0E  7  01 00 00 0F 03 0E 8C 
  1377)     17961.4  Rx     00118C0E  5  01 00 00 0E 8C 
  1378)     17966.3  Rx     0001ACF6  7  01 00 00 0F 03 F6 AC 
  1379)     17966.4  Rx     0011ACF6  5  01 00 00 F6 AC 
  1380)     17971.3  Rx     0001BBE9  7  01 00 00 0F 03 E9 BB 
  1381)     17971.4  Rx     0011BBE9  5  01 00 00 E9 BB 
  1382)     17976.3  Rx     00015338  7  01 00 00 0F 03 38 53 
  1383)     17976.4  Rx     00115338  5  01 00 00 38 53 
  1384)     17981.2  Rx     00014562  7  01 00 00 0F 03 62 45 
  1385)     17981.4  Rx     00114562  5  01 00 00 62 45 
  1386)     17986.2  Rx     00012E5B  7  01 00 00 0F 03 5B 2E 
  1387)     17986.4  Rx     00112E5B  5  01 00 00 5B 2E 
  1388)     17991.3  Rx     0001EE60  7  01 00 00 0F 03 60 EE 
  1389)     17991.4  Rx     0011EE60  5  01 00 00 60 EE 
  1390)     17996.3  Rx     0001B466  7  01 00 00 0F 03 66 B4 
  1391)     17996.4  Rx     0011B466  5  01 00 00 66 B4 
  1392)     18001.3  Rx     00011ACF  7  01 00 00 0F 03 CF 1A 
  1393)     18001.4  Rx     00111ACF  5  01 00 00 CF 1A 
  1394)     18006.2  Rx     00012295  7  01 00 00 0F 03 95 22 
  1395)     18006.4  Rx     00112295  5  01 00 00 95 22 
  1396)     18011.2  Rx     00013E99  7  01 00 00 0F 03 99 3E 
  1397)     18011.4  Rx     00113E99  5  01 00 00 99 3E 
  1398)     18016.3  Rx     0001EC55  7  01 00 00 0F 03 55 EC 
  1399)     18016.4  Rx     0011EC55  5  01 00 00 55 EC 
  1400)     18021.3  Rx     0001D2D3  7  01 00 00 0F 03 D3 D2 
  1401)     18021.3  Rx     0011D2D3  5  01 00 00 D3 D2 
  1402)     18026.3  Rx     00011954  7  01 00 00 0F 03 54 19 
  1403)     18026.4  Rx     00111954  5  01 00 00 54 19 
  1404)     18031.2  Rx     0001CC84  7  01 00 00 0F 03 84 CC 
  1405)     18031.4  Rx     0011CC84  5  01 00 00 84 CC 
  1406)     18036.2  Rx     0001A221  7  01 00 00 0F 03 21 A2 
  1407)     18036.4  Rx     0011A221  5  01 00 00 21 A2 
  1408)     18041.2  Rx     0001FC33  7  01 00 00 0F 03 33 FC 
  1409)     18041.4  Rx     0011FC33  5  01 00 00 33 FC 
  1410)     18046.3  Rx     0001FAB4  7  01 00 00 0F 03 B4 FA 
  1411)     18046.4  Rx     0011FAB4  5  01 00 00 B4 FA 
  1412)     18051.3  Rx     00011417  7  01 00 00 0F 03 17 14 
  1413)     18051.3  Rx     00111417  5  01 00 00 17 14 
  1414)     18056.3  Rx     0001FBD7  7  01 00 00 0F 03 D7 FB 
  1415)     18056.4  Rx     0011FBD7  5  01 00 00 D7 FB 
  1416)     18061.2  Rx     0001D3A4  7  01 00 00 0F 03 A4 D3 
  1417)     18061.4  Rx     0011D3A4  5  01 00 00 A4 D3 
  1418)     18066.2  Rx     00011439  7  01 00 00 0F 03 39 14 
  1419)     18066.4  Rx     00111439  5  01 00 00 39 14 
  1420)     18071.3  Rx     000131CC  7  01 00 00 0F 03 CC 31 
  1421)     18071.4  Rx     001131CC  5  01 00 00 CC 31 
  1422)     18076.3  Rx     00013BC9  7  01 00 00 0F 03 C9 3B 
  1423)     18076.3  Rx     00113BC9  5  01 00 00 C9 3B 
  1424)     18081.3  Rx     0001E829  7  01 00 00 0F 03 29 E8 
  1425)     18081.4  Rx     0011E829  5  01 00 00 29 E8 
  1426)     18086.2  Rx     00013B7C  7  01 00 00 0F 03 7C 3B 
  1427)     18086.4  Rx     00113B7C  5  01 00 00 7C 3B 
  1428)     18091.2  Rx     00013BE9  7  01 00 00 0F 03 E9 3B 
  1429)     18091.4  Rx     00113BE9  5  01 00 00 E9 3B 
  1430)     18096.2  Rx     00013DA6  7  01 00 00 0F 03 A6 3D 
  1431)     18096.4  Rx     00113DA6  5  01 00 00 A6 3D 
  1432)     18101.3  Rx     00012E39  7  01 00 00 0F 03 39 2E 
  1433)     18101.3  Rx     00112E39  5  01 00 00 39 2E 
  1434)     18106.3  Rx     0001C2A2  7  01 00 00 0F 03 A2 C2 
  1435)     18106.3  Rx     0011C2A2  5  01 00 00 A2 C2 
  1436)     18111.2  Rx     00019082  7  01 00 00 0F 03 82 90 
  1437)     18111.4  Rx     00119082  5  01 00 00 82 90 
  1438)     18116.2  Rx     00011B48  7  01 00 00 0F 03 48 1B 
  1439)     18116.4  Rx     00111B48  5  01 00 00 48 1B 
  1440)     18121.2  Rx     000189A8  7  01 00 00 0F 03 A8 89 
  1441)     18121.4  Rx     001189A8  5  01 00 00 A8 89 
  1442)     18126.2  Rx     0001A290  7  01 00 00 0F 03 90 A2 
  1443)     18126.4  Rx     0011A290  5  01 00 00 90 A2 
  1444)     18131.3  Rx     0001243E  7  01 00 00 0F 03 3E 24 
  1445)     18131.3  Rx     0011243E  5  01 00 00 3E 24 
  1446)     18136.2  Rx     0001A54C  7  01 00 00 0F 03 4C A5 
  1447)     18136.4  Rx     0011A54C  5  01 00 00 4C A5 
  1448)     18141.2  Rx     0001CE42  7  01 00 00 0F 03 42 CE 
  1449)     18141.4  Rx     0011CE42  5  01 00 00 42 CE 
  1450)     18146.2  Rx     000172DE  7  01 00 00 0F 03 DE 72 
  1451)     18146.4  Rx     001172DE  5  01 00 00 DE 72 
  1452)     18151.2  Rx     0001D9DB  7  01 00 00 0F 03 DB D9 
  1453)     18151.4  Rx     0011D9DB  5  01 00 00 DB D9 
  1454)     18156.3  Rx     00011362  7  01 00 00 0F 03 62 13 
  1455)     18156.3  Rx     00111362  5  01 00 00 62 13 
  1456)     18161.3  Rx     00017336  7  01 00 00 0F 03 36 73 
  1457)     18161.3  Rx     00117336  5  01 00 00 36 73 
  1458)     18166.2  Rx     0001938F  7  01 00 00 0F 03 8F 93 
  1459)     18166.4  Rx     0011938F  5  01 00 00 8F 93 
  1460)     18171.2  Rx     0001BA71  7  01 00 00 0F 03 71 BA 
  1461)     18171.4  Rx     0011BA71  5  01 00 00 71 BA 
  1462)     18176.2  Rx     00016068  7  01 00 00 0F 03 68 60 
  1463)     18176.4  Rx     00116068  5  01 00 00 68 60 
  1464)     18181.2  Rx     00017538  7  01 00 00 0F 03 38 75 
  1465)     18181.3  Rx     00117538  5  01 00 00 38 75 
  1466)     18186.3  Rx     0001247D  7  01 00 00 0F 03 7D 24 
  1467)     18186.3  Rx     0011247D  5  01 00 00 7D 24 
  1468)     18191.2  Rx     00016279  7  01 00 00 0F 03 79 62 
  1469)     18191.3  Rx     00116279  5  01 00 00 79 62 
  1470)     18196.2  Rx     00011638  7  01 00 00 0F 03 38 16 
  1471)     18196.4  Rx     00111638  5  01 00 00 38 16 
  1472)     18201.2  Rx     00012B64  7  01 00 00 0F 03 64 2B 
  1473)     18201.4  Rx     00112B64  5  01 00 00 64 2B 
  1474)     18206.2  Rx     00012A95  7  01 00 00 0F 03 95 2A 
  1475)     18206.3  Rx     00112A95  5  01 00 00 95 2A 
  1476)     18211.2  Rx     0001478C  7  01 00 00 0F 03 8C 47 
  1477)     18211.3  Rx     0011478C  5  01 00 00 8C 47 
  1478)     18216.2  Rx     0001B93B  7  01 00 00 0F 03 3B B9 
  1479)     18216.3  Rx     0011B93B  5  01 00 00 3B B9 
  1480)     18221.2  Rx     0001EEE4  7  01 00 00 0F 03 E4 EE 
  1481)     18221.4  Rx     0011EEE4  5  01 00 00 E4 EE 
  1482)     18226.2  Rx     00018AC7  7  01 00 00 0F 03 C7 8A 
  1483)     18226.4  Rx     00118AC7  5  01 00 00 C7 8A 
  1484)     18231.2  Rx     0001FAEC  7  01 00 00 0F 03 EC FA 
  1485)     18231.4  Rx     0011FAEC  5  01 00 00 EC FA 
  1486)     18236.2  Rx     00015FC5  7  01 00 00 0F 03 C5 5F 
  1487)     18236.3  Rx     00115FC5  5  01 00 00 C5 5F 
  1488)     18241.3  Rx     00012150  7  01 00 00 0F 03 50 21 
  1489)     18241.3  Rx     00112150  5  01 00 00 50 21 
  1490)     18246.2  Rx     00012ABA  7  01 00 00 0F 03 BA 2A 
  1491)     18246.3  Rx     00112ABA  5  01 00 00 BA 2A 
  1492)     18251.2  Rx     00018CC3  7  01 00 00 0F 03 C3 8C 
  1493)     18251.4  Rx     00118CC3  5  01 00 00 C3 8C 
  1494)     18256.2  Rx     00013920  7  01 00 00 0F 03 20 39 
  1495)     18256.4  Rx     00113920  5  01 00 00 20 39 
  1496)     18261.2  Rx     0001DDD7  7  01 00 00 0F 03 D7 DD 
  1497)     18261.3  Rx     0011DDD7  5  01 00 00 D7 DD 
  1498)     18266.3  Rx     00010341  7  01 00 00 0F 03 41 03 
  1499)     18266.3  Rx     00110341  5  01 00 00 41 03 
  1500)     18271.2  Rx     0001D82C  7  01 00 00 0F 03 2C D8 
  1501)     18271.3  Rx     0011D82C  5  01 00 00 2C D8 
  1502)     18276.2  Rx     00013C63  7  01 00 00 0F 03 63 3C 
  1503)     18276.3  Rx     00113C63  5  01 00 00 63 3C 
  1504)     18281.2  Rx     0001C922  7  01 00 00 0F 03 22 C9 
  1505)     18281.4  Rx     0011C922  5  01 00 00 22 C9 
  1506)     18286.2  Rx     00011091  7  01 00 00 0F 03 91 10 
  1507)     18286.3  Rx     00111091  5  01 00 00 91 10 
  1508)     18291.2  Rx     0001C7F5  7  01 00 00 0F 03 F5 C7 
  1509)     18291.3  Rx     0011C7F5  5  01 00 00 F5 C7 
  1510)     18296.2  Rx     0001970B  7  01 00 00 0F 03 0B 97 
  1511)     18296.3  Rx     0011970B  5  01 00 00 0B 97 
  1512)     18301.2  Rx     0001EBF2  7  01 00 00 0F 03 F2 EB 
  1513)     18301.3  Rx     0011EBF2  5  01 00 00 F2 EB 
  1514)     18306.2  Rx     0001982F  7  01 00 00 0F 03 2F 98 
  1515)     18306.4  Rx     0011982F  5  01 00 00 2F 98 
  1516)     18311.2  Rx     0001A821  7  01 00 00 0F 03 21 A8 
  1517)     18311.4  Rx     0011A821  5  01 00 00 21 A8 
  1518)     18316.2  Rx     00014747  7  01 00 00 0F 03 47 47 
  1519)     18316.3  Rx     00114747  5  01 00 00 47 47 
  1520)     18321.2  Rx     0001708F  7  01 00 00 0F 03 8F 70 
  1521)     18321.3  Rx     0011708F  5  01 00 00 8F 70 
  1522)     18326.2  Rx     000108AA  7  01 00 00 0F 03 AA 08 
  1523)     18326.3  Rx     001108AA  5  01 00 00 AA 08 
  1524)     18331.2  Rx     00018C2E  7  01 00 00 0F 03 2E 8C 
  1525)     18331.3  Rx     00118C2E  5  01 00 00 2E 8C 
  1526)     18336.2  Rx     0001B211  7  01 00 00 0F 03 11 B2 
  1527)     18336.4  Rx     0011B211  5  01 00 00 11 B2 
  1528)     18341.2  Rx     00019AE0  7  01 00 00 0F 03 E0 9A 
  1529)     18341.3  Rx     00119AE0  5  01 00 00 E0 9A 
  1530)     18346.2  Rx     00011B0C  7  01 00 00 0F 03 0C 1B 
  1531)     18346.3  Rx     00111B0C  5  01 00 00 0C 1B 
  1532)     18351.2  Rx     0001861B  7  01 00 00 0F 03 1B 86 
  1533)     18351.3  Rx     0011861B  5  01 00 00 1B 86 
  1534)     18356.2  Rx     00013101  7  01 00 00 0F 03 01 31 
  1535)     18356.3  Rx     00113101  5  01 00 00 01 31 
  1536)     18361.2  Rx     00016759  7  01 00 00 0F 03 59 67 
  1537)     18361.3  Rx     00116759  5  01 00 00 59 67 
  1538)     18366.2  Rx     0001E611  7  01 00 00 0F 03 11 E6 
  1539)     18366.3  Rx     0011E611  5  01 00 00 11 E6 
  1540)     18371.2  Rx     0001FE28  7  01 00 00 0F 03 28 FE 
  1541)     18371.3  Rx     0011FE28  5  01 00 00 28 FE 
  1542)     18376.2  Rx     00019FE0  7  01 00 00 0F 03 E0 9F 
  1543)     18376.3  Rx     00119FE0  5  01 00 00 E0 9F 
  1544)     18381.2  Rx     00017098  7  01 00 00 0F 03 98 70 
  1545)     18381.3  Rx     00117098  5  01 00 00 98 70 
  1546)     18386.2  Rx     0001EF14  7  01 00 00 0F 03 14 EF 
  1547)     18386.3  Rx     0011EF14  5  01 00 00 14 EF 
  1548)     18391.2  Rx     0001FF5A  7  01 00 00 0F 03 5A FF 
  1549)     18391.3  Rx     0011FF5A  5  01 00 00 5A FF 
  1550)     18396.2  Rx     0001EDFE  7  01 00 00 0F 03 FE ED 
  1551)     18396.3  Rx     0011EDFE  5  01 00 00 FE ED 
  1552)     18401.2  Rx     0001D7CC  7  01 00 00 0F 03 CC D7 
  1553)     18401.3  Rx     0011D7CC  5  01 00 00 CC D7 
  1554)     18406.2  Rx     00012CCC  7  01 00 00 0F 03 CC 2C 
  1555)     18406.3  Rx     00112CCC  5  01 00 00 CC 2C 
  1556)     18411.2  Rx     00018CC5  7  01 00 00 0F 03 C5 8C 
  1557)     18411.3  Rx     00118CC5  5  01 00 00 C5 8C 
  1558)     18416.2  Rx     0001A743  7  01 00 00 0F 03 43 A7 
  1559)     18416.3  Rx     0011A743  5  01 00 00 43 A7 
  1560)     18421.2  Rx     0001DFDC  7  01 00 00 0F 03 DC DF 
  1561)     18421.3  Rx     0011DFDC  5  01 00 00 DC DF 
  1562)     18426.2  Rx     000137BB  7  01 00 00 0F 03 BB 37 
  1563)     18426.3  Rx     001137BB  5  01 00 00 BB 37 
  1564)     18431.2  Rx     00010388  7  01 00 00 0F 03 88 03 
  1565)     18431.3  Rx     00110388  5  01 00 00 88 03 
  1566)     18436.2  Rx     00019506  7  01 00 00 0F 03 06 95 
  1567)     18436.3  Rx     00119506  5  01 00 00 06 95 
  1568)     18441.2  Rx     0001EB43  7  01 00 00 0F 03 43 EB 
  1569)     18441.3  Rx     0011EB43  5  01 00 00 43 EB 
  1570)     18446.2  Rx     00012061  7  01 00 00 0F 03 61 20 
  1571)     18446.3  Rx     00112061  5  01 00 00 61 20 
  1572)     18451.2  Rx     00013996  7  01 00 00 0F 03 96 39 
  1573)     18451.3  Rx     00113996  5  01 00 00 96 39 
  1574)     18456.2  Rx     00013A9F  7  01 00 00 0F 03 9F 3A 
  1575)     18456.3  Rx     00113A9F  5  01 00 00 9F 3A 
  1576)     18461.2  Rx     00013CBC  7  01 00 00 0F 03 BC 3C 
  1577)     18461.3  Rx     00113CBC  5  01 00 00 BC 3C 
  1578)     18466.2  Rx     0001C333  7  01 00 00 0F 03 33 C3 
  1579)     18466.3  Rx     0011C333  5  01 00 00 33 C3 
  1580)     18471.2  Rx     0001013A  7  01 00 00 0F 03 3A 01 
  1581)     18471.3  Rx     0011013A  5  01 00 00 3A 01 
  1582)     18476.2  Rx     000175BD  7  01 00 00 0F 03 BD 75 
  1583)     18476.3  Rx     001175BD  5  01 00 00 BD 75 
  1584)     18481.2  Rx     0001BEA1  7  01 00 00 0F 03 A1 BE 
  1585)     18481.3  Rx     0011BEA1  5  01 00 00 A1 BE 
  1586)     18486.2  Rx     0001A24E  7  01 00 00 0F 03 4E A2 
  1587)     18486.3  Rx     0011A24E  5  01 00 00 4E A2 
  1588)     18491.2  Rx     00016158  7  01 00 00 0F 03 58 61 
  1589)     18491.3  Rx     00116158  5  01 00 00 58 61 
  1590)     18496.2  Rx     00010278  7  01 00 00 0F 03 78 02 
  1591)     18496.3  Rx     00110278  5  01 00 00 78 02 
  1592)     18501.2  Rx     0001DD13  7  01 00 00 0F 03 13 DD 
  1593)     18501.3  Rx     0011DD13  5  01 00 00 13 DD 
  1594)     18506.2  Rx     000114EA  7  01 00 00 0F 03 EA 14 
  1595)     18506.3  Rx     001114EA  5  01 00 00 EA 14 
  1596)     18511.2  Rx     0001DE73  7  01 00 00 0F 03 73 DE 
  1597)     18511.3  Rx     0011DE73  5  01 00 00 73 DE 
  1598)     18516.2  Rx     00010F26  7  01 00 00 0F 03 26 0F 
  1599)     18516.3  Rx     00110F26  5  01 00 00 26 0F 
  1600)     18521.2  Rx     000152D9  7  01 00 00 0F 03 D9 52 
  1601)     18521.3  Rx     001152D9  5  01 00 00 D9 52 
  1602)     18526.2  Rx     00014C90  7  01 00 00 0F 03 90 4C 
  1603)     18526.3  Rx     00114C90  5  01 00 00 90 4C 
  1604)     18531.2  Rx     0001D471  7  01 00 00 0F 03 71 D4 
  1605)     18531.3  Rx     0011D471  5  01 00 00 71 D4 
  1606)     18536.2  Rx     0001CFED  7  01 00 00 0F 03 ED CF 
  1607)     18536.3  Rx     0011CFED  5  01 00 00 ED CF 
  1608)     18541.2  Rx     0001F908  7  01 00 00 0F 03 08 F9 
  1609)     18541.3  Rx     0011F908  5  01 00 00 08 F9 
  1610)     18546.2  Rx     0001600A  7  01 00 00 0F 03 0A 60 
  1611)     18546.3  Rx     0011600A  5  01 00 00 0A 60 
  1612)     18551.2  Rx     0001D520  7  01 00 00 0F 03 20 D5 
  1613)     18551.3  Rx     0011D520  5  01 00 00 20 D5 
  1614)     18556.2  Rx     0001061B  7  01 00 00 0F 03 1B 06 
  1615)     18556.3  Rx     0011061B  5  01 00 00 1B 06 
  1616)     18561.2  Rx     0001A167  7  01 00 00 0F 03 67 A1 
  1617)     18561.3  Rx     0011A167  5  01 00 00 67 A1 
  1618)     18566.2  Rx     0001681D  7  01 00 00 0F 03 1D 68 
  1619)     18566.3  Rx     0011681D  5  01 00 00 1D 68 
  1620)     18571.2  Rx     0001DB77  7  01 00 00 0F 03 77 DB 
  1621)     18571.3  Rx     0011DB77  5  01 00 00 77 DB 
  1622)     18576.2  Rx     0001A338  7  01 00 00 0F 03 38 A3 
  1623)     18576.3  Rx     0011A338  5  01 00 00 38 A3 
  1624)     18581.2  Rx     0001CB8F  7  01 00 00 0F 03 8F CB 
  1625)     18581.3  Rx     0011CB8F  5  01 00 00 8F CB 
  1626)     18586.2  Rx     000181F7  7  01 00 00 0F 03 F7 81 
  1627)     18586.3  Rx     001181F7  5  01 00 00 F7 81 
  1628)     18591.2  Rx     0001AB9D  7  01 00 00 0F 03 9D AB 
  1629)     18591.3  Rx     0011AB9D  5  01 00 00 9D AB 
  1630)     18596.2  Rx     00013FD7  7  01 00 00 0F 03 D7 3F 
  1631)     18596.3  Rx     00113FD7  5  01 00 00 D7 3F 
