;$FILEVERSION=1.1
;$STARTTIME=46290.6096868866
;
;   Start time: 25/09/2026 14:37:56.947.0
;   Generated by PCAN-View v5.3.3.958
;
;   Message Number
;   |         Time Offset (ms)
;   |         |        Type
;   |         |        |        ID (hex)
;   |         |        |        |     Data Length
;   |         |        |        |     |   Data Bytes (hex) ...
;   |         |        |        |     |   |
;---+--   ----+----  --+--  ----+---  +  -+ -- -- -- -- -- -- --
     1)      6815.9  Rx     0001DF9D  7  01 00 00 0F 00 9D DF 
     2)      6816.0  Rx     0011DF9D  5  01 00 00 9D DF 
     3)      6820.9  Rx     0001A88A  7  01 00 00 0F 03 8A A8 
     4)      6821.0  Rx     0011A88A  5  01 00 00 8A A8 
     5)      6825.9  Rx     000112C9  7  01 00 00 0F 03 C9 12 
     6)      6826.0  Rx     001112C9  5  01 00 00 C9 12 
     7)      6830.9  Rx     0001D66C  7  01 00 00 0F 03 6C D6 
     8)      6831.0  Rx     0011D66C  5  01 00 00 6C D6 
     9)      6835.9  Rx     00012C85  7  01 00 00 0F 03 85 2C 
    10)      6836.0  Rx     00112C85  5  01 00 00 85 2C 
    11)      6840.9  Rx     00015AF5  7  01 00 00 0F 03 F5 5A 
    12)      6841.0  Rx     00115AF5  5  01 00 00 F5 5A 
    13)      6845.9  Rx     0001C552  7  01 00 00 0F 03 52 C5 
    14)      6846.0  Rx     0011C552  5  01 00 00 52 C5 
    15)      6850.9  Rx     000191B4  7  01 00 00 0F 03 B4 91 
    16)      6851.0  Rx     001191B4  5  01 00 00 B4 91 
    17)      6855.9  Rx     00017D95  7  01 00 00 0F 03 95 7D 
    18)      6856.0  Rx     00117D95  5  01 00 00 95 7D 
    19)      6860.9  Rx     00013397  7  01 00 00 0F 03 97 33 
    20)      6861.0  Rx     00113397  5  01 00 00 97 33 
    21)      6865.9  Rx     00019F1E  7  01 00 00 0F 03 1E 9F 
    22)      6866.0  Rx     00119F1E  5  01 00 00 1E 9F 
    23)      6870.9  Rx     0001E916  7  01 00 00 0F 03 16 E9 
    24)      6871.0  Rx     0011E916  5  01 00 00 16 E9 
    25)      6875.9  Rx     0001A963  7  01 00 00 0F 03 63 A9 
    26)      6876.0  Rx     0011A963  5  01 00 00 63 A9 
    27)      6880.9  Rx     00011E11  7  01 00 00 0F 03 11 1E 
    28)      6881.0  Rx     00111E11  5  01 00 00 11 1E 
    29)      6885.9  Rx     0001E6F2  7  01 00 00 0F 03 F2 E6 
    30)      6886.0  Rx     0011E6F2  5  01 00 00 F2 E6 
    31)      6890.9  Rx     0001D19B  7  01 00 00 0F 03 9B D1 
    32)      6891.0  Rx     0011D19B  5  01 00 00 9B D1 
    33)      6895.9  Rx     0001165C  7  01 00 00 0F 03 5C 16 
    34)      6896.0  Rx     0011165C  5  01 00 00 5C 16 
    35)      6900.9  Rx     00010A8B  7  01 00 00 0F 03 8B 0A 
    36)      6901.0  Rx     00110A8B  5  01 00 00 8B 0A 
    37)      6905.9  Rx     00018AB0  7  01 00 00 0F 03 B0 8A 
    38)      6906.0  Rx     00118AB0  5  01 00 00 B0 8A 
    39)      6910.9  Rx     00017E7F  7  01 00 00 0F 03 7F 7E 
    40)      6911.0  Rx     00117E7F  5  01 00 00 7F 7E 
    41)      6915.9  Rx     0001A73A  7  01 00 00 0F 03 3A A7 
    42)      6916.0  Rx     0011A73A  5  01 00 00 3A A7 
    43)      6920.9  Rx     00011FBE  7  01 00 00 0F 03 BE 1F 
    44)      6921.0  Rx     00111FBE  5  01 00 00 BE 1F 
    45)      6925.9  Rx     0001B427  7  01 00 00 0F 03 27 B4 
    46)      6926.0  Rx     0011B427  5  01 00 00 27 B4 
    47)      6930.9  Rx     00012317  7  01 00 00 0F 03 17 23 
    48)      6931.0  Rx     00112317  5  01 00 00 17 23 
    49)      6935.9  Rx     0001DD36  7  01 00 00 0F 03 36 DD 
    50)      6936.0  Rx     0011DD36  5  01 00 00 36 DD 
    51)      6940.9  Rx     00011DB4  7  01 00 00 0F 03 B4 1D 
    52)      6941.0  Rx     00111DB4  5  01 00 00 B4 1D 
    53)      6945.9  Rx     00014DA6  7  01 00 00 0F 03 A6 4D 
    54)      6946.0  Rx     00114DA6  5  01 00 00 A6 4D 
    55)      6950.9  Rx     0001EB76  7  01 00 00 0F 03 76 EB 
    56)      6951.0  Rx     0011EB76  5  01 00 00 76 EB 
    57)      6955.9  Rx     0001EBFD  7  01 00 00 0F 03 FD EB 
    58)      6956.0  Rx     0011EBFD  5  01 00 00 FD EB 
    59)      6960.9  Rx     0001BD51  7  01 00 00 0F 03 51 BD 
    60)      6961.0  Rx     0011BD51  5  01 00 00 51 BD 
    61)      6965.9  Rx     00018A55  7  01 00 00 0F 03 55 8A 
    62)      6966.0  Rx     00118A55  5  01 00 00 55 8A 
    63)      6970.9  Rx     000197CD  7  01 00 00 0F 03 CD 97 
    64)      6971.0  Rx     001197CD  5  01 00 00 CD 97 
    65)      6975.9  Rx     0001BB63  7  01 00 00 0F 03 63 BB 
    66)      6976.0  Rx     0011BB63  5  01 00 00 63 BB 
    67)      6980.9  Rx     0001D890  7  01 00 00 0F 03 90 D8 
    68)      6981.0  Rx     0011D890  5  01 00 00 90 D8 
    69)      6985.9  Rx     00018A43  7  01 00 00 0F 03 43 8A 
    70)      6986.0  Rx     00118A43  5  01 00 00 43 8A 
    71)      6990.9  Rx     00017E96  7  01 00 00 0F 03 96 7E 
    72)      6991.0  Rx     00117E96  5  01 00 00 96 7E 
    73)      6995.9  Rx     000102D9  7  01 00 00 0F 03 D9 02 
    74)      6996.0  Rx     001102D9  5  01 00 00 D9 02 
    75)      7000.9  Rx     0001DF8D  7  01 00 00 0F 03 8D DF 
    76)      7001.0  Rx     0011DF8D  5  01 00 00 8D DF 
    77)      7005.9  Rx     0001DE3F  7  01 00 00 0F 03 3F DE 
    78)      7006.0  Rx     0011DE3F  5  01 00 00 3F DE 
    79)      7010.9  Rx     0001356F  7  01 00 00 0F 03 6F 35 
    80)      7011.0  Rx     0011356F  5  01 00 00 6F 35 
    81)      7015.9  Rx     00014A9E  7  01 00 00 0F 03 9E 4A 
    82)      7016.0  Rx     00114A9E  5  01 00 00 9E 4A 
    83)      7020.9  Rx     00010A46  7  01 00 00 0F 03 46 0A 
    84)      7021.0  Rx     00110A46  5  01 00 00 46 0A 
    85)      7025.9  Rx     00011766  7  01 00 00 0F 03 66 17 
    86)      7026.0  Rx     00111766  5  01 00 00 66 17 
    87)      7030.9  Rx     000178C6  7  01 00 00 0F 03 C6 78 
    88)      7031.0  Rx     001178C6  5  01 00 00 C6 78 
    89)      7035.9  Rx     000112B7  7  01 00 00 0F 03 B7 12 
    90)      7036.0  Rx     001112B7  5  01 00 00 B7 12 
    91)      7040.9  Rx     0001C71F  7  01 00 00 0F 03 1F C7 
    92)      7041.0  Rx     0011C71F  5  01 00 00 1F C7 
    93)      7045.9  Rx     00015A7F  7  01 00 00 0F 03 7F 5A 
    94)      7046.0  Rx     00115A7F  5  01 00 00 7F 5A 
    95)      7050.9  Rx     0001F638  7  01 00 00 0F 03 38 F6 
    96)      7051.0  Rx     0011F638  5  01 00 00 38 F6 
    97)      7055.9  Rx     0001D39E  7  01 00 00 0F 03 9E D3 
    98)      7056.0  Rx     0011D39E  5  01 00 00 9E D3 
    99)      7060.9  Rx     0001F22A  7  01 00 00 0F 03 2A F2 
   100)      7061.0  Rx     0011F22A  5  01 00 00 2A F2 
   101)      7065.9  Rx     0001F309  7  01 00 00 0F 03 09 F3 
   102)      7066.0  Rx     0011F309  5  01 00 00 09 F3 
   103)      7070.9  Rx     00010DB9  7  01 00 00 0F 03 B9 0D 
   104)      7071.0  Rx     00110DB9  5  01 00 00 B9 0D 
   105)      7075.9  Rx     000104BC  7  01 00 00 0F 03 BC 04 
   106)      7076.0  Rx     001104BC  5  01 00 00 BC 04 
   107)      7080.8  Rx     00013123  7  01 00 00 0F 03 23 31 
   108)      7081.0  Rx     00113123  5  01 00 00 23 31 
   109)      7085.9  Rx     0001DA0F  7  01 00 00 0F 03 0F DA 
   110)      7086.0  Rx     0011DA0F  5  01 00 00 0F DA 
   111)      7090.9  Rx     0001BD73  7  01 00 00 0F 03 73 BD 
   112)      7091.0  Rx     0011BD73  5  01 00 00 73 BD 
   113)      7095.9  Rx     00014898  7  01 00 00 0F 03 98 48 
   114)      7096.0  Rx     00114898  5  01 00 00 98 48 
   115)      7100.9  Rx     0001443D  7  01 00 00 0F 03 3D 44 
   116)      7101.0  Rx     0011443D  5  01 00 00 3D 44 
   117)      7105.8  Rx     000154C2  7  01 00 00 0F 03 C2 54 
   118)      7106.0  Rx     001154C2  5  01 00 00 C2 54 
   119)      7110.9  Rx     0001586F  7  01 00 00 0F 03 6F 58 
   120)      7111.0  Rx     0011586F  5  01 00 00 6F 58 
   121)      7115.9  Rx     00016ACC  7  01 00 00 0F 03 CC 6A 
   122)      7116.0  Rx     00116ACC  5  01 00 00 CC 6A 
   123)      7120.9  Rx     00014F9E  7  01 00 00 0F 03 9E 4F 
   124)      7121.0  Rx     00114F9E  5  01 00 00 9E 4F 
   125)      7125.9  Rx     000172C4  7  01 00 00 0F 03 C4 72 
   126)      7126.0  Rx     001172C4  5  01 00 00 C4 72 
   127)      7130.8  Rx     000163F4  7  01 00 00 0F 03 F4 63 
   128)      7131.0  Rx     001163F4  5  01 00 00 F4 63 
   129)      7135.8  Rx     00015FBB  7  01 00 00 0F 03 BB 5F 
   130)      7136.0  Rx     00115FBB  5  01 00 00 BB 5F 
   131)      7140.9  Rx     000125AA  7  01 00 00 0F 03 AA 25 
   132)      7141.0  Rx     001125AA  5  01 00 00 AA 25 
   133)      7145.9  Rx     0001A444  7  01 00 00 0F 03 44 A4 
   134)      7146.0  Rx     0011A444  5  01 00 00 44 A4 
   135)      7150.9  Rx     000167B2  7  01 00 00 0F 03 B2 67 
   136)      7151.0  Rx     001167B2  5  01 00 00 B2 67 
   137)      7155.9  Rx     00017A03  7  01 00 00 0F 03 03 7A 
   138)      7156.0  Rx     00117A03  5  01 00 00 03 7A 
   139)      7160.8  Rx     0001B202  7  01 00 00 0F 03 02 B2 
   140)      7161.0  Rx     0011B202  5  01 00 00 02 B2 
   141)      7165.9  Rx     000157CE  7  01 00 00 0F 03 CE 57 
   142)      7166.0  Rx     001157CE  5  01 00 00 CE 57 
   143)      7170.9  Rx     0001AC9D  7  01 00 00 0F 03 9D AC 
   144)      7171.0  Rx     0011AC9D  5  01 00 00 9D AC 
   145)      7175.9  Rx     000161B2  7  01 00 00 0F 03 B2 61 
   146)      7176.0  Rx     001161B2  5  01 00 00 B2 61 
   147)      7180.9  Rx     0001254A  7  01 00 00 0F 03 4A 25 
   148)      7181.0  Rx     0011254A  5  01 00 00 4A 25 
   149)      7185.8  Rx     000173DE  7  01 00 00 0F 03 DE 73 
   150)      7186.0  Rx     001173DE  5  01 00 00 DE 73 
   151)      7190.8  Rx     0001329A  7  01 00 00 0F 03 9A 32 
   152)      7191.0  Rx     0011329A  5  01 00 00 9A 32 
   153)      7195.9  Rx     00012D3B  7  01 00 00 0F 03 3B 2D 
   154)      7196.0  Rx     00112D3B  5  01 00 00 3B 2D 
   155)      7200.9  Rx     000165AD  7  01 00 00 0F 03 AD 65 
   156)      7201.0  Rx     001165AD  5  01 00 00 AD 65 
   157)      7205.9  Rx     0001F839  7  01 00 00 0F 03 39 F8 
   158)      7206.0  Rx     0011F839  5  01 00 00 39 F8 
   159)      7210.8  Rx     000150DB  7  01 00 00 0F 03 DB 50 
   160)      7211.0  Rx     001150DB  5  01 00 00 DB 50 
   161)      7215.8  Rx     00016026  7  01 00 00 0F 03 26 60 
   162)      7216.0  Rx     00116026  5  01 00 00 26 60 
   163)      7220.8  Rx     00014821  7  01 00 00 0F 03 21 48 
   164)      7221.0  Rx     00114821  5  01 00 00 21 48 
   165)      7225.9  Rx     000186FB  7  01 00 00 0F 03 FB 86 
   166)      7226.0  Rx     001186FB  5  01 00 00 FB 86 
   167)      7230.9  Rx     0001B109  7  01 00 00 0F 03 09 B1 
   168)      7230.9  Rx     0011B109  5  01 00 00 09 B1 
   169)      7235.9  Rx     00012389  7  01 00 00 0F 03 89 23 
   170)      7236.0  Rx     00112389  5  01 00 00 89 23 
   171)      7240.8  Rx     0001EA6A  7  01 00 00 0F 03 6A EA 
   172)      7241.0  Rx     0011EA6A  5  01 00 00 6A EA 
   173)      7245.8  Rx     0001F16F  7  01 00 00 0F 03 6F F1 
   174)      7246.0  Rx     0011F16F  5  01 00 00 6F F1 
   175)      7250.9  Rx     0001F926  7  01 00 00 0F 03 26 F9 
   176)      7251.0  Rx     0011F926  5  01 00 00 26 F9 
   177)      7255.9  Rx     00011439  7  01 00 00 0F 03 39 14 
   178)      7255.9  Rx     00111439  5  01 00 00 39 14 
   179)      7260.9  Rx     000101DF  7  01 00 00 0F 03 DF 01 
   180)      7261.0  Rx     001101DF  5  01 00 00 DF 01 
   181)      7265.8  Rx     0001D0A1  7  01 00 00 0F 03 A1 D0 
   182)      7266.0  Rx     0011D0A1  5  01 00 00 A1 D0 
   183)      7270.8  Rx     0001BC30  7  01 00 00 0F 03 30 BC 
   184)      7271.0  Rx     0011BC30  5  01 00 00 30 BC 
   185)      7275.8  Rx     0001A6BF  7  01 00 00 0F 03 BF A6 
   186)      7276.0  Rx     0011A6BF  5  01 00 00 BF A6 
   187)      7280.9  Rx     000126EE  7  01 00 00 0F 03 EE 26 
   188)      7280.9  Rx     001126EE  5  01 00 00 EE 26 
   189)      7285.9  Rx     000111B4  7  01 00 00 0F 03 B4 11 
   190)      7285.9  Rx     001111B4  5  01 00 00 B4 11 
   191)      7290.8  Rx     00013985  7  01 00 00 0F 03 85 39 
   192)      7291.0  Rx     00113985  5  01 00 00 85 39 
   193)      7295.8  Rx     0001E50C  7  01 00 00 0F 03 0C E5 
   194)      7296.0  Rx     0011E50C  5  01 00 00 0C E5 
   195)      7300.8  Rx     00012D60  7  01 00 00 0F 03 60 2D 
   196)      7301.0  Rx     00112D60  5  01 00 00 60 2D 
   197)      7305.9  Rx     00017DF3  7  01 00 00 0F 03 F3 7D 
   198)      7306.0  Rx     00117DF3  5  01 00 00 F3 7D 
   199)      7310.9  Rx     00012709  7  01 00 00 0F 03 09 27 
   200)      7310.9  Rx     00112709  5  01 00 00 09 27 
   201)      7315.8  Rx     0001BDEC  7  01 00 00 0F 03 EC BD 
   202)      7316.0  Rx     0011BDEC  5  01 00 00 EC BD 
   203)      7320.8  Rx     0001715C  7  01 00 00 0F 03 5C 71 
   204)      7321.0  Rx     0011715C  5  01 00 00 5C 71 
   205)      7325.8  Rx     000152A8  7  01 00 00 0F 03 A8 52 
   206)      7326.0  Rx     001152A8  5  01 00 00 A8 52 
   207)      7330.8  Rx     00019608  7  01 00 00 0F 03 08 96 
   208)      7331.0  Rx     00119608  5  01 00 00 08 96 
   209)      7335.9  Rx     0001EA3A  7  01 00 00 0F 03 3A EA 
   210)      7335.9  Rx     0011EA3A  5  01 00 00 3A EA 
   211)      7340.9  Rx     0001252D  7  01 00 00 0F 03 2D 25 
   212)      7340.9  Rx     0011252D  5  01 00 00 2D 25 
   213)      7345.8  Rx     0001D8AF  7  01 00 00 0F 03 AF D8 
   214)      7346.0  Rx     0011D8AF  5  01 00 00 AF D8 
   215)      7350.8  Rx     0001AEDB  7  01 00 00 0F 03 DB AE 
   216)      7351.0  Rx     0011AEDB  5  01 00 00 DB AE 
   217)      7355.8  Rx     000117D7  7  01 00 00 0F 03 D7 17 
   218)      7356.0  Rx     001117D7  5  01 00 00 D7 17 
   219)      7360.9  Rx     00019FC2  7  01 00 00 0F 03 C2 9F 
   220)      7360.9  Rx     00119FC2  5  01 00 00 C2 9F 
   221)      7365.9  Rx     0001E3C8  7  01 00 00 0F 03 C8 E3 
   222)      7365.9  Rx     0011E3C8  5  01 00 00 C8 E3 
   223)      7370.8  Rx     00018B4B  7  01 00 00 0F 03 4B 8B 
   224)      7370.9  Rx     00118B4B  5  01 00 00 4B 8B 
   225)      7375.8  Rx     0001EA5B  7  01 00 00 0F 03 5B EA 
   226)      7376.0  Rx     0011EA5B  5  01 00 00 5B EA 
   227)      7380.8  Rx     0001ABF8  7  01 00 00 0F 03 F8 AB 
   228)      7381.0  Rx     0011ABF8  5  01 00 00 F8 AB 
   229)      7385.8  Rx     000169B0  7  01 00 00 0F 03 B0 69 
   230)      7385.9  Rx     001169B0  5  01 00 00 B0 69 
   231)      7390.9  Rx     0001FFB9  7  01 00 00 0F 03 B9 FF 
   232)      7390.9  Rx     0011FFB9  5  01 00 00 B9 FF 
   233)      7395.8  Rx     00011188  7  01 00 00 0F 03 88 11 
   234)      7395.9  Rx     00111188  5  01 00 00 88 11 
   235)      7400.8  Rx     0001E09A  7  01 00 00 0F 03 9A E0 
   236)      7401.0  Rx     0011E09A  5  01 00 00 9A E0 
   237)      7405.8  Rx     00011CEE  7  01 00 00 0F 03 EE 1C 
   238)      7406.0  Rx     00111CEE  5  01 00 00 EE 1C 
   239)      7410.8  Rx     000176FA  7  01 00 00 0F 03 FA 76 
   240)      7411.0  Rx     001176FA  5  01 00 00 FA 76 
   241)      7415.8  Rx     00015D82  7  01 00 00 0F 03 82 5D 
   242)      7415.9  Rx     00115D82  5  01 00 00 82 5D 
   243)      7420.9  Rx     0001ED24  7  01 00 00 0F 03 24 ED 
   244)      7420.9  Rx     0011ED24  5  01 00 00 24 ED 
   245)      7425.8  Rx     0001E76C  7  01 00 00 0F 03 6C E7 
   246)      7425.9  Rx     0011E76C  5  01 00 00 6C E7 
   247)      7430.8  Rx     0001B902  7  01 00 00 0F 03 02 B9 
   248)      7431.0  Rx     0011B902  5  01 00 00 02 B9 
   249)      7435.8  Rx     0001C0BF  7  01 00 00 0F 03 BF C0 
   250)      7436.0  Rx     0011C0BF  5  01 00 00 BF C0 
   251)      7440.8  Rx     0001E74A  7  01 00 00 0F 03 4A E7 
   252)      7440.9  Rx     0011E74A  5  01 00 00 4A E7 
   253)      7445.8  Rx     00018CCC  7  01 00 00 0F 03 CC 8C 
   254)      7445.9  Rx     00118CCC  5  01 00 00 CC 8C 
   255)      7450.8  Rx     0001B447  7  01 00 00 0F 03 47 B4 
   256)      7450.9  Rx     0011B447  5  01 00 00 47 B4 
   257)      7455.8  Rx     000173BF  7  01 00 00 0F 03 BF 73 
   258)      7456.0  Rx     001173BF  5  01 00 00 BF 73 
   259)      7460.8  Rx     0001913B  7  01 00 00 0F 03 3B 91 
   260)      7461.0  Rx     0011913B  5  01 00 00 3B 91 
   261)      7465.8  Rx     00013077  7  01 00 00 0F 03 77 30 
   262)      7465.9  Rx     00113077  5  01 00 00 77 30 
   263)      7470.8  Rx     000169E2  7  01 00 00 0F 03 E2 69 
   264)      7470.9  Rx     001169E2  5  01 00 00 E2 69 
   265)      7475.8  Rx     0001E67B  7  01 00 00 0F 03 7B E6 
   266)      7475.9  Rx     0011E67B  5  01 00 00 7B E6 
   267)      7480.8  Rx     0001C4A4  7  01 00 00 0F 03 A4 C4 
   268)      7480.9  Rx     0011C4A4  5  01 00 00 A4 C4 
   269)      7485.8  Rx     0001F375  7  01 00 00 0F 03 75 F3 
   270)      7486.0  Rx     0011F375  5  01 00 00 75 F3 
   271)      7490.8  Rx     00019076  7  01 00 00 0F 03 76 90 
   272)      7491.0  Rx     00119076  5  01 00 00 76 90 
   273)      7495.8  Rx     0001FB9D  7  01 00 00 0F 03 9D FB 
   274)      7495.9  Rx     0011FB9D  5  01 00 00 9D FB 
   275)      7500.8  Rx     0001AA75  7  01 00 00 0F 03 75 AA 
   276)      7500.9  Rx     0011AA75  5  01 00 00 75 AA 
   277)      7505.8  Rx     000165FF  7  01 00 00 0F 03 FF 65 
   278)      7505.9  Rx     001165FF  5  01 00 00 FF 65 
   279)      7510.8  Rx     00018DD0  7  01 00 00 0F 03 D0 8D 
   280)      7511.0  Rx     00118DD0  5  01 00 00 D0 8D 
   281)      7515.8  Rx     0001F174  7  01 00 00 0F 03 74 F1 
   282)      7516.0  Rx     0011F174  5  01 00 00 74 F1 
   283)      7520.8  Rx     00010F66  7  01 00 00 0F 03 66 0F 
   284)      7520.9  Rx     00110F66  5  01 00 00 66 0F 
   285)      7525.8  Rx     000134D4  7  01 00 00 0F 03 D4 34 
   286)      7525.9  Rx     001134D4  5  01 00 00 D4 34 
   287)      7530.8  Rx     00013B52  7  01 00 00 0F 03 52 3B 
   288)      7530.9  Rx     00113B52  5  01 00 00 52 3B 
   289)      7535.8  Rx     000180A5  7  01 00 00 0F 03 A5 80 
   290)      7535.9  Rx     001180A5  5  01 00 00 A5 80 
   291)      7540.8  Rx     0001B938  7  01 00 00 0F 03 38 B9 
   292)      7540.9  Rx     0011B938  5  01 00 00 38 B9 
   293)      7545.8  Rx     0001BE4E  7  01 00 00 0F 03 4E BE 
   294)      7545.9  Rx     0011BE4E  5  01 00 00 4E BE 
   295)      7550.8  Rx     0001990F  7  01 00 00 0F 03 0F 99 
   296)      7550.9  Rx     0011990F  5  01 00 00 0F 99 
   297)      7555.8  Rx     0001FCA1  7  01 00 00 0F 03 A1 FC 
   298)      7555.9  Rx     0011FCA1  5  01 00 00 A1 FC 
   299)      7560.8  Rx     0001B4BB  7  01 00 00 0F 03 BB B4 
   300)      7560.9  Rx     0011B4BB  5  01 00 00 BB B4 
   301)      7565.8  Rx     00017B33  7  01 00 00 0F 03 33 7B 
   302)      7565.9  Rx     00117B33  5  01 00 00 33 7B 
   303)      7570.8  Rx     0001D7B5  7  01 00 00 0F 03 B5 D7 
   304)      7570.9  Rx     0011D7B5  5  01 00 00 B5 D7 
   305)      7575.8  Rx     000141DA  7  01 00 00 0F 03 DA 41 
   306)      7575.9  Rx     001141DA  5  01 00 00 DA 41 
   307)      7580.8  Rx     0001AC93  7  01 00 00 0F 03 93 AC 
   308)      7580.9  Rx     0011AC93  5  01 00 00 93 AC 
   309)      7585.8  Rx     0001B34C  7  01 00 00 0F 03 4C B3 
   310)      7585.9  Rx     0011B34C  5  01 00 00 4C B3 
   311)      7590.8  Rx     0001E92D  7  01 00 00 0F 03 2D E9 
   312)      7590.9  Rx     0011E92D  5  01 00 00 2D E9 
   313)      7595.8  Rx     0001E1B3  7  01 00 00 0F 03 B3 E1 
   314)      7596.0  Rx     0011E1B3  5  01 00 00 B3 E1 
   315)      7600.8  Rx     00012CB8  7  01 00 00 0F 03 B8 2C 
   316)      7600.9  Rx     00112CB8  5  01 00 00 B8 2C 
   317)      7605.8  Rx     000101B6  7  01 00 00 0F 03 B6 01 
   318)      7605.9  Rx     001101B6  5  01 00 00 B6 01 
   319)      7610.8  Rx     00018003  7  01 00 00 0F 03 03 80 
   320)      7610.9  Rx     00118003  5  01 00 00 03 80 
   321)      7615.8  Rx     0001203B  7  01 00 00 0F 03 3B 20 
   322)      7615.9  Rx     0011203B  5  01 00 00 3B 20 
   323)      7620.8  Rx     0001F2C1  7  01 00 00 0F 03 C1 F2 
   324)      7621.0  Rx     0011F2C1  5  01 00 00 C1 F2 
   325)      7625.8  Rx     0001E8FA  7  01 00 00 0F 03 FA E8 
   326)      7625.9  Rx     0011E8FA  5  01 00 00 FA E8 
   327)      7630.8  Rx     0001C987  7  01 00 00 0F 03 87 C9 
   328)      7630.9  Rx     0011C987  5  01 00 00 87 C9 
   329)      7635.8  Rx     00011B98  7  01 00 00 0F 03 98 1B 
   330)      7635.9  Rx     00111B98  5  01 00 00 98 1B 
   331)      7640.8  Rx     00014AE1  7  01 00 00 0F 03 E1 4A 
   332)      7640.9  Rx     00114AE1  5  01 00 00 E1 4A 
   333)      7645.8  Rx     000156DD  7  01 00 00 0F 03 DD 56 
   334)      7645.9  Rx     001156DD  5  01 00 00 DD 56 
   335)      7650.8  Rx     00013EAF  7  01 00 00 0F 03 AF 3E 
   336)      7650.9  Rx     00113EAF  5  01 00 00 AF 3E 
   337)      7655.8  Rx     0001B944  7  01 00 00 0F 03 44 B9 
   338)      7655.9  Rx     0011B944  5  01 00 00 44 B9 
   339)      7660.8  Rx     000151AC  7  01 00 00 0F 03 AC 51 
   340)      7660.9  Rx     001151AC  5  01 00 00 AC 51 
   341)      7665.8  Rx     000137F7  7  01 00 00 0F 03 F7 37 
   342)      7665.9  Rx     001137F7  5  01 00 00 F7 37 
   343)      7670.8  Rx     000177C2  7  01 00 00 0F 03 C2 77 
   344)      7670.9  Rx     001177C2  5  01 00 00 C2 77 
   345)      7675.8  Rx     0001D8FA  7  01 00 00 0F 03 FA D8 
   346)      7675.9  Rx     0011D8FA  5  01 00 00 FA D8 
   347)      7680.8  Rx     000156A2  7  01 00 00 0F 03 A2 56 
   348)      7680.9  Rx     001156A2  5  01 00 00 A2 56 
   349)      7685.8  Rx     00011706  7  01 00 00 0F 03 06 17 
   350)      7685.9  Rx     00111706  5  01 00 00 06 17 
   351)      7690.8  Rx     000102B6  7  01 00 00 0F 03 B6 02 
   352)      7690.9  Rx     001102B6  5  01 00 00 B6 02 
   353)      7695.8  Rx     0001516D  7  01 00 00 0F 03 6D 51 
   354)      7695.9  Rx     0011516D  5  01 00 00 6D 51 
   355)      7700.8  Rx     00011368  7  01 00 00 0F 03 68 13 
   356)      7700.9  Rx     00111368  5  01 00 00 68 13 
   357)      7705.8  Rx     00019FFF  7  01 00 00 0F 03 FF 9F 
   358)      7705.9  Rx     00119FFF  5  01 00 00 FF 9F 
   359)      7710.8  Rx     00012453  7  01 00 00 0F 03 53 24 
   360)      7710.9  Rx     00112453  5  01 00 00 53 24 
   361)      7715.8  Rx     000102BD  7  01 00 00 0F 03 BD 02 
   362)      7715.9  Rx     001102BD  5  01 00 00 BD 02 
   363)      7720.8  Rx     00010FD5  7  01 00 00 0F 03 D5 0F 
   364)      7720.9  Rx     00110FD5  5  01 00 00 D5 0F 
   365)      7725.8  Rx     00012AE8  7  01 00 00 0F 03 E8 2A 
   366)      7725.9  Rx     00112AE8  5  01 00 00 E8 2A 
   367)      7730.8  Rx     0001B41F  7  01 00 00 0F 03 1F B4 
   368)      7730.9  Rx     0011B41F  5  01 00 00 1F B4 
   369)      7735.8  Rx     0001E6A9  7  01 00 00 0F 03 A9 E6 
   370)      7735.9  Rx     0011E6A9  5  01 00 00 A9 E6 
   371)      7740.8  Rx     0001E6B4  7  01 00 00 0F 03 B4 E6 
   372)      7740.9  Rx     0011E6B4  5  01 00 00 B4 E6 
   373)      7745.8  Rx     00015667  7  01 00 00 0F 03 67 56 
   374)      7745.9  Rx     00115667  5  01 00 00 67 56 
   375)      7750.8  Rx     0001EEF9  7  01 00 00 0F 03 F9 EE 
   376)      7750.9  Rx     0011EEF9  5  01 00 00 F9 EE 
   377)      7755.8  Rx     00012284  7  01 00 00 0F 03 84 22 
   378)      7755.9  Rx     00112284  5  01 00 00 84 22 
   379)      7760.8  Rx     00019B42  7  01 00 00 0F 03 42 9B 
   380)      7760.9  Rx     00119B42  5  01 00 00 42 9B 
   381)      7765.8  Rx     00019618  7  01 00 00 0F 03 18 96 
   382)      7765.9  Rx     00119618  5  01 00 00 18 96 
   383)      7770.8  Rx     00013081  7  01 00 00 0F 03 81 30 
   384)      7770.9  Rx     00113081  5  01 00 00 81 30 
   385)      7775.8  Rx     00011AE8  7  01 00 00 0F 03 E8 1A 
   386)      7775.9  Rx     00111AE8  5  01 00 00 E8 1A 
   387)      7780.8  Rx     0001EF7C  7  01 00 00 0F 03 7C EF 
   388)      7780.9  Rx     0011EF7C  5  01 00 00 7C EF 
   389)      7785.8  Rx     0001BCA2  7  01 00 00 0F 03 A2 BC 
   390)      7785.9  Rx     0011BCA2  5  01 00 00 A2 BC 
   391)      7790.8  Rx     0001E73E  7  01 00 00 0F 03 3E E7 
   392)      7790.9  Rx     0011E73E  5  01 00 00 3E E7 
   393)      7795.8  Rx     0001752C  7  01 00 00 0F 03 2C 75 
   394)      7795.9  Rx     0011752C  5  01 00 00 2C 75 
   395)      7800.8  Rx     00019B1B  7  01 00 00 0F 03 1B 9B 
   396)      7800.9  Rx     00119B1B  5  01 00 00 1B 9B 
   397)      7805.8  Rx     00019988  7  01 00 00 0F 03 88 99 
   398)      7805.9  Rx     00119988  5  01 00 00 88 99 
   399)      7810.8  Rx     00013B7D  7  01 00 00 0F 03 7D 3B 
   400)      7810.9  Rx     00113B7D  5  01 00 00 7D 3B 
   401)      7815.8  Rx     00014696  7  01 00 00 0F 03 96 46 
   402)      7815.9  Rx     00114696  5  01 00 00 96 46 
   403)      7820.8  Rx     0001BF5A  7  01 00 00 0F 03 5A BF 
   404)      7820.9  Rx     0011BF5A  5  01 00 00 5A BF 
   405)      7825.8  Rx     00016EBF  7  01 00 00 0F 03 BF 6E 
   406)      7825.9  Rx     00116EBF  5  01 00 00 BF 6E 
   407)      7830.8  Rx     000104F9  7  01 00 00 0F 03 F9 04 
   408)      7830.9  Rx     001104F9  5  01 00 00 F9 04 
   409)      7835.8  Rx     0001F54F  7  01 00 00 0F 03 4F F5 
   410)      7835.9  Rx     0011F54F  5  01 00 00 4F F5 
   411)      7840.8  Rx     0001177C  7  01 00 00 0F 03 7C 17 
   412)      7840.9  Rx     0011177C  5  01 00 00 7C 17 
   413)      7845.8  Rx     0001A203  7  01 00 00 0F 03 03 A2 
   414)      7845.9  Rx     0011A203  5  01 00 00 03 A2 
   415)      7850.8  Rx     0001873F  7  01 00 00 0F 03 3F 87 
   416)      7850.9  Rx     0011873F  5  01 00 00 3F 87 
   417)      7855.8  Rx     0001771A  7  01 00 00 0F 03 1A 77 
   418)      7855.9  Rx     0011771A  5  01 00 00 1A 77 
   419)      7860.8  Rx     00015610  7  01 00 00 0F 03 10 56 
   420)      7860.9  Rx     00115610  5  01 00 00 10 56 
   421)      7865.8  Rx     00012DE9  7  01 00 00 0F 03 E9 2D 
   422)      7865.9  Rx     00112DE9  5  01 00 00 E9 2D 
   423)      7870.8  Rx     00013CCF  7  01 00 00 0F 03 CF 3C 
   424)      7870.9  Rx     00113CCF  5  01 00 00 CF 3C 
   425)      7875.8  Rx     00013DC3  7  01 00 00 0F 03 C3 3D 
   426)      7875.9  Rx     00113DC3  5  01 00 00 C3 3D 
   427)      7880.8  Rx     000182F1  7  01 00 00 0F 03 F1 82 
   428)      7880.9  Rx     001182F1  5  01 00 00 F1 82 
   429)      7885.8  Rx     00014AB3  7  01 00 00 0F 03 B3 4A 
   430)      7885.9  Rx     00114AB3  5  01 00 00 B3 4A 
   431)      7890.8  Rx     0001B901  7  01 00 00 0F 03 01 B9 
   432)      7890.9  Rx     0011B901  5  01 00 00 01 B9 
   433)      7895.8  Rx     00016158  7  01 00 00 0F 03 58 61 
   434)      7895.9  Rx     00116158  5  01 00 00 58 61 
   435)      7900.8  Rx     00012E0F  7  01 00 00 0F 03 0F 2E 
   436)      7900.9  Rx     00112E0F  5  01 00 00 0F 2E 
   437)      7905.8  Rx     0001EEE6  7  01 00 00 0F 03 E6 EE 
   438)      7905.9  Rx     0011EEE6  5  01 00 00 E6 EE 
   439)      7910.8  Rx     000168AD  7  01 00 00 0F 03 AD 68 
   440)      7910.9  Rx     001168AD  5  01 00 00 AD 68 
   441)      7915.8  Rx     0001A019  7  01 00 00 0F 03 19 A0 
   442)      7915.9  Rx     0011A019  5  01 00 00 19 A0 
   443)      7920.8  Rx     0001D2EF  7  01 00 00 0F 03 EF D2 
   444)      7920.9  Rx     0011D2EF  5  01 00 00 EF D2 
   445)      7925.8  Rx     0001639C  7  01 00 00 0F 03 9C 63 
   446)      7925.9  Rx     0011639C  5  01 00 00 9C 63 
   447)      7930.8  Rx     00016D89  7  01 00 00 0F 03 89 6D 
   448)      7930.9  Rx     00116D89  5  01 00 00 89 6D 
   449)      7935.8  Rx     0001702F  7  01 00 00 0F 03 2F 70 
   450)      7935.9  Rx     0011702F  5  01 00 00 2F 70 
   451)      7940.8  Rx     000124F3  7  01 00 00 0F 03 F3 24 
   452)      7940.9  Rx     001124F3  5  01 00 00 F3 24 
   453)      7945.8  Rx     0001D099  7  01 00 00 0F 03 99 D0 
   454)      7945.9  Rx     0011D099  5  01 00 00 99 D0 
   455)      7950.8  Rx     00015C4F  7  01 00 00 0F 03 4F 5C 
   456)      7950.9  Rx     00115C4F  5  01 00 00 4F 5C 
   457)      7955.8  Rx     00011F1F  7  01 00 00 0F 03 1F 1F 
   458)      7955.9  Rx     00111F1F  5  01 00 00 1F 1F 
   459)      7960.8  Rx     00015C5A  7  01 00 00 0F 03 5A 5C 
   460)      7960.9  Rx     00115C5A  5  01 00 00 5A 5C 
   461)      7965.8  Rx     0001E01E  7  01 00 00 0F 03 1E E0 
   462)      7965.9  Rx     0011E01E  5  01 00 00 1E E0 
   463)      7970.8  Rx     000129A6  7  01 00 00 0F 03 A6 29 
   464)      7970.9  Rx     001129A6  5  01 00 00 A6 29 
   465)      7975.8  Rx     0001BEFC  7  01 00 00 0F 03 FC BE 
   466)      7975.9  Rx     0011BEFC  5  01 00 00 FC BE 
   467)      7980.8  Rx     00018805  7  01 00 00 0F 03 05 88 
   468)      7980.9  Rx     00118805  5  01 00 00 05 88 
   469)      7985.8  Rx     00012E80  7  01 00 00 0F 03 80 2E 
   470)      7985.9  Rx     00112E80  5  01 00 00 80 2E 
   471)      7990.8  Rx     0001D5BD  7  01 00 00 0F 03 BD D5 
   472)      7990.9  Rx     0011D5BD  5  01 00 00 BD D5 
   473)      7995.8  Rx     0001615E  7  01 00 00 0F 03 5E 61 
   474)      7995.9  Rx     0011615E  5  01 00 00 5E 61 
   475)      8000.8  Rx     0001EBFE  7  01 00 00 0F 03 FE EB 
   476)      8000.9  Rx     0011EBFE  5  01 00 00 FE EB 
   477)      8005.8  Rx     0001F576  7  01 00 00 0F 03 76 F5 
   478)      8005.9  Rx     0011F576  5  01 00 00 76 F5 
   479)      8010.8  Rx     000162B6  7  01 00 00 0F 03 B6 62 
   480)      8010.9  Rx     001162B6  5  01 00 00 B6 62 
   481)      8015.8  Rx     00010C15  7  01 00 00 0F 03 15 0C 
   482)      8015.9  Rx     00110C15  5  01 00 00 15 0C 
   483)      8020.8  Rx     000128B8  7  01 00 00 0F 03 B8 28 
   484)      8020.9  Rx     001128B8  5  01 00 00 B8 28 
   485)      8025.8  Rx     00018F35  7  01 00 00 0F 03 35 8F 
   486)      8025.9  Rx     00118F35  5  01 00 00 35 8F 
   487)      8030.8  Rx     000181C9  7  01 00 00 0F 03 C9 81 
   488)      8030.9  Rx     001181C9  5  01 00 00 C9 81 
   489)      8035.8  Rx     0001D79C  7  01 00 00 0F 03 9C D7 
   490)      8035.9  Rx     0011D79C  5  01 00 00 9C D7 
   491)      8040.8  Rx     0001BB16  7  01 00 00 0F 03 16 BB 
   492)      8040.9  Rx     0011BB16  5  01 00 00 16 BB 
   493)      8045.8  Rx     0001FD3E  7  01 00 00 0F 03 3E FD 
   494)      8045.9  Rx     0011FD3E  5  01 00 00 3E FD 
   495)      8050.8  Rx     00017F23  7  01 00 00 0F 03 23 7F 
   496)      8050.9  Rx     00117F23  5  01 00 00 23 7F 
   497)      8055.8  Rx     0001DF4E  7  01 00 00 0F 03 4E DF 
   498)      8055.9  Rx     0011DF4E  5  01 00 00 4E DF 
   499)      8060.8  Rx     0001292C  7  01 00 00 0F 03 2C 29 
   500)      8060.9  Rx     0011292C  5  01 00 00 2C 29 
   501)      8065.8  Rx     00019EF1  7  01 00 00 0F 03 F1 9E 
   502)      8065.9  Rx     00119EF1  5  01 00 00 F1 9E 
   503)      8070.8  Rx     0001FC92  7  01 00 00 0F 03 92 FC 
   504)      8070.9  Rx     0011FC92  5  01 00 00 92 FC 
   505)      8075.8  Rx     0001835B  7  01 00 00 0F 03 5B 83 
   506)      8075.9  Rx     0011835B  5  01 00 00 5B 83 
   507)      8080.8  Rx     000173C8  7  01 00 00 0F 03 C8 73 
   508)      8080.9  Rx     001173C8  5  01 00 00 C8 73 
   509)      8085.8  Rx     000187E8  7  01 00 00 0F 03 E8 87 
   510)      8085.9  Rx     001187E8  5  01 00 00 E8 87 
   511)      8090.8  Rx     0001D6E2  7  01 00 00 0F 03 E2 D6 
   512)      8090.9  Rx     0011D6E2  5  01 00 00 E2 D6 
   513)      8095.8  Rx     00015078  7  01 00 00 0F 03 78 50 
   514)      8095.9  Rx     00115078  5  01 00 00 78 50 
   515)      8100.8  Rx     000134AE  7  01 00 00 0F 03 AE 34 
   516)      8100.9  Rx     001134AE  5  01 00 00 AE 34 
   517)      8105.8  Rx     00014205  7  01 00 00 0F 03 05 42 
   518)      8105.9  Rx     00114205  5  01 00 00 05 42 
   519)      8110.8  Rx     0001D604  7  01 00 00 0F 03 04 D6 
   520)      8110.9  Rx     0011D604  5  01 00 00 04 D6 
   521)      8115.8  Rx     00012958  7  01 00 00 0F 03 58 29 
   522)      8115.9  Rx     00112958  5  01 00 00 58 29 
   523)      8120.8  Rx     00012DA6  7  01 00 00 0F 03 A6 2D 
   524)      8120.9  Rx     00112DA6  5  01 00 00 A6 2D 
   525)      8125.8  Rx     00014B47  7  01 00 00 0F 03 47 4B 
   526)      8125.9  Rx     00114B47  5  01 00 00 47 4B 
   527)      8130.8  Rx     0001ABF3  7  01 00 00 0F 03 F3 AB 
   528)      8130.9  Rx     0011ABF3  5  01 00 00 F3 AB 
   529)      8135.8  Rx     000145DD  7  01 00 00 0F 03 DD 45 
   530)      8135.9  Rx     001145DD  5  01 00 00 DD 45 
   531)      8140.8  Rx     00015C36  7  01 00 00 0F 03 36 5C 
   532)      8140.9  Rx     00115C36  5  01 00 00 36 5C 
   533)      8145.8  Rx     00019760  7  01 00 00 0F 03 60 97 
   534)      8145.9  Rx     00119760  5  01 00 00 60 97 
   535)      8150.8  Rx     00019255  7  01 00 00 0F 03 55 92 
   536)      8150.9  Rx     00119255  5  01 00 00 55 92 
   537)      8155.8  Rx     0001400C  7  01 00 00 0F 03 0C 40 
   538)      8155.9  Rx     0011400C  5  01 00 00 0C 40 
   539)      8160.8  Rx     00017A2F  7  01 00 00 0F 03 2F 7A 
   540)      8160.9  Rx     00117A2F  5  01 00 00 2F 7A 
   541)      8165.8  Rx     00013506  7  01 00 00 0F 03 06 35 
   542)      8165.9  Rx     00113506  5  01 00 00 06 35 
   543)      8170.8  Rx     00013AE3  7  01 00 00 0F 03 E3 3A 
   544)      8170.9  Rx     00113AE3  5  01 00 00 E3 3A 
   545)      8175.8  Rx     00013EC5  7  01 00 00 0F 03 C5 3E 
   546)      8175.9  Rx     00113EC5  5  01 00 00 C5 3E 
   547)      8180.8  Rx     000126E8  7  01 00 00 0F 03 E8 26 
   548)      8180.9  Rx     001126E8  5  01 00 00 E8 26 
   549)      8185.8  Rx     0001DB0C  7  01 00 00 0F 03 0C DB 
   550)      8185.9  Rx     0011DB0C  5  01 00 00 0C DB 
   551)      8190.8  Rx     00019689  7  01 00 00 0F 03 89 96 
   552)      8190.9  Rx     00119689  5  01 00 00 89 96 
   553)      8195.8  Rx     0001E22F  7  01 00 00 0F 03 2F E2 
   554)      8195.9  Rx     0011E22F  5  01 00 00 2F E2 
   555)      8200.8  Rx     00014D4C  7  01 00 00 0F 03 4C 4D 
   556)      8200.9  Rx     00114D4C  5  01 00 00 4C 4D 
   557)      8205.8  Rx     0001652F  7  01 00 00 0F 03 2F 65 
   558)      8205.9  Rx     0011652F  5  01 00 00 2F 65 
   559)      8210.8  Rx     0001A74D  7  01 00 00 0F 03 4D A7 
   560)      8210.9  Rx     0011A74D  5  01 00 00 4D A7 
   561)      8215.8  Rx     000175F4  7  01 00 00 0F 03 F4 75 
   562)      8215.9  Rx     001175F4  5  01 00 00 F4 75 
   563)      8220.8  Rx     00017A94  7  01 00 00 0F 03 94 7A 
   564)      8220.9  Rx     00117A94  5  01 00 00 94 7A 
   565)      8225.8  Rx     000180B0  7  01 00 00 0F 03 B0 80 
   566)      8225.9  Rx     001180B0  5  01 00 00 B0 80 
   567)      8230.8  Rx     000144F0  7  01 00 00 0F 03 F0 44 
   568)      8230.9  Rx     001144F0  5  01 00 00 F0 44 
   569)      8235.8  Rx     0001E131  7  01 00 00 0F 03 31 E1 
   570)      8235.9  Rx     0011E131  5  01 00 00 31 E1 
   571)      8240.8  Rx     000115D3  7  01 00 00 0F 03 D3 15 
   572)      8240.9  Rx     001115D3  5  01 00 00 D3 15 
   573)      8245.8  Rx     000124A5  7  01 00 00 0F 03 A5 24 
   574)      8245.9  Rx     001124A5  5  01 00 00 A5 24 
   575)      8250.8  Rx     00010454  7  01 00 00 0F 03 54 04 
   576)      8250.9  Rx     00110454  5  01 00 00 54 04 
   577)      8255.8  Rx     0001D429  7  01 00 00 0F 03 29 D4 
   578)      8255.9  Rx     0011D429  5  01 00 00 29 D4 
   579)      8260.8  Rx     0001C436  7  01 00 00 0F 03 36 C4 
   580)      8260.9  Rx     0011C436  5  01 00 00 36 C4 
   581)      8265.8  Rx     0001360F  7  01 00 00 0F 03 0F 36 
   582)      8265.9  Rx     0011360F  5  01 00 00 0F 36 
   583)      8270.8  Rx     0001EDA3  7  01 00 00 0F 03 A3 ED 
   584)      8270.9  Rx     0011EDA3  5  01 00 00 A3 ED 
   585)      8275.8  Rx     0001C3BF  7  01 00 00 0F 03 BF C3 
   586)      8275.9  Rx     0011C3BF  5  01 00 00 BF C3 
   587)      8280.8  Rx     0001AE07  7  01 00 00 0F 03 07 AE 
   588)      8280.9  Rx     0011AE07  5  01 00 00 07 AE 
   589)      8285.8  Rx     0001F7AB  7  01 00 00 0F 03 AB F7 
   590)      8285.9  Rx     0011F7AB  5  01 00 00 AB F7 
   591)      8290.8  Rx     00015D2B  7  01 00 00 0F 03 2B 5D 
   592)      8290.9  Rx     00115D2B  5  01 00 00 2B 5D 
   593)      8295.8  Rx     0001F6A1  7  01 00 00 0F 03 A1 F6 
   594)      8295.9  Rx     0011F6A1  5  01 00 00 A1 F6 
   595)      8300.8  Rx     0001D476  7  01 00 00 0F 03 76 D4 
   596)      8300.9  Rx     0011D476  5  01 00 00 76 D4 
   597)      8305.8  Rx     0001C188  7  01 00 00 0F 03 88 C1 
   598)      8305.9  Rx     0011C188  5  01 00 00 88 C1 
   599)      8310.8  Rx     0001CF0A  7  01 00 00 0F 03 0A CF 
   600)      8310.9  Rx     0011CF0A  5  01 00 00 0A CF 
   601)      8315.8  Rx     0001AC44  7  01 00 00 0F 03 44 AC 
   602)      8315.9  Rx     0011AC44  5  01 00 00 44 AC 
   603)      8320.8  Rx     00015C17  7  01 00 00 0F 03 17 5C 
   604)      8320.9  Rx     00115C17  5  01 00 00 17 5C 
   605)      8325.8  Rx     0001805B  7  01 00 00 0F 03 5B 80 
   606)      8325.9  Rx     0011805B  5  01 00 00 5B 80 
   607)      8330.8  Rx     0001A98E  7  01 00 00 0F 03 8E A9 
   608)      8330.9  Rx     0011A98E  5  01 00 00 8E A9 
   609)      8335.8  Rx     00011D92  7  01 00 00 0F 03 92 1D 
   610)      8335.9  Rx     00111D92  5  01 00 00 92 1D 
   611)      8340.8  Rx     0001EC29  7  01 00 00 0F 03 29 EC 
   612)      8340.9  Rx     0011EC29  5  01 00 00 29 EC 
   613)      8345.7  Rx     00013494  7  01 00 00 0F 03 94 34 
   614)      8345.9  Rx     00113494  5  01 00 00 94 34 
   615)      8350.8  Rx     00011659  7  01 00 00 0F 03 59 16 
   616)      8350.9  Rx     00111659  5  01 00 00 59 16 
   617)      8355.8  Rx     00018B64  7  01 00 00 0F 03 64 8B 
   618)      8355.9  Rx     00118B64  5  01 00 00 64 8B 
   619)      8360.8  Rx     0001E29B  7  01 00 00 0F 03 9B E2 
   620)      8360.9  Rx     0011E29B  5  01 00 00 9B E2 
   621)      8365.8  Rx     0001A12F  7  01 00 00 0F 03 2F A1 
   622)      8365.9  Rx     0011A12F  5  01 00 00 2F A1 
   623)      8370.7  Rx     0001CE46  7  01 00 00 0F 03 46 CE 
   624)      8370.9  Rx     0011CE46  5  01 00 00 46 CE 
   625)      8375.8  Rx     00014AB1  7  01 00 00 0F 03 B1 4A 
   626)      8375.9  Rx     00114AB1  5  01 00 00 B1 4A 
   627)      8380.8  Rx     0001BCCE  7  01 00 00 0F 03 CE BC 
   628)      8380.9  Rx     0011BCCE  5  01 00 00 CE BC 
   629)      8385.8  Rx     0001BE4B  7  01 00 00 0F 03 4B BE 
   630)      8385.9  Rx     0011BE4B  5  01 00 00 4B BE 
   631)      8390.8  Rx     0001E00E  7  01 00 00 0F 03 0E E0 
   632)      8390.9  Rx     0011E00E  5  01 00 00 0E E0 
   633)      8395.7  Rx     0001E683  7  01 00 00 0F 03 83 E6 
   634)      8395.9  Rx     0011E683  5  01 00 00 83 E6 
   635)      8400.7  Rx     0001651A  7  01 00 00 0F 03 1A 65 
   636)      8400.9  Rx     0011651A  5  01 00 00 1A 65 
   637)      8405.8  Rx     0001637C  7  01 00 00 0F 03 7C 63 
   638)      8405.9  Rx     0011637C  5  01 00 00 7C 63 
   639)      8410.8  Rx     00019DA9  7  01 00 00 0F 03 A9 9D 
   640)      8410.9  Rx     00119DA9  5  01 00 00 A9 9D 
   641)      8415.8  Rx     00011FAD  7  01 00 00 0F 03 AD 1F 
   642)      8415.9  Rx     00111FAD  5  01 00 00 AD 1F 
   643)      8420.8  Rx     00016D11  7  01 00 00 0F 03 11 6D 
   644)      8420.9  Rx     00116D11  5  01 00 00 11 6D 
   645)      8425.7  Rx     0001C1DF  7  01 00 00 0F 03 DF C1 
   646)      8425.9  Rx     0011C1DF  5  01 00 00 DF C1 
   647)      8430.8  Rx     00014075  7  01 00 00 0F 03 75 40 
   648)      8430.9  Rx     00114075  5  01 00 00 75 40 
   649)      8435.8  Rx     0001023D  7  01 00 00 0F 03 3D 02 
   650)      8435.9  Rx     0011023D  5  01 00 00 3D 02 
   651)      8440.8  Rx     00018086  7  01 00 00 0F 03 86 80 
   652)      8440.9  Rx     00118086  5  01 00 00 86 80 
   653)      8445.8  Rx     000105F1  7  01 00 00 0F 03 F1 05 
   654)      8445.9  Rx     001105F1  5  01 00 00 F1 05 
   655)      8450.7  Rx     0001E017  7  01 00 00 0F 03 17 E0 
   656)      8450.9  Rx     0011E017  5  01 00 00 17 E0 
   657)      8455.7  Rx     0001F4B1  7  01 00 00 0F 03 B1 F4 
   658)      8455.9  Rx     0011F4B1  5  01 00 00 B1 F4 
   659)      8460.8  Rx     00018D4C  7  01 00 00 0F 03 4C 8D 
   660)      8460.9  Rx     00118D4C  5  01 00 00 4C 8D 
   661)      8465.8  Rx     0001D51F  7  01 00 00 0F 03 1F D5 
   662)      8465.9  Rx     0011D51F  5  01 00 00 1F D5 
   663)      8470.8  Rx     00013024  7  01 00 00 0F 03 24 30 
   664)      8470.9  Rx     00113024  5  01 00 00 24 30 
   665)      8475.7  Rx     0001CCEB  7  01 00 00 0F 03 EB CC 
   666)      8475.9  Rx     0011CCEB  5  01 00 00 EB CC 
   667)      8480.7  Rx     00013FBE  7  01 00 00 0F 03 BE 3F 
   668)      8480.9  Rx     00113FBE  5  01 00 00 BE 3F 
   669)      8485.7  Rx     0001F71D  7  01 00 00 0F 03 1D F7 
   670)      8485.9  Rx     0011F71D  5  01 00 00 1D F7 
   671)      8490.8  Rx     0001507E  7  01 00 00 0F 03 7E 50 
   672)      8490.9  Rx     0011507E  5  01 00 00 7E 50 
   673)      8495.8  Rx     0001D6E5  7  01 00 00 0F 03 E5 D6 
   674)      8495.8  Rx     0011D6E5  5  01 00 00 E5 D6 
   675)      8500.8  Rx     00012001  7  01 00 00 0F 03 01 20 
   676)      8500.9  Rx     00112001  5  01 00 00 01 20 
   677)      8505.7  Rx     0001C2F6  7  01 00 00 0F 03 F6 C2 
   678)      8505.9  Rx     0011C2F6  5  01 00 00 F6 C2 
   679)      8510.7  Rx     0001A47F  7  01 00 00 0F 03 7F A4 
   680)      8510.9  Rx     0011A47F  5  01 00 00 7F A4 
   681)      8515.8  Rx     0001E924  7  01 00 00 0F 03 24 E9 
   682)      8515.9  Rx     0011E924  5  01 00 00 24 E9 
   683)      8520.8  Rx     0001180B  7  01 00 00 0F 03 0B 18 
   684)      8520.8  Rx     0011180B  5  01 00 00 0B 18 
   685)      8525.8  Rx     0001CFE6  7  01 00 00 0F 03 E6 CF 
   686)      8525.9  Rx     0011CFE6  5  01 00 00 E6 CF 
   687)      8530.7  Rx     000194D7  7  01 00 00 0F 03 D7 94 
   688)      8530.9  Rx     001194D7  5  01 00 00 D7 94 
   689)      8535.7  Rx     00017AEE  7  01 00 00 0F 03 EE 7A 
   690)      8535.9  Rx     00117AEE  5  01 00 00 EE 7A 
   691)      8540.7  Rx     00019A62  7  01 00 00 0F 03 62 9A 
   692)      8540.9  Rx     00119A62  5  01 00 00 62 9A 
   693)      8545.8  Rx     000171EA  7  01 00 00 0F 03 EA 71 
   694)      8545.8  Rx     001171EA  5  01 00 00 EA 71 
   695)      8550.8  Rx     00017435  7  01 00 00 0F 03 35 74 
   696)      8550.8  Rx     00117435  5  01 00 00 35 74 
   697)      8555.7  Rx     0001A83A  7  01 00 00 0F 03 3A A8 
   698)      8555.9  Rx     0011A83A  5  01 00 00 3A A8 
   699)      8560.7  Rx     0001F9A4  7  01 00 00 0F 03 A4 F9 
   700)      8560.9  Rx     0011F9A4  5  01 00 00 A4 F9 
   701)      8565.7  Rx     00015A13  7  01 00 00 0F 03 13 5A 
   702)      8565.9  Rx     00115A13  5  01 00 00 13 5A 
   703)      8570.7  Rx     000142A7  7  01 00 00 0F 03 A7 42 
   704)      8570.9  Rx     001142A7  5  01 00 00 A7 42 
   705)      8575.8  Rx     00014B69  7  01 00 00 0F 03 69 4B 
   706)      8575.8  Rx     00114B69  5  01 00 00 69 4B 
   707)      8580.7  Rx     0001D4C9  7  01 00 00 0F 03 C9 D4 
   708)      8580.8  Rx     0011D4C9  5  01 00 00 C9 D4 
   709)      8585.7  Rx     0001129D  7  01 00 00 0F 03 9D 12 
   710)      8585.9  Rx     0011129D  5  01 00 00 9D 12 
   711)      8590.7  Rx     000173C1  7  01 00 00 0F 03 C1 73 
   712)      8590.9  Rx     001173C1  5  01 00 00 C1 73 
   713)      8595.7  Rx     000108B9  7  01 00 00 0F 03 B9 08 
   714)      8595.9  Rx     001108B9  5  01 00 00 B9 08 
   715)      8600.8  Rx     0001402A  7  01 00 00 0F 03 2A 40 
   716)      8600.8  Rx     0011402A  5  01 00 00 2A 40 
   717)      8605.8  Rx     00019AC3  7  01 00 00 0F 03 C3 9A 
   718)      8605.8  Rx     00119AC3  5  01 00 00 C3 9A 
   719)      8610.7  Rx     0001DB7F  7  01 00 00 0F 03 7F DB 
   720)      8610.9  Rx     0011DB7F  5  01 00 00 7F DB 
   721)      8615.7  Rx     00016374  7  01 00 00 0F 03 74 63 
   722)      8615.9  Rx     00116374  5  01 00 00 74 63 
   723)      8620.7  Rx     00012F40  7  01 00 00 0F 03 40 2F 
   724)      8620.9  Rx     00112F40  5  01 00 00 40 2F 
   725)      8625.7  Rx     0001F24F  7  01 00 00 0F 03 4F F2 
   726)      8625.8  Rx     0011F24F  5  01 00 00 4F F2 
   727)      8630.8  Rx     00015DEA  7  01 00 00 0F 03 EA 5D 
   728)      8630.8  Rx     00115DEA  5  01 00 00 EA 5D 
   729)      8635.7  Rx     0001BCEB  7  01 00 00 0F 03 EB BC 
   730)      8635.8  Rx     0011BCEB  5  01 00 00 EB BC 
   731)      8640.7  Rx     0001B32C  7  01 00 00 0F 03 2C B3 
   732)      8640.9  Rx     0011B32C  5  01 00 00 2C B3 
   733)      8645.7  Rx     0001B4F3  7  01 00 00 0F 03 F3 B4 
   734)      8645.9  Rx     0011B4F3  5  01 00 00 F3 B4 
   735)      8650.7  Rx     0001D57C  7  01 00 00 0F 03 7C D5 
   736)      8650.8  Rx     0011D57C  5  01 00 00 7C D5 
   737)      8655.8  Rx     00018126  7  01 00 00 0F 03 26 81 
   738)      8655.8  Rx     00118126  5  01 00 00 26 81 
   739)      8660.7  Rx     000161FA  7  01 00 00 0F 03 FA 61 
   740)      8660.8  Rx     001161FA  5  01 00 00 FA 61 
   741)      8665.7  Rx     0001995A  7  01 00 00 0F 03 5A 99 
   742)      8665.9  Rx     0011995A  5  01 00 00 5A 99 
   743)      8670.7  Rx     0001E044  7  01 00 00 0F 03 44 E0 
   744)      8670.9  Rx     0011E044  5  01 00 00 44 E0 
   745)      8675.7  Rx     00012157  7  01 00 00 0F 03 57 21 
   746)      8675.9  Rx     00112157  5  01 00 00 57 21 
   747)      8680.7  Rx     00018EA4  7  01 00 00 0F 03 A4 8E 
   748)      8680.8  Rx     00118EA4  5  01 00 00 A4 8E 
   749)      8685.7  Rx     00010FFC  7  01 00 00 0F 03 FC 0F 
   750)      8685.8  Rx     00110FFC  5  01 00 00 FC 0F 
   751)      8690.7  Rx     0001A3C8  7  01 00 00 0F 03 C8 A3 
   752)      8690.8  Rx     0011A3C8  5  01 00 00 C8 A3 
   753)      8695.7  Rx     00012812  7  01 00 00 0F 03 12 28 
   754)      8695.9  Rx     00112812  5  01 00 00 12 28 
   755)      8700.7  Rx     0001A1D8  7  01 00 00 0F 03 D8 A1 
   756)      8700.9  Rx     0011A1D8  5  01 00 00 D8 A1 
   757)      8705.7  Rx     0001BDB5  7  01 00 00 0F 03 B5 BD 
   758)      8705.8  Rx     0011BDB5  5  01 00 00 B5 BD 
   759)      8710.8  Rx     00019FAD  7  01 00 00 0F 03 AD 9F 
   760)      8710.8  Rx     00119FAD  5  01 00 00 AD 9F 
   761)      8715.7  Rx     00014F3D  7  01 00 00 0F 03 3D 4F 
   762)      8715.8  Rx     00114F3D  5  01 00 00 3D 4F 
   763)      8720.7  Rx     00017B79  7  01 00 00 0F 03 79 7B 
   764)      8720.8  Rx     00117B79  5  01 00 00 79 7B 
   765)      8725.7  Rx     00012A13  7  01 00 00 0F 03 13 2A 
   766)      8725.9  Rx     00112A13  5  01 00 00 13 2A 
   767)      8730.7  Rx     00018F17  7  01 00 00 0F 03 17 8F 
   768)      8730.8  Rx     00118F17  5  01 00 00 17 8F 
   769)      8735.7  Rx     00017FC8  7  01 00 00 0F 03 C8 7F 
   770)      8735.8  Rx     00117FC8  5  01 00 00 C8 7F 
   771)      8740.7  Rx     000194E5  7  01 00 00 0F 03 E5 94 
   772)      8740.8  Rx     001194E5  5  01 00 00 E5 94 
   773)      8745.7  Rx     00013D71  7  01 00 00 0F 03 71 3D 
   774)      8745.8  Rx     00113D71  5  01 00 00 71 3D 
   775)      8750.7  Rx     000120D0  7  01 00 00 0F 03 D0 20 
   776)      8750.9  Rx     001120D0  5  01 00 00 D0 20 
   777)      8755.7  Rx     0001FB1B  7  01 00 00 0F 03 1B FB 
   778)      8755.9  Rx     0011FB1B  5  01 00 00 1B FB 
   779)      8760.7  Rx     000193FB  7  01 00 00 0F 03 FB 93 
   780)      8760.8  Rx     001193FB  5  01 00 00 FB 93 
   781)      8765.7  Rx     0001CEC8  7  01 00 00 0F 03 C8 CE 
   782)      8765.8  Rx     0011CEC8  5  01 00 00 C8 CE 
   783)      8770.7  Rx     0001E22B  7  01 00 00 0F 03 2B E2 
   784)      8770.8  Rx     0011E22B  5  01 00 00 2B E2 
   785)      8775.7  Rx     00015A53  7  01 00 00 0F 03 53 5A 
   786)      8775.8  Rx     00115A53  5  01 00 00 53 5A 
   787)      8780.7  Rx     00014EDA  7  01 00 00 0F 03 DA 4E 
   788)      8780.9  Rx     00114EDA  5  01 00 00 DA 4E 
   789)      8785.7  Rx     0001353F  7  01 00 00 0F 03 3F 35 
   790)      8785.8  Rx     0011353F  5  01 00 00 3F 35 
   791)      8790.7  Rx     0001ECA5  7  01 00 00 0F 03 A5 EC 
   792)      8790.8  Rx     0011ECA5  5  01 00 00 A5 EC 
   793)      8795.7  Rx     00019F2C  7  01 00 00 0F 03 2C 9F 
   794)      8795.8  Rx     00119F2C  5  01 00 00 2C 9F 
   795)      8800.7  Rx     0001606A  7  01 00 00 0F 03 6A 60 
   796)      8800.8  Rx     0011606A  5  01 00 00 6A 60 
   797)      8805.7  Rx     0001E187  7  01 00 00 0F 03 87 E1 
   798)      8805.9  Rx     0011E187  5  01 00 00 87 E1 
   799)      8810.7  Rx     0001D650  7  01 00 00 0F 03 50 D6 
   800)      8810.8  Rx     0011D650  5  01 00 00 50 D6 
   801)      8815.7  Rx     000142BC  7  01 00 00 0F 03 BC 42 
   802)      8815.8  Rx     001142BC  5  01 00 00 BC 42 
   803)      8820.7  Rx     00014D9B  7  01 00 00 0F 03 9B 4D 
   804)      8820.8  Rx     00114D9B  5  01 00 00 9B 4D 
   805)      8825.7  Rx     0001E2E8  7  01 00 00 0F 03 E8 E2 
   806)      8825.8  Rx     0011E2E8  5  01 00 00 E8 E2 
   807)      8830.7  Rx     000168EF  7  01 00 00 0F 03 EF 68 
   808)      8830.8  Rx     001168EF  5  01 00 00 EF 68 
   809)      8835.7  Rx     000151E4  7  01 00 00 0F 03 E4 51 
   810)      8835.8  Rx     001151E4  5  01 00 00 E4 51 
   811)      8840.7  Rx     0001E36F  7  01 00 00 0F 03 6F E3 
   812)      8840.8  Rx     0011E36F  5  01 00 00 6F E3 
   813)      8845.7  Rx     00017C1A  7  01 00 00 0F 03 1A 7C 
   814)      8845.8  Rx     00117C1A  5  01 00 00 1A 7C 
   815)      8850.7  Rx     00018FE0  7  01 00 00 0F 03 E0 8F 
   816)      8850.8  Rx     00118FE0  5  01 00 00 E0 8F 
   817)      8855.7  Rx     00017385  7  01 00 00 0F 03 85 73 
   818)      8855.8  Rx     00117385  5  01 00 00 85 73 
   819)      8860.7  Rx     000181B8  7  01 00 00 0F 03 B8 81 
   820)      8860.9  Rx     001181B8  5  01 00 00 B8 81 
   821)      8865.7  Rx     0001BFD3  7  01 00 00 0F 03 D3 BF 
   822)      8865.8  Rx     0011BFD3  5  01 00 00 D3 BF 
   823)      8870.7  Rx     0001FCBD  7  01 00 00 0F 03 BD FC 
   824)      8870.8  Rx     0011FCBD  5  01 00 00 BD FC 
   825)      8875.7  Rx     0001F075  7  01 00 00 0F 03 75 F0 
   826)      8875.8  Rx     0011F075  5  01 00 00 75 F0 
   827)      8880.7  Rx     00017EA1  7  01 00 00 0F 03 A1 7E 
   828)      8880.8  Rx     00117EA1  5  01 00 00 A1 7E 
   829)      8885.7  Rx     0001F524  7  01 00 00 0F 03 24 F5 
   830)      8885.8  Rx     0011F524  5  01 00 00 24 F5 
   831)      8890.7  Rx     000126C1  7  01 00 00 0F 03 C1 26 
   832)      8890.8  Rx     001126C1  5  01 00 00 C1 26 
   833)      8895.7  Rx     0001D52F  7  01 00 00 0F 03 2F D5 
   834)      8895.8  Rx     0011D52F  5  01 00 00 2F D5 
   835)      8900.7  Rx     000156ED  7  01 00 00 0F 03 ED 56 
   836)      8900.8  Rx     001156ED  5  01 00 00 ED 56 
   837)      8905.7  Rx     00016B83  7  01 00 00 0F 03 83 6B 
   838)      8905.8  Rx     00116B83  5  01 00 00 83 6B 
   839)      8910.7  Rx     0001ECEA  7  01 00 00 0F 03 EA EC 
   840)      8910.8  Rx     0011ECEA  5  01 00 00 EA EC 
   841)      8915.7  Rx     0001F14D  7  01 00 00 0F 03 4D F1 
   842)      8915.7  Rx     0011F14D  5  01 00 00 4D F1 
   843)      8920.6  Rx     00011301  7  01 00 00 0F 03 01 13 
   844)      8920.8  Rx     00111301  5  01 00 00 01 13 
   845)      8925.6  Rx     0001C6A7  7  01 00 00 0F 03 A7 C6 
   846)      8925.8  Rx     0011C6A7  5  01 00 00 A7 C6 
   847)      8930.6  Rx     00019EE2  7  01 00 00 0F 03 E2 9E 
   848)      8930.8  Rx     00119EE2  5  01 00 00 E2 9E 
   849)      8935.7  Rx     0001FCB5  7  01 00 00 0F 03 B5 FC 
   850)      8935.7  Rx     0011FCB5  5  01 00 00 B5 FC 
   851)      8940.7  Rx     000194A3  7  01 00 00 0F 03 A3 94 
   852)      8940.7  Rx     001194A3  5  01 00 00 A3 94 
   853)      8945.6  Rx     0001BE17  7  01 00 00 0F 03 17 BE 
   854)      8945.8  Rx     0011BE17  5  01 00 00 17 BE 
   855)      8950.6  Rx     0001809D  7  01 00 00 0F 03 9D 80 
   856)      8950.8  Rx     0011809D  5  01 00 00 9D 80 
   857)      8955.6  Rx     00018E95  7  01 00 00 0F 03 95 8E 
   858)      8955.8  Rx     00118E95  5  01 00 00 95 8E 
   859)      8960.6  Rx     0001E57F  7  01 00 00 0F 03 7F E5 
   860)      8960.8  Rx     0011E57F  5  01 00 00 7F E5 
   861)      8965.7  Rx     0001947F  7  01 00 00 0F 03 7F 94 
   862)      8965.7  Rx     0011947F  5  01 00 00 7F 94 
   863)      8970.7  Rx     0001ECC1  7  01 00 00 0F 03 C1 EC 
   864)      8970.7  Rx     0011ECC1  5  01 00 00 C1 EC 
   865)      8975.6  Rx     00013A0F  7  01 00 00 0F 03 0F 3A 
   866)      8975.8  Rx     00113A0F  5  01 00 00 0F 3A 
   867)      8980.6  Rx     0001866D  7  01 00 00 0F 03 6D 86 
   868)      8980.8  Rx     0011866D  5  01 00 00 6D 86 
   869)      8985.6  Rx     0001BAC8  7  01 00 00 0F 03 C8 BA 
   870)      8985.8  Rx     0011BAC8  5  01 00 00 C8 BA 
   871)      8990.6  Rx     0001E1C9  7  01 00 00 0F 03 C9 E1 
   872)      8990.7  Rx     0011E1C9  5  01 00 00 C9 E1 
   873)      8995.7  Rx     00019CB3  7  01 00 00 0F 03 B3 9C 
   874)      8995.7  Rx     00119CB3  5  01 00 00 B3 9C 
   875)      9000.6  Rx     0001B773  7  01 00 00 0F 03 73 B7 
   876)      9000.7  Rx     0011B773  5  01 00 00 73 B7 
   877)      9005.6  Rx     000146E6  7  01 00 00 0F 03 E6 46 
   878)      9005.8  Rx     001146E6  5  01 00 00 E6 46 
   879)      9010.6  Rx     0001FDE8  7  01 00 00 0F 03 E8 FD 
   880)      9010.8  Rx     0011FDE8  5  01 00 00 E8 FD 
   881)      9015.6  Rx     00017AB0  7  01 00 00 0F 03 B0 7A 
   882)      9015.7  Rx     00117AB0  5  01 00 00 B0 7A 
   883)      9020.6  Rx     0001D48B  7  01 00 00 0F 03 8B D4 
   884)      9020.7  Rx     0011D48B  5  01 00 00 8B D4 
   885)      9025.6  Rx     0001966E  7  01 00 00 0F 03 6E 96 
   886)      9025.7  Rx     0011966E  5  01 00 00 6E 96 
   887)      9030.6  Rx     000131AE  7  01 00 00 0F 03 AE 31 
   888)      9030.8  Rx     001131AE  5  01 00 00 AE 31 
   889)      9035.6  Rx     0001B4C9  7  01 00 00 0F 03 C9 B4 
   890)      9035.8  Rx     0011B4C9  5  01 00 00 C9 B4 
   891)      9040.6  Rx     0001AB24  7  01 00 00 0F 03 24 AB 
   892)      9040.8  Rx     0011AB24  5  01 00 00 24 AB 
   893)      9045.6  Rx     0001DCEE  7  01 00 00 0F 03 EE DC 
   894)      9045.7  Rx     0011DCEE  5  01 00 00 EE DC 
   895)      9050.6  Rx     0001A56C  7  01 00 00 0F 03 6C A5 
   896)      9050.7  Rx     0011A56C  5  01 00 00 6C A5 
   897)      9055.6  Rx     00017008  7  01 00 00 0F 03 08 70 
   898)      9055.7  Rx     00117008  5  01 00 00 08 70 
   899)      9060.6  Rx     0001AC6A  7  01 00 00 0F 03 6A AC 
   900)      9060.8  Rx     0011AC6A  5  01 00 00 6A AC 
   901)      9065.6  Rx     0001B5FB  7  01 00 00 0F 03 FB B5 
   902)      9065.8  Rx     0011B5FB  5  01 00 00 FB B5 
   903)      9070.6  Rx     00017957  7  01 00 00 0F 03 57 79 
   904)      9070.7  Rx     00117957  5  01 00 00 57 79 
   905)      9075.6  Rx     00011734  7  01 00 00 0F 03 34 17 
   906)      9075.7  Rx     00111734  5  01 00 00 34 17 
   907)      9080.6  Rx     00016045  7  01 00 00 0F 03 45 60 
   908)      9080.7  Rx     00116045  5  01 00 00 45 60 
   909)      9085.6  Rx     0001A30A  7  01 00 00 0F 03 0A A3 
   910)      9085.8  Rx     0011A30A  5  01 00 00 0A A3 
   911)      9090.6  Rx     0001A46D  7  01 00 00 0F 03 6D A4 
   912)      9090.8  Rx     0011A46D  5  01 00 00 6D A4 
   913)      9095.6  Rx     00016E03  7  01 00 00 0F 03 03 6E 
   914)      9095.7  Rx     00116E03  5  01 00 00 03 6E 
   915)      9100.6  Rx     00019D21  7  01 00 00 0F 03 21 9D 
   916)      9100.7  Rx     00119D21  5  01 00 00 21 9D 
   917)      9105.6  Rx     0001ACFE  7  01 00 00 0F 03 FE AC 
   918)      9105.7  Rx     0011ACFE  5  01 00 00 FE AC 
   919)      9110.6  Rx     0001BE1A  7  01 00 00 0F 03 1A BE 
   920)      9110.8  Rx     0011BE1A  5  01 00 00 1A BE 
   921)      9115.6  Rx     0001AE0E  7  01 00 00 0F 03 0E AE 
   922)      9115.8  Rx     0011AE0E  5  01 00 00 0E AE 
   923)      9120.6  Rx     0001E073  7  01 00 00 0F 03 73 E0 
   924)      9120.7  Rx     0011E073  5  01 00 00 73 E0 
   925)      9125.6  Rx     0001F585  7  01 00 00 0F 03 85 F5 
   926)      9125.7  Rx     0011F585  5  01 00 00 85 F5 
   927)      9130.6  Rx     0001BE99  7  01 00 00 0F 03 99 BE 
   928)      9130.7  Rx     0011BE99  5  01 00 00 99 BE 
   929)      9135.6  Rx     00018188  7  01 00 00 0F 03 88 81 
   930)      9135.7  Rx     00118188  5  01 00 00 88 81 
   931)      9140.6  Rx     0001A7F6  7  01 00 00 0F 03 F6 A7 
   932)      9140.8  Rx     0011A7F6  5  01 00 00 F6 A7 
   933)      9145.6  Rx     00013C22  7  01 00 00 0F 03 22 3C 
   934)      9145.8  Rx     00113C22  5  01 00 00 22 3C 
   935)      9150.6  Rx     0001EA1A  7  01 00 00 0F 03 1A EA 
   936)      9150.7  Rx     0011EA1A  5  01 00 00 1A EA 
   937)      9155.6  Rx     000123AD  7  01 00 00 0F 03 AD 23 
   938)      9155.7  Rx     001123AD  5  01 00 00 AD 23 
   939)      9160.6  Rx     0001ABB8  7  01 00 00 0F 03 B8 AB 
   940)      9160.7  Rx     0011ABB8  5  01 00 00 B8 AB 
   941)      9165.6  Rx     00017F09  7  01 00 00 0F 03 09 7F 
   942)      9165.7  Rx     00117F09  5  01 00 00 09 7F 
   943)      9170.6  Rx     00018EA8  7  01 00 00 0F 03 A8 8E 
   944)      9170.7  Rx     00118EA8  5  01 00 00 A8 8E 
   945)      9175.6  Rx     00015EFA  7  01 00 00 0F 03 FA 5E 
   946)      9175.7  Rx     00115EFA  5  01 00 00 FA 5E 
   947)      9180.6  Rx     00013CD8  7  01 00 00 0F 03 D8 3C 
   948)      9180.7  Rx     00113CD8  5  01 00 00 D8 3C 
   949)      9185.6  Rx     000167AD  7  01 00 00 0F 03 AD 67 
   950)      9185.7  Rx     001167AD  5  01 00 00 AD 67 
   951)      9190.6  Rx     0001D8C8  7  01 00 00 0F 03 C8 D8 
   952)      9190.7  Rx     0011D8C8  5  01 00 00 C8 D8 
   953)      9195.6  Rx     0001BD21  7  01 00 00 0F 03 21 BD 
   954)      9195.7  Rx     0011BD21  5  01 00 00 21 BD 
   955)      9200.6  Rx     0001A10B  7  01 00 00 0F 03 0B A1 
   956)      9200.7  Rx     0011A10B  5  01 00 00 0B A1 
   957)      9205.6  Rx     00010319  7  01 00 00 0F 03 19 03 
   958)      9205.7  Rx     00110319  5  01 00 00 19 03 
   959)      9210.6  Rx     0001AEE1  7  01 00 00 0F 03 E1 AE 
   960)      9210.7  Rx     0011AEE1  5  01 00 00 E1 AE 
   961)      9215.6  Rx     000170BB  7  01 00 00 0F 03 BB 70 
   962)      9215.7  Rx     001170BB  5  01 00 00 BB 70 
   963)      9220.6  Rx     000142E2  7  01 00 00 0F 03 E2 42 
   964)      9220.7  Rx     001142E2  5  01 00 00 E2 42 
   965)      9225.6  Rx     00013E01  7  01 00 00 0F 03 01 3E 
   966)      9225.8  Rx     00113E01  5  01 00 00 01 3E 
   967)      9230.6  Rx     0001635E  7  01 00 00 0F 03 5E 63 
   968)      9230.7  Rx     0011635E  5  01 00 00 5E 63 
   969)      9235.6  Rx     000180BA  7  01 00 00 0F 03 BA 80 
   970)      9235.7  Rx     001180BA  5  01 00 00 BA 80 
   971)      9240.6  Rx     000122CD  7  01 00 00 0F 03 CD 22 
   972)      9240.7  Rx     001122CD  5  01 00 00 CD 22 
   973)      9245.6  Rx     00017C97  7  01 00 00 0F 03 97 7C 
   974)      9245.7  Rx     00117C97  5  01 00 00 97 7C 
   975)      9250.6  Rx     0001A593  7  01 00 00 0F 03 93 A5 
   976)      9250.7  Rx     0011A593  5  01 00 00 93 A5 
   977)      9255.6  Rx     0001CDA4  7  01 00 00 0F 03 A4 CD 
   978)      9255.7  Rx     0011CDA4  5  01 00 00 A4 CD 
   979)      9260.6  Rx     000108DE  7  01 00 00 0F 03 DE 08 
   980)      9260.7  Rx     001108DE  5  01 00 00 DE 08 
   981)      9265.6  Rx     0001221E  7  01 00 00 0F 03 1E 22 
   982)      9265.7  Rx     0011221E  5  01 00 00 1E 22 
   983)      9270.6  Rx     00013D63  7  01 00 00 0F 03 63 3D 
   984)      9270.7  Rx     00113D63  5  01 00 00 63 3D 
   985)      9275.6  Rx     00012080  7  01 00 00 0F 03 80 20 
   986)      9275.7  Rx     00112080  5  01 00 00 80 20 
   987)      9280.6  Rx     0001F74E  7  01 00 00 0F 03 4E F7 
   988)      9280.7  Rx     0011F74E  5  01 00 00 4E F7 
   989)      9285.6  Rx     0001203F  7  01 00 00 0F 03 3F 20 
   990)      9285.7  Rx     0011203F  5  01 00 00 3F 20 
   991)      9290.6  Rx     0001E99D  7  01 00 00 0F 03 9D E9 
   992)      9290.7  Rx     0011E99D  5  01 00 00 9D E9 
   993)      9295.6  Rx     0001438E  7  01 00 00 0F 03 8E 43 
   994)      9295.7  Rx     0011438E  5  01 00 00 8E 43 
   995)      9300.6  Rx     000155C0  7  01 00 00 0F 03 C0 55 
   996)      9300.7  Rx     001155C0  5  01 00 00 C0 55 
   997)      9305.6  Rx     0001961E  7  01 00 00 0F 03 1E 96 
   998)      9305.7  Rx     0011961E  5  01 00 00 1E 96 
   999)      9310.6  Rx     00011D2A  7  01 00 00 0F 03 2A 1D 
  1000)      9310.7  Rx     00111D2A  5  01 00 00 2A 1D 
  1001)      9315.6  Rx     0001FCB9  7  01 00 00 0F 03 B9 FC 
  1002)      9315.7  Rx     0011FCB9  5  01 00 00 B9 FC 
  1003)      9320.6  Rx     00015D46  7  01 00 00 0F 03 46 5D 
  1004)      9320.7  Rx     00115D46  5  01 00 00 46 5D 
  1005)      9325.6  Rx     0001472A  7  01 00 00 0F 03 2A 47 
  1006)      9325.7  Rx     0011472A  5  01 00 00 2A 47 
  1007)      9330.6  Rx     0001E2E8  7  01 00 00 0F 03 E8 E2 
  1008)      9330.7  Rx     0011E2E8  5  01 00 00 E8 E2 
  1009)      9335.6  Rx     000141CC  7  01 00 00 0F 03 CC 41 
  1010)      9335.7  Rx     001141CC  5  01 00 00 CC 41 
  1011)      9340.6  Rx     00015927  7  01 00 00 0F 03 27 59 
  1012)      9340.7  Rx     00115927  5  01 00 00 27 59 
  1013)      9345.6  Rx     000149B7  7  01 00 00 0F 03 B7 49 
  1014)      9345.7  Rx     001149B7  5  01 00 00 B7 49 
  1015)      9350.6  Rx     00019852  7  01 00 00 0F 03 52 98 
  1016)      9350.7  Rx     00119852  5  01 00 00 52 98 
  1017)      9355.6  Rx     00012266  7  01 00 00 0F 03 66 22 
  1018)      9355.7  Rx     00112266  5  01 00 00 66 22 
  1019)      9360.6  Rx     0001FC5D  7  01 00 00 0F 03 5D FC 
  1020)      9360.7  Rx     0011FC5D  5  01 00 00 5D FC 
  1021)      9365.6  Rx     00017D4D  7  01 00 00 0F 03 4D 7D 
  1022)      9365.7  Rx     00117D4D  5  01 00 00 4D 7D 
  1023)      9370.6  Rx     0001E2E7  7  01 00 00 0F 03 E7 E2 
  1024)      9370.7  Rx     0011E2E7  5  01 00 00 E7 E2 
  1025)      9375.6  Rx     0001F7AE  7  01 00 00 0F 03 AE F7 
  1026)      9375.7  Rx     0011F7AE  5  01 00 00 AE F7 
  1027)      9380.6  Rx     0001B7DF  7  01 00 00 0F 03 DF B7 
  1028)      9380.7  Rx     0011B7DF  5  01 00 00 DF B7 
  1029)      9385.6  Rx     000124BD  7  01 00 00 0F 03 BD 24 
  1030)      9385.7  Rx     001124BD  5  01 00 00 BD 24 
  1031)      9390.6  Rx     00014848  7  01 00 00 0F 03 48 48 
  1032)      9390.7  Rx     00114848  5  01 00 00 48 48 
  1033)      9395.6  Rx     000155C6  7  01 00 00 0F 03 C6 55 
  1034)      9395.7  Rx     001155C6  5  01 00 00 C6 55 
  1035)      9400.6  Rx     0001F1A3  7  01 00 00 0F 03 A3 F1 
  1036)      9400.7  Rx     0011F1A3  5  01 00 00 A3 F1 
  1037)      9405.6  Rx     00017FF7  7  01 00 00 0F 03 F7 7F 
  1038)      9405.7  Rx     00117FF7  5  01 00 00 F7 7F 
  1039)      9410.6  Rx     0001351E  7  01 00 00 0F 03 1E 35 
  1040)      9410.7  Rx     0011351E  5  01 00 00 1E 35 
  1041)      9415.6  Rx     00013B00  7  01 00 00 0F 03 00 3B 
  1042)      9415.7  Rx     00113B00  5  01 00 00 00 3B 
  1043)      9420.6  Rx     00017861  7  01 00 00 0F 03 61 78 
  1044)      9420.7  Rx     00117861  5  01 00 00 61 78 
  1045)      9425.6  Rx     00013D9E  7  01 00 00 0F 03 9E 3D 
  1046)      9425.7  Rx     00113D9E  5  01 00 00 9E 3D 
  1047)      9430.6  Rx     0001A6C0  7  01 00 00 0F 03 C0 A6 
  1048)      9430.7  Rx     0011A6C0  5  01 00 00 C0 A6 
  1049)      9435.6  Rx     000104D2  7  01 00 00 0F 03 D2 04 
  1050)      9435.7  Rx     001104D2  5  01 00 00 D2 04 
  1051)      9440.6  Rx     0001C418  7  01 00 00 0F 03 18 C4 
  1052)      9440.7  Rx     0011C418  5  01 00 00 18 C4 
  1053)      9445.6  Rx     00013457  7  01 00 00 0F 03 57 34 
  1054)      9445.7  Rx     00113457  5  01 00 00 57 34 
  1055)      9450.6  Rx     00010F98  7  01 00 00 0F 03 98 0F 
  1056)      9450.7  Rx     00110F98  5  01 00 00 98 0F 
  1057)      9455.6  Rx     00019689  7  01 00 00 0F 03 89 96 
  1058)      9455.7  Rx     00119689  5  01 00 00 89 96 
  1059)      9460.6  Rx     00013352  7  01 00 00 0F 03 52 33 
  1060)      9460.7  Rx     00113352  5  01 00 00 52 33 
  1061)      9465.6  Rx     0001D7E4  7  01 00 00 0F 03 E4 D7 
  1062)      9465.7  Rx     0011D7E4  5  01 00 00 E4 D7 
  1063)      9470.6  Rx     00011E40  7  01 00 00 0F 03 40 1E 
  1064)      9470.7  Rx     00111E40  5  01 00 00 40 1E 
  1065)      9475.6  Rx     000151BF  7  01 00 00 0F 03 BF 51 
  1066)      9475.7  Rx     001151BF  5  01 00 00 BF 51 
  1067)      9480.6  Rx     00017126  7  01 00 00 0F 03 26 71 
  1068)      9480.7  Rx     00117126  5  01 00 00 26 71 
  1069)      9485.6  Rx     0001C5F3  7  01 00 00 0F 03 F3 C5 
  1070)      9485.7  Rx     0011C5F3  5  01 00 00 F3 C5 
  1071)      9490.6  Rx     0001976F  7  01 00 00 0F 03 6F 97 
  1072)      9490.7  Rx     0011976F  5  01 00 00 6F 97 
  1073)      9495.6  Rx     00013C8D  7  01 00 00 0F 03 8D 3C 
  1074)      9495.7  Rx     00113C8D  5  01 00 00 8D 3C 
  1075)      9500.6  Rx     0001C400  7  01 00 00 0F 03 00 C4 
  1076)      9500.7  Rx     0011C400  5  01 00 00 00 C4 
  1077)      9505.6  Rx     000166B6  7  01 00 00 0F 03 B6 66 
  1078)      9505.7  Rx     001166B6  5  01 00 00 B6 66 
  1079)      9510.6  Rx     00011296  7  01 00 00 0F 03 96 12 
  1080)      9510.7  Rx     00111296  5  01 00 00 96 12 
  1081)      9515.6  Rx     00010980  7  01 00 00 0F 03 80 09 
  1082)      9515.7  Rx     00110980  5  01 00 00 80 09 
  1083)      9520.6  Rx     00016122  7  01 00 00 0F 03 22 61 
  1084)      9520.7  Rx     00116122  5  01 00 00 22 61 
  1085)      9525.6  Rx     00017532  7  01 00 00 0F 03 32 75 
  1086)      9525.7  Rx     00117532  5  01 00 00 32 75 
  1087)      9530.6  Rx     0001E148  7  01 00 00 0F 03 48 E1 
  1088)      9530.7  Rx     0011E148  5  01 00 00 48 E1 
  1089)      9535.6  Rx     00011D4C  7  01 00 00 0F 03 4C 1D 
  1090)      9535.7  Rx     00111D4C  5  01 00 00 4C 1D 
  1091)      9540.6  Rx     0001A0E8  7  01 00 00 0F 03 E8 A0 
  1092)      9540.7  Rx     0011A0E8  5  01 00 00 E8 A0 
  1093)      9545.6  Rx     00018F57  7  01 00 00 0F 03 57 8F 
  1094)      9545.7  Rx     00118F57  5  01 00 00 57 8F 
  1095)      9550.6  Rx     0001CD5C  7  01 00 00 0F 03 5C CD 
  1096)      9550.7  Rx     0011CD5C  5  01 00 00 5C CD 
  1097)      9555.6  Rx     0001B241  7  01 00 00 0F 03 41 B2 
  1098)      9555.7  Rx     0011B241  5  01 00 00 41 B2 
  1099)      9560.6  Rx     000173CE  7  01 00 00 0F 03 CE 73 
  1100)      9560.7  Rx     001173CE  5  01 00 00 CE 73 
  1101)      9565.6  Rx     0001C1D3  7  01 00 00 0F 03 D3 C1 
  1102)      9565.7  Rx     0011C1D3  5  01 00 00 D3 C1 
  1103)      9570.6  Rx     0001F5D4  7  01 00 00 0F 03 D4 F5 
  1104)      9570.7  Rx     0011F5D4  5  01 00 00 D4 F5 
  1105)      9575.6  Rx     0001D180  7  01 00 00 0F 03 80 D1 
  1106)      9575.7  Rx     0011D180  5  01 00 00 80 D1 
  1107)      9580.6  Rx     00019033  7  01 00 00 0F 03 33 90 
  1108)      9580.7  Rx     00119033  5  01 00 00 33 90 
  1109)      9585.6  Rx     000123A5  7  01 00 00 0F 03 A5 23 
  1110)      9585.7  Rx     001123A5  5  01 00 00 A5 23 
  1111)      9590.6  Rx     0001927B  7  01 00 00 0F 03 7B 92 
  1112)      9590.7  Rx     0011927B  5  01 00 00 7B 92 
  1113)      9595.6  Rx     000179ED  7  01 00 00 0F 03 ED 79 
  1114)      9595.7  Rx     001179ED  5  01 00 00 ED 79 
  1115)      9600.6  Rx     0001E8DA  7  01 00 00 0F 03 DA E8 
  1116)      9600.7  Rx     0011E8DA  5  01 00 00 DA E8 
  1117)      9605.6  Rx     00015573  7  01 00 00 0F 03 73 55 
  1118)      9605.7  Rx     00115573  5  01 00 00 73 55 
  1119)      9610.6  Rx     0001CE50  7  01 00 00 0F 03 50 CE 
  1120)      9610.7  Rx     0011CE50  5  01 00 00 50 CE 
  1121)      9615.6  Rx     00019CE2  7  01 00 00 0F 03 E2 9C 
  1122)      9615.7  Rx     00119CE2  5  01 00 00 E2 9C 
  1123)      9620.6  Rx     0001D434  7  01 00 00 0F 03 34 D4 
  1124)      9620.7  Rx     0011D434  5  01 00 00 34 D4 
  1125)      9625.6  Rx     0001289B  7  01 00 00 0F 03 9B 28 
  1126)      9625.7  Rx     0011289B  5  01 00 00 9B 28 
  1127)      9630.6  Rx     00018CA5  7  01 00 00 0F 03 A5 8C 
  1128)      9630.7  Rx     00118CA5  5  01 00 00 A5 8C 
  1129)      9635.6  Rx     00013CA8  7  01 00 00 0F 03 A8 3C 
  1130)      9635.7  Rx     00113CA8  5  01 00 00 A8 3C 
  1131)      9640.6  Rx     0001805E  7  01 00 00 0F 03 5E 80 
  1132)      9640.7  Rx     0011805E  5  01 00 00 5E 80 
  1133)      9645.6  Rx     0001160B  7  01 00 00 0F 03 0B 16 
  1134)      9645.7  Rx     0011160B  5  01 00 00 0B 16 
  1135)      9650.6  Rx     00014905  7  01 00 00 0F 03 05 49 
  1136)      9650.7  Rx     00114905  5  01 00 00 05 49 
  1137)      9655.6  Rx     000178A6  7  01 00 00 0F 03 A6 78 
  1138)      9655.7  Rx     001178A6  5  01 00 00 A6 78 
  1139)      9660.6  Rx     00012BEB  7  01 00 00 0F 03 EB 2B 
  1140)      9660.7  Rx     00112BEB  5  01 00 00 EB 2B 
  1141)      9665.6  Rx     0001D8D0  7  01 00 00 0F 03 D0 D8 
  1142)      9665.7  Rx     0011D8D0  5  01 00 00 D0 D8 
  1143)      9670.6  Rx     0001DDD9  7  01 00 00 0F 03 D9 DD 
  1144)      9670.7  Rx     0011DDD9  5  01 00 00 D9 DD 
  1145)      9675.6  Rx     00019356  7  01 00 00 0F 03 56 93 
  1146)      9675.7  Rx     00119356  5  01 00 00 56 93 
  1147)      9680.6  Rx     00016F62  7  01 00 00 0F 03 62 6F 
  1148)      9680.7  Rx     00116F62  5  01 00 00 62 6F 
  1149)      9685.6  Rx     0001046F  7  01 00 00 0F 03 6F 04 
  1150)      9685.7  Rx     0011046F  5  01 00 00 6F 04 
  1151)      9690.6  Rx     000145CA  7  01 00 00 0F 03 CA 45 
  1152)      9690.7  Rx     001145CA  5  01 00 00 CA 45 
  1153)      9695.6  Rx     00010DFB  7  01 00 00 0F 03 FB 0D 
  1154)      9695.7  Rx     00110DFB  5  01 00 00 FB 0D 
  1155)      9700.6  Rx     0001AB85  7  01 00 00 0F 03 85 AB 
  1156)      9700.7  Rx     0011AB85  5  01 00 00 85 AB 
  1157)      9705.6  Rx     000192F6  7  01 00 00 0F 03 F6 92 
  1158)      9705.7  Rx     001192F6  5  01 00 00 F6 92 
  1159)      9710.6  Rx     00018FE3  7  01 00 00 0F 03 E3 8F 
  1160)      9710.7  Rx     00118FE3  5  01 00 00 E3 8F 
  1161)      9715.6  Rx     0001B612  7  01 00 00 0F 03 12 B6 
  1162)      9715.7  Rx     0011B612  5  01 00 00 12 B6 
  1163)      9720.5  Rx     00013C56  7  01 00 00 0F 03 56 3C 
  1164)      9720.7  Rx     00113C56  5  01 00 00 56 3C 
  1165)      9725.6  Rx     000166D1  7  01 00 00 0F 03 D1 66 
  1166)      9725.7  Rx     001166D1  5  01 00 00 D1 66 
  1167)      9730.6  Rx     00018A7D  7  01 00 00 0F 03 7D 8A 
  1168)      9730.7  Rx     00118A7D  5  01 00 00 7D 8A 
  1169)      9735.6  Rx     0001B48C  7  01 00 00 0F 03 8C B4 
  1170)      9735.7  Rx     0011B48C  5  01 00 00 8C B4 
  1171)      9740.6  Rx     0001E8DA  7  01 00 00 0F 03 DA E8 
  1172)      9740.7  Rx     0011E8DA  5  01 00 00 DA E8 
  1173)      9745.5  Rx     0001EC5D  7  01 00 00 0F 03 5D EC 
  1174)      9745.7  Rx     0011EC5D  5  01 00 00 5D EC 
  1175)      9750.5  Rx     0001A4DA  7  01 00 00 0F 03 DA A4 
  1176)      9750.7  Rx     0011A4DA  5  01 00 00 DA A4 
  1177)      9755.6  Rx     00019EB8  7  01 00 00 0F 03 B8 9E 
  1178)      9755.7  Rx     00119EB8  5  01 00 00 B8 9E 
  1179)      9760.6  Rx     0001079B  7  01 00 00 0F 03 9B 07 
  1180)      9760.7  Rx     0011079B  5  01 00 00 9B 07 
  1181)      9765.6  Rx     0001A33C  7  01 00 00 0F 03 3C A3 
  1182)      9765.7  Rx     0011A33C  5  01 00 00 3C A3 
  1183)      9770.6  Rx     0001C78E  7  01 00 00 0F 03 8E C7 
  1184)      9770.7  Rx     0011C78E  5  01 00 00 8E C7 
  1185)      9775.5  Rx     00017901  7  01 00 00 0F 03 01 79 
  1186)      9775.7  Rx     00117901  5  01 00 00 01 79 
  1187)      9780.6  Rx     0001EBEE  7  01 00 00 0F 03 EE EB 
  1188)      9780.7  Rx     0011EBEE  5  01 00 00 EE EB 
  1189)      9785.6  Rx     0001AB6D  7  01 00 00 0F 03 6D AB 
  1190)      9785.7  Rx     0011AB6D  5  01 00 00 6D AB 
  1191)      9790.6  Rx     00010BA1  7  01 00 00 0F 03 A1 0B 
  1192)      9790.7  Rx     00110BA1  5  01 00 00 A1 0B 
  1193)      9795.6  Rx     0001E35C  7  01 00 00 0F 03 5C E3 
  1194)      9795.7  Rx     0011E35C  5  01 00 00 5C E3 
  1195)      9800.5  Rx     000137F8  7  01 00 00 0F 03 F8 37 
  1196)      9800.7  Rx     001137F8  5  01 00 00 F8 37 
  1197)      9805.5  Rx     00015A1A  7  01 00 00 0F 03 1A 5A 
  1198)      9805.7  Rx     00115A1A  5  01 00 00 1A 5A 
  1199)      9810.6  Rx     0001A074  7  01 00 00 0F 03 74 A0 
  1200)      9810.7  Rx     0011A074  5  01 00 00 74 A0 
  1201)      9815.6  Rx     00010F7E  7  01 00 00 0F 03 7E 0F 
  1202)      9815.7  Rx     00110F7E  5  01 00 00 7E 0F 
  1203)      9820.6  Rx     00011F70  7  01 00 00 0F 03 70 1F 
  1204)      9820.7  Rx     00111F70  5  01 00 00 70 1F 
  1205)      9825.5  Rx     0001C22F  7  01 00 00 0F 03 2F C2 
  1206)      9825.7  Rx     0011C22F  5  01 00 00 2F C2 
  1207)      9830.5  Rx     00019C66  7  01 00 00 0F 03 66 9C 
  1208)      9830.7  Rx     00119C66  5  01 00 00 66 9C 
  1209)      9835.5  Rx     0001D8D0  7  01 00 00 0F 03 D0 D8 
  1210)      9835.7  Rx     0011D8D0  5  01 00 00 D0 D8 
  1211)      9840.6  Rx     0001C325  7  01 00 00 0F 03 25 C3 
  1212)      9840.7  Rx     0011C325  5  01 00 00 25 C3 
  1213)      9845.6  Rx     000150AE  7  01 00 00 0F 03 AE 50 
  1214)      9845.7  Rx     001150AE  5  01 00 00 AE 50 
  1215)      9850.6  Rx     0001B835  7  01 00 00 0F 03 35 B8 
  1216)      9850.7  Rx     0011B835  5  01 00 00 35 B8 
  1217)      9855.5  Rx     0001E223  7  01 00 00 0F 03 23 E2 
  1218)      9855.7  Rx     0011E223  5  01 00 00 23 E2 
  1219)      9860.5  Rx     00016D3E  7  01 00 00 0F 03 3E 6D 
  1220)      9860.7  Rx     00116D3E  5  01 00 00 3E 6D 
  1221)      9865.6  Rx     000154C4  7  01 00 00 0F 03 C4 54 
  1222)      9865.7  Rx     001154C4  5  01 00 00 C4 54 
  1223)      9870.6  Rx     00012D25  7  01 00 00 0F 03 25 2D 
  1224)      9870.6  Rx     00112D25  5  01 00 00 25 2D 
  1225)      9875.6  Rx     00018522  7  01 00 00 0F 03 22 85 
  1226)      9875.7  Rx     00118522  5  01 00 00 22 85 
  1227)      9880.5  Rx     0001FE44  7  01 00 00 0F 03 44 FE 
  1228)      9880.7  Rx     0011FE44  5  01 00 00 44 FE 
  1229)      9885.5  Rx     00018F9A  7  01 00 00 0F 03 9A 8F 
  1230)      9885.7  Rx     00118F9A  5  01 00 00 9A 8F 
  1231)      9890.5  Rx     00018DE3  7  01 00 00 0F 03 E3 8D 
  1232)      9890.7  Rx     00118DE3  5  01 00 00 E3 8D 
  1233)      9895.6  Rx     00010B8A  7  01 00 00 0F 03 8A 0B 
  1234)      9895.6  Rx     00110B8A  5  01 00 00 8A 0B 
  1235)      9900.6  Rx     000126E0  7  01 00 00 0F 03 E0 26 
  1236)      9900.7  Rx     001126E0  5  01 00 00 E0 26 
  1237)      9905.5  Rx     0001BFEC  7  01 00 00 0F 03 EC BF 
  1238)      9905.7  Rx     0011BFEC  5  01 00 00 EC BF 
  1239)      9910.5  Rx     00017E26  7  01 00 00 0F 03 26 7E 
  1240)      9910.7  Rx     00117E26  5  01 00 00 26 7E 
  1241)      9915.5  Rx     0001921B  7  01 00 00 0F 03 1B 92 
  1242)      9915.7  Rx     0011921B  5  01 00 00 1B 92 
  1243)      9920.6  Rx     0001BA62  7  01 00 00 0F 03 62 BA 
  1244)      9920.7  Rx     0011BA62  5  01 00 00 62 BA 
  1245)      9925.6  Rx     0001395A  7  01 00 00 0F 03 5A 39 
  1246)      9925.6  Rx     0011395A  5  01 00 00 5A 39 
  1247)      9930.5  Rx     00019519  7  01 00 00 0F 03 19 95 
  1248)      9930.7  Rx     00119519  5  01 00 00 19 95 
  1249)      9935.5  Rx     0001494D  7  01 00 00 0F 03 4D 49 
  1250)      9935.7  Rx     0011494D  5  01 00 00 4D 49 
  1251)      9940.5  Rx     00010608  7  01 00 00 0F 03 08 06 
  1252)      9940.7  Rx     00110608  5  01 00 00 08 06 
  1253)      9945.5  Rx     00017B81  7  01 00 00 0F 03 81 7B 
  1254)      9945.7  Rx     00117B81  5  01 00 00 81 7B 
  1255)      9950.6  Rx     0001367B  7  01 00 00 0F 03 7B 36 
  1256)      9950.6  Rx     0011367B  5  01 00 00 7B 36 
  1257)      9955.6  Rx     000163C2  7  01 00 00 0F 03 C2 63 
  1258)      9955.6  Rx     001163C2  5  01 00 00 C2 63 
  1259)      9960.5  Rx     000128FB  7  01 00 00 0F 03 FB 28 
  1260)      9960.7  Rx     001128FB  5  01 00 00 FB 28 
  1261)      9965.6  Rx     0001ACC7  7  01 00 00 0F 03 C7 AC 
  1262)      9965.7  Rx     0011ACC7  5  01 00 00 C7 AC 
  1263)      9970.6  Rx     00013E82  7  01 00 00 0F 03 82 3E 
  1264)      9970.7  Rx     00113E82  5  01 00 00 82 3E 
  1265)      9975.6  Rx     0001227E  7  01 00 00 0F 03 7E 22 
  1266)      9975.7  Rx     0011227E  5  01 00 00 7E 22 
  1267)      9980.6  Rx     00014918  7  01 00 00 0F 03 18 49 
  1268)      9980.7  Rx     00114918  5  01 00 00 18 49 
  1269)      9985.6  Rx     000140F9  7  01 00 00 0F 03 F9 40 
  1270)      9985.7  Rx     001140F9  5  01 00 00 F9 40 
  1271)      9990.6  Rx     0001F483  7  01 00 00 0F 03 83 F4 
  1272)      9990.7  Rx     0011F483  5  01 00 00 83 F4 
  1273)      9995.6  Rx     000106D7  7  01 00 00 0F 03 D7 06 
  1274)      9995.7  Rx     001106D7  5  01 00 00 D7 06 
  1275)     10000.6  Rx     0001FC74  7  01 00 00 0F 03 74 FC 
  1276)     10000.7  Rx     0011FC74  5  01 00 00 74 FC 
  1277)     10005.6  Rx     00017B96  7  01 00 00 0F 03 96 7B 
  1278)     10005.7  Rx     00117B96  5  01 00 00 96 7B 
  1279)     10010.6  Rx     0001D053  7  01 00 00 0F 03 53 D0 
  1280)     10010.7  Rx     0011D053  5  01 00 00 53 D0 
  1281)     10015.6  Rx     0001BA2C  7  01 00 00 0F 03 2C BA 
  1282)     10015.7  Rx     0011BA2C  5  01 00 00 2C BA 
  1283)     10020.6  Rx     00018F9C  7  01 00 00 0F 03 9C 8F 
  1284)     10020.7  Rx     00118F9C  5  01 00 00 9C 8F 
  1285)     10025.6  Rx     0001F9E8  7  01 00 00 0F 03 E8 F9 
  1286)     10025.7  Rx     0011F9E8  5  01 00 00 E8 F9 
  1287)     10030.5  Rx     00014E6A  7  01 00 00 0F 03 6A 4E 
  1288)     10030.7  Rx     00114E6A  5  01 00 00 6A 4E 
  1289)     10035.6  Rx     00013F58  7  01 00 00 0F 03 58 3F 
  1290)     10035.7  Rx     00113F58  5  01 00 00 58 3F 
  1291)     10040.6  Rx     00014C9E  7  01 00 00 0F 03 9E 4C 
  1292)     10040.7  Rx     00114C9E  5  01 00 00 9E 4C 
  1293)     10045.6  Rx     000158D6  7  01 00 00 0F 03 D6 58 
  1294)     10045.7  Rx     001158D6  5  01 00 00 D6 58 
  1295)     10050.6  Rx     0001A2CC  7  01 00 00 0F 03 CC A2 
  1296)     10050.7  Rx     0011A2CC  5  01 00 00 CC A2 
  1297)     10055.5  Rx     0001E5E5  7  01 00 00 0F 03 E5 E5 
  1298)     10055.7  Rx     0011E5E5  5  01 00 00 E5 E5 
  1299)     10060.6  Rx     0001E6CB  7  01 00 00 0F 03 CB E6 
  1300)     10060.7  Rx     0011E6CB  5  01 00 00 CB E6 
  1301)     10065.6  Rx     0001B67B  7  01 00 00 0F 03 7B B6 
  1302)     10065.7  Rx     0011B67B  5  01 00 00 7B B6 
  1303)     10070.6  Rx     0001BAA7  7  01 00 00 0F 03 A7 BA 
  1304)     10070.7  Rx     0011BAA7  5  01 00 00 A7 BA 
  1305)     10075.6  Rx     00017AFF  7  01 00 00 0F 03 FF 7A 
  1306)     10075.7  Rx     00117AFF  5  01 00 00 FF 7A 
  1307)     10080.6  Rx     0001A33A  7  01 00 00 0F 03 3A A3 
  1308)     10080.7  Rx     0011A33A  5  01 00 00 3A A3 
  1309)     10085.5  Rx     00013B75  7  01 00 00 0F 03 75 3B 
  1310)     10085.7  Rx     00113B75  5  01 00 00 75 3B 
  1311)     10090.6  Rx     0001E0BA  7  01 00 00 0F 03 BA E0 
  1312)     10090.7  Rx     0011E0BA  5  01 00 00 BA E0 
  1313)     10095.6  Rx     0001302E  7  01 00 00 0F 03 2E 30 
  1314)     10095.7  Rx     0011302E  5  01 00 00 2E 30 
  1315)     10100.6  Rx     0001D20B  7  01 00 00 0F 03 0B D2 
  1316)     10100.7  Rx     0011D20B  5  01 00 00 0B D2 
  1317)     10105.6  Rx     0001BBFE  7  01 00 00 0F 03 FE BB 
  1318)     10105.7  Rx     0011BBFE  5  01 00 00 FE BB 
  1319)     10110.5  Rx     0001AC7C  7  01 00 00 0F 03 7C AC 
  1320)     10110.7  Rx     0011AC7C  5  01 00 00 7C AC 
  1321)     10115.5  Rx     0001DBC2  7  01 00 00 0F 03 C2 DB 
  1322)     10115.7  Rx     0011DBC2  5  01 00 00 C2 DB 
  1323)     10120.6  Rx     0001F86F  7  01 00 00 0F 03 6F F8 
  1324)     10120.7  Rx     0011F86F  5  01 00 00 6F F8 
  1325)     10125.6  Rx     000134BC  7  01 00 00 0F 03 BC 34 
  1326)     10125.6  Rx     001134BC  5  01 00 00 BC 34 
  1327)     10130.6  Rx     0001B7F8  7  01 00 00 0F 03 F8 B7 
  1328)     10130.7  Rx     0011B7F8  5  01 00 00 F8 B7 
  1329)     10135.5  Rx     0001D70D  7  01 00 00 0F 03 0D D7 
  1330)     10135.7  Rx     0011D70D  5  01 00 00 0D D7 
  1331)     10140.5  Rx     0001476A  7  01 00 00 0F 03 6A 47 
  1332)     10140.7  Rx     0011476A  5  01 00 00 6A 47 
  1333)     10145.5  Rx     00017B57  7  01 00 00 0F 03 57 7B 
  1334)     10145.7  Rx     00117B57  5  01 00 00 57 7B 
  1335)     10150.6  Rx     00018079  7  01 00 00 0F 03 79 80 
  1336)     10150.7  Rx     00118079  5  01 00 00 79 80 
  1337)     10155.6  Rx     00013252  7  01 00 00 0F 03 52 32 
  1338)     10155.7  Rx     00113252  5  01 00 00 52 32 
  1339)     10160.5  Rx     0001C355  7  01 00 00 0F 03 55 C3 
  1340)     10160.7  Rx     0011C355  5  01 00 00 55 C3 
  1341)     10165.5  Rx     00019ECE  7  01 00 00 0F 03 CE 9E 
  1342)     10165.7  Rx     00119ECE  5  01 00 00 CE 9E 
  1343)     10170.5  Rx     000139EA  7  01 00 00 0F 03 EA 39 
  1344)     10170.7  Rx     001139EA  5  01 00 00 EA 39 
  1345)     10175.6  Rx     0001B67F  7  01 00 00 0F 03 7F B6 
  1346)     10175.7  Rx     0011B67F  5  01 00 00 7F B6 
  1347)     10180.6  Rx     0001A826  7  01 00 00 0F 03 26 A8 
  1348)     10180.6  Rx     0011A826  5  01 00 00 26 A8 
  1349)     10185.6  Rx     00019B89  7  01 00 00 0F 03 89 9B 
  1350)     10185.7  Rx     00119B89  5  01 00 00 89 9B 
  1351)     10190.5  Rx     000184F9  7  01 00 00 0F 03 F9 84 
  1352)     10190.7  Rx     001184F9  5  01 00 00 F9 84 
  1353)     10195.5  Rx     0001FC9D  7  01 00 00 0F 03 9D FC 
  1354)     10195.7  Rx     0011FC9D  5  01 00 00 9D FC 
  1355)     10200.5  Rx     0001CA6E  7  01 00 00 0F 03 6E CA 
  1356)     10200.7  Rx     0011CA6E  5  01 00 00 6E CA 
  1357)     10205.6  Rx     0001E72D  7  01 00 00 0F 03 2D E7 
  1358)     10205.6  Rx     0011E72D  5  01 00 00 2D E7 
  1359)     10210.6  Rx     00016800  7  01 00 00 0F 03 00 68 
  1360)     10210.7  Rx     00116800  5  01 00 00 00 68 
  1361)     10215.5  Rx     00017302  7  01 00 00 0F 03 02 73 
  1362)     10215.7  Rx     00117302  5  01 00 00 02 73 
  1363)     10220.5  Rx     0001C525  7  01 00 00 0F 03 25 C5 
  1364)     10220.7  Rx     0011C525  5  01 00 00 25 C5 
  1365)     10225.5  Rx     0001F032  7  01 00 00 0F 03 32 F0 
  1366)     10225.7  Rx     0011F032  5  01 00 00 32 F0 
  1367)     10230.6  Rx     0001FEA4  7  01 00 00 0F 03 A4 FE 
  1368)     10230.6  Rx     0011FEA4  5  01 00 00 A4 FE 
  1369)     10235.6  Rx     00016C4C  7  01 00 00 0F 03 4C 6C 
  1370)     10235.6  Rx     00116C4C  5  01 00 00 4C 6C 
  1371)     10240.5  Rx     00016428  7  01 00 00 0F 03 28 64 
  1372)     10240.7  Rx     00116428  5  01 00 00 28 64 
  1373)     10245.5  Rx     0001C535  7  01 00 00 0F 03 35 C5 
  1374)     10245.7  Rx     0011C535  5  01 00 00 35 C5 
  1375)     10250.5  Rx     00014839  7  01 00 00 0F 03 39 48 
  1376)     10250.7  Rx     00114839  5  01 00 00 39 48 
  1377)     10255.5  Rx     00014C0D  7  01 00 00 0F 03 0D 4C 
  1378)     10255.7  Rx     00114C0D  5  01 00 00 0D 4C 
  1379)     10260.6  Rx     0001E77D  7  01 00 00 0F 03 7D E7 
  1380)     10260.6  Rx     0011E77D  5  01 00 00 7D E7 
  1381)     10265.6  Rx     0001840E  7  01 00 00 0F 03 0E 84 
  1382)     10265.7  Rx     0011840E  5  01 00 00 0E 84 
  1383)     10270.5  Rx     000110EC  7  01 00 00 0F 03 EC 10 
  1384)     10270.7  Rx     001110EC  5  01 00 00 EC 10 
  1385)     10275.5  Rx     00016945  7  01 00 00 0F 03 45 69 
  1386)     10275.7  Rx     00116945  5  01 00 00 45 69 
  1387)     10280.5  Rx     00014F5C  7  01 00 00 0F 03 5C 4F 
  1388)     10280.7  Rx     00114F5C  5  01 00 00 5C 4F 
  1389)     10285.6  Rx     0001109F  7  01 00 00 0F 03 9F 10 
  1390)     10285.6  Rx     0011109F  5  01 00 00 9F 10 
  1391)     10290.6  Rx     0001B59E  7  01 00 00 0F 03 9E B5 
  1392)     10290.6  Rx     0011B59E  5  01 00 00 9E B5 
  1393)     10295.5  Rx     00014293  7  01 00 00 0F 03 93 42 
  1394)     10295.6  Rx     00114293  5  01 00 00 93 42 
  1395)     10300.5  Rx     0001B8EE  7  01 00 00 0F 03 EE B8 
  1396)     10300.7  Rx     0011B8EE  5  01 00 00 EE B8 
  1397)     10305.5  Rx     00018771  7  01 00 00 0F 03 71 87 
  1398)     10305.7  Rx     00118771  5  01 00 00 71 87 
  1399)     10310.5  Rx     0001E290  7  01 00 00 0F 03 90 E2 
  1400)     10310.6  Rx     0011E290  5  01 00 00 90 E2 
  1401)     10315.6  Rx     0001782A  7  01 00 00 0F 03 2A 78 
  1402)     10315.6  Rx     0011782A  5  01 00 00 2A 78 
  1403)     10320.5  Rx     0001ABD2  7  01 00 00 0F 03 D2 AB 
  1404)     10320.6  Rx     0011ABD2  5  01 00 00 D2 AB 
  1405)     10325.5  Rx     0001D800  7  01 00 00 0F 03 00 D8 
  1406)     10325.7  Rx     0011D800  5  01 00 00 00 D8 
  1407)     10330.5  Rx     000184C2  7  01 00 00 0F 03 C2 84 
  1408)     10330.7  Rx     001184C2  5  01 00 00 C2 84 
  1409)     10335.5  Rx     0001FB84  7  01 00 00 0F 03 84 FB 
  1410)     10335.7  Rx     0011FB84  5  01 00 00 84 FB 
  1411)     10340.5  Rx     00015C63  7  01 00 00 0F 03 63 5C 
  1412)     10340.6  Rx     00115C63  5  01 00 00 63 5C 
  1413)     10345.5  Rx     00015ED1  7  01 00 00 0F 03 D1 5E 
  1414)     10345.6  Rx     00115ED1  5  01 00 00 D1 5E 
  1415)     10350.5  Rx     0001821B  7  01 00 00 0F 03 1B 82 
  1416)     10350.7  Rx     0011821B  5  01 00 00 1B 82 
  1417)     10355.5  Rx     0001E4D8  7  01 00 00 0F 03 D8 E4 
  1418)     10355.7  Rx     0011E4D8  5  01 00 00 D8 E4 
  1419)     10360.5  Rx     00011ABB  7  01 00 00 0F 03 BB 1A 
  1420)     10360.7  Rx     00111ABB  5  01 00 00 BB 1A 
  1421)     10365.5  Rx     00015B47  7  01 00 00 0F 03 47 5B 
  1422)     10365.6  Rx     00115B47  5  01 00 00 47 5B 
  1423)     10370.6  Rx     00018449  7  01 00 00 0F 03 49 84 
  1424)     10370.6  Rx     00118449  5  01 00 00 49 84 
  1425)     10375.5  Rx     0001CA4B  7  01 00 00 0F 03 4B CA 
  1426)     10375.6  Rx     0011CA4B  5  01 00 00 4B CA 
  1427)     10380.5  Rx     00016E75  7  01 00 00 0F 03 75 6E 
  1428)     10380.7  Rx     00116E75  5  01 00 00 75 6E 
  1429)     10385.5  Rx     0001993A  7  01 00 00 0F 03 3A 99 
  1430)     10385.7  Rx     0011993A  5  01 00 00 3A 99 
  1431)     10390.5  Rx     0001E666  7  01 00 00 0F 03 66 E6 
  1432)     10390.6  Rx     0011E666  5  01 00 00 66 E6 
  1433)     10395.5  Rx     000194E9  7  01 00 00 0F 03 E9 94 
  1434)     10395.6  Rx     001194E9  5  01 00 00 E9 94 
  1435)     10400.5  Rx     0001A335  7  01 00 00 0F 03 35 A3 
  1436)     10400.6  Rx     0011A335  5  01 00 00 35 A3 
  1437)     10405.5  Rx     0001FA42  7  01 00 00 0F 03 42 FA 
  1438)     10405.7  Rx     0011FA42  5  01 00 00 42 FA 
  1439)     10410.5  Rx     0001655E  7  01 00 00 0F 03 5E 65 
  1440)     10410.7  Rx     0011655E  5  01 00 00 5E 65 
  1441)     10415.5  Rx     0001BF51  7  01 00 00 0F 03 51 BF 
  1442)     10415.6  Rx     0011BF51  5  01 00 00 51 BF 
  1443)     10420.5  Rx     0001E9E8  7  01 00 00 0F 03 E8 E9 
  1444)     10420.6  Rx     0011E9E8  5  01 00 00 E8 E9 
  1445)     10425.5  Rx     000102D7  7  01 00 00 0F 03 D7 02 
  1446)     10425.6  Rx     001102D7  5  01 00 00 D7 02 
  1447)     10430.5  Rx     00010712  7  01 00 00 0F 03 12 07 
  1448)     10430.6  Rx     00110712  5  01 00 00 12 07 
  1449)     10435.5  Rx     00013232  7  01 00 00 0F 03 32 32 
  1450)     10435.7  Rx     00113232  5  01 00 00 32 32 
  1451)     10440.5  Rx     0001BECB  7  01 00 00 0F 03 CB BE 
  1452)     10440.7  Rx     0011BECB  5  01 00 00 CB BE 
  1453)     10445.5  Rx     00015F1A  7  01 00 00 0F 03 1A 5F 
  1454)     10445.6  Rx     00115F1A  5  01 00 00 1A 5F 
  1455)     10450.5  Rx     0001D03B  7  01 00 00 0F 03 3B D0 
  1456)     10450.6  Rx     0011D03B  5  01 00 00 3B D0 
  1457)     10455.5  Rx     00018E79  7  01 00 00 0F 03 79 8E 
  1458)     10455.6  Rx     00118E79  5  01 00 00 79 8E 
  1459)     10460.5  Rx     00013C2C  7  01 00 00 0F 03 2C 3C 
  1460)     10460.6  Rx     00113C2C  5  01 00 00 2C 3C 
  1461)     10465.5  Rx     00018B70  7  01 00 00 0F 03 70 8B 
  1462)     10465.7  Rx     00118B70  5  01 00 00 70 8B 
  1463)     10470.5  Rx     0001BD0F  7  01 00 00 0F 03 0F BD 
  1464)     10470.6  Rx     0011BD0F  5  01 00 00 0F BD 
  1465)     10475.5  Rx     00010546  7  01 00 00 0F 03 46 05 
  1466)     10475.6  Rx     00110546  5  01 00 00 46 05 
  1467)     10480.5  Rx     00015DF2  7  01 00 00 0F 03 F2 5D 
  1468)     10480.6  Rx     00115DF2  5  01 00 00 F2 5D 
  1469)     10485.5  Rx     000150D2  7  01 00 00 0F 03 D2 50 
  1470)     10485.6  Rx     001150D2  5  01 00 00 D2 50 
  1471)     10490.5  Rx     00015CA5  7  01 00 00 0F 03 A5 5C 
  1472)     10490.6  Rx     00115CA5  5  01 00 00 A5 5C 
  1473)     10495.5  Rx     00019DA2  7  01 00 00 0F 03 A2 9D 
  1474)     10495.6  Rx     00119DA2  5  01 00 00 A2 9D 
  1475)     10500.5  Rx     000151DD  7  01 00 00 0F 03 DD 51 
  1476)     10500.6  Rx     001151DD  5  01 00 00 DD 51 
  1477)     10505.5  Rx     000158E6  7  01 00 00 0F 03 E6 58 
  1478)     10505.6  Rx     001158E6  5  01 00 00 E6 58 
  1479)     10510.5  Rx     0001D718  7  01 00 00 0F 03 18 D7 
  1480)     10510.6  Rx     0011D718  5  01 00 00 18 D7 
  1481)     10515.5  Rx     000117F1  7  01 00 00 0F 03 F1 17 
  1482)     10515.6  Rx     001117F1  5  01 00 00 F1 17 
  1483)     10520.5  Rx     0001D48D  7  01 00 00 0F 03 8D D4 
  1484)     10520.6  Rx     0011D48D  5  01 00 00 8D D4 
  1485)     10525.5  Rx     0001C9CC  7  01 00 00 0F 03 CC C9 
  1486)     10525.6  Rx     0011C9CC  5  01 00 00 CC C9 
  1487)     10530.5  Rx     0001926D  7  01 00 00 0F 03 6D 92 
  1488)     10530.6  Rx     0011926D  5  01 00 00 6D 92 
  1489)     10535.5  Rx     00010F28  7  01 00 00 0F 03 28 0F 
  1490)     10535.6  Rx     00110F28  5  01 00 00 28 0F 
  1491)     10540.5  Rx     00017B44  7  01 00 00 0F 03 44 7B 
  1492)     10540.6  Rx     00117B44  5  01 00 00 44 7B 
  1493)     10545.5  Rx     0001C5B9  7  01 00 00 0F 03 B9 C5 
  1494)     10545.6  Rx     0011C5B9  5  01 00 00 B9 C5 
  1495)     10550.5  Rx     00011634  7  01 00 00 0F 03 34 16 
  1496)     10550.6  Rx     00111634  5  01 00 00 34 16 
  1497)     10555.5  Rx     00010FBE  7  01 00 00 0F 03 BE 0F 
  1498)     10555.6  Rx     00110FBE  5  01 00 00 BE 0F 
  1499)     10560.5  Rx     0001F66A  7  01 00 00 0F 04 6A F6 
  1500)     10560.6  Rx     0011F66A  5  01 00 00 6A F6 
  1501)     10565.5  Rx     0001FE44  7  01 00 00 0F 03 44 FE 
  1502)     10565.6  Rx     0011FE44  5  01 00 00 44 FE 
  1503)     10570.5  Rx     0001E1F0  7  01 00 00 0F 03 F0 E1 
  1504)     10570.6  Rx     0011E1F0  5  01 00 00 F0 E1 
  1505)     10575.5  Rx     0001A063  7  01 00 00 0F 03 63 A0 
  1506)     10575.6  Rx     0011A063  5  01 00 00 63 A0 
  1507)     10580.5  Rx     000174D4  7  01 00 00 0F 03 D4 74 
  1508)     10580.6  Rx     001174D4  5  01 00 00 D4 74 
  1509)     10585.5  Rx     00014F82  7  01 00 00 0F 03 82 4F 
  1510)     10585.6  Rx     00114F82  5  01 00 00 82 4F 
  1511)     10590.5  Rx     00012637  7  01 00 00 0F 03 37 26 
  1512)     10590.6  Rx     00112637  5  01 00 00 37 26 
  1513)     10595.5  Rx     00015472  7  01 00 00 0F 03 72 54 
  1514)     10595.6  Rx     00115472  5  01 00 00 72 54 
  1515)     10600.5  Rx     0001F3C3  7  01 00 00 0F 03 C3 F3 
  1516)     10600.6  Rx     0011F3C3  5  01 00 00 C3 F3 
  1517)     10605.5  Rx     000142D3  7  01 00 00 0F 03 D3 42 
  1518)     10605.6  Rx     001142D3  5  01 00 00 D3 42 
  1519)     10610.5  Rx     0001B098  7  01 00 00 0F 03 98 B0 
  1520)     10610.6  Rx     0011B098  5  01 00 00 98 B0 
  1521)     10615.5  Rx     0001D026  7  01 00 00 0F 03 26 D0 
  1522)     10615.6  Rx     0011D026  5  01 00 00 26 D0 
  1523)     10620.5  Rx     000177AD  7  01 00 00 0F 03 AD 77 
  1524)     10620.6  Rx     001177AD  5  01 00 00 AD 77 
  1525)     10625.5  Rx     0001A57A  7  01 00 00 0F 03 7A A5 
  1526)     10625.6  Rx     0011A57A  5  01 00 00 7A A5 
  1527)     10630.5  Rx     0001AA3F  7  01 00 00 0F 03 3F AA 
  1528)     10630.6  Rx     0011AA3F  5  01 00 00 3F AA 
  1529)     10635.5  Rx     0001F68E  7  01 00 00 0F 03 8E F6 
  1530)     10635.6  Rx     0011F68E  5  01 00 00 8E F6 
  1531)     10640.5  Rx     000179BE  7  01 00 00 0F 03 BE 79 
  1532)     10640.6  Rx     001179BE  5  01 00 00 BE 79 
  1533)     10645.5  Rx     000122EE  7  01 00 00 0F 03 EE 22 
  1534)     10645.6  Rx     001122EE  5  01 00 00 EE 22 
  1535)     10650.5  Rx     00016159  7  01 00 00 0F 03 59 61 
  1536)     10650.6  Rx     00116159  5  01 00 00 59 61 
  1537)     10655.5  Rx     0001C941  7  01 00 00 0F 03 41 C9 
  1538)     10655.6  Rx     0011C941  5  01 00 00 41 C9 
  1539)     10660.5  Rx     0001221C  7  01 00 00 0F 03 1C 22 
  1540)     10660.6  Rx     0011221C  5  01 00 00 1C 22 
  1541)     10665.5  Rx     0001BAF1  7  01 00 00 0F 03 F1 BA 
  1542)     10665.6  Rx     0011BAF1  5  01 00 00 F1 BA 
  1543)     10670.5  Rx     00012937  7  01 00 00 0F 03 37 29 
  1544)     10670.6  Rx     00112937  5  01 00 00 37 29 
  1545)     10675.5  Rx     0001B1D1  7  01 00 00 0F 03 D1 B1 
  1546)     10675.6  Rx     0011B1D1  5  01 00 00 D1 B1 
  1547)     10680.5  Rx     0001A6ED  7  01 00 00 0F 03 ED A6 
  1548)     10680.6  Rx     0011A6ED  5  01 00 00 ED A6 
  1549)     10685.5  Rx     00016364  7  01 00 00 0F 03 64 63 
  1550)     10685.6  Rx     00116364  5  01 00 00 64 63 
  1551)     10690.5  Rx     00012D35  7  01 00 00 0F 03 35 2D 
  1552)     10690.6  Rx     00112D35  5  01 00 00 35 2D 
  1553)     10695.5  Rx     00015D00  7  01 00 00 0F 03 00 5D 
  1554)     10695.6  Rx     00115D00  5  01 00 00 00 5D 
  1555)     10700.5  Rx     00018818  7  01 00 00 0F 03 18 88 
  1556)     10700.6  Rx     00118818  5  01 00 00 18 88 
  1557)     10705.5  Rx     000195D8  7  01 00 00 0F 03 D8 95 
  1558)     10705.6  Rx     001195D8  5  01 00 00 D8 95 
  1559)     10710.5  Rx     00012A58  7  01 00 00 0F 03 58 2A 
  1560)     10710.6  Rx     00112A58  5  01 00 00 58 2A 
  1561)     10715.5  Rx     0001FBB4  7  01 00 00 0F 03 B4 FB 
  1562)     10715.6  Rx     0011FBB4  5  01 00 00 B4 FB 
  1563)     10720.5  Rx     0001FFCE  7  01 00 00 0F 03 CE FF 
  1564)     10720.6  Rx     0011FFCE  5  01 00 00 CE FF 
  1565)     10725.5  Rx     0001E8E3  7  01 00 00 0F 03 E3 E8 
  1566)     10725.6  Rx     0011E8E3  5  01 00 00 E3 E8 
  1567)     10730.5  Rx     000153B8  7  01 00 00 0F 03 B8 53 
  1568)     10730.6  Rx     001153B8  5  01 00 00 B8 53 
  1569)     10735.5  Rx     000119AA  7  01 00 00 0F 03 AA 19 
  1570)     10735.6  Rx     001119AA  5  01 00 00 AA 19 
  1571)     10740.5  Rx     00012FC7  7  01 00 00 0F 03 C7 2F 
  1572)     10740.6  Rx     00112FC7  5  01 00 00 C7 2F 
  1573)     10745.5  Rx     00018538  7  01 00 00 0F 03 38 85 
  1574)     10745.6  Rx     00118538  5  01 00 00 38 85 
  1575)     10750.5  Rx     000115A3  7  01 00 00 0F 03 A3 15 
  1576)     10750.6  Rx     001115A3  5  01 00 00 A3 15 
  1577)     10755.5  Rx     0001EDEC  7  01 00 00 0F 03 EC ED 
  1578)     10755.6  Rx     0011EDEC  5  01 00 00 EC ED 
  1579)     10760.5  Rx     0001834C  7  01 00 00 0F 03 4C 83 
  1580)     10760.6  Rx     0011834C  5  01 00 00 4C 83 
  1581)     10765.5  Rx     0001D274  7  01 00 00 0F 03 74 D2 
  1582)     10765.6  Rx     0011D274  5  01 00 00 74 D2 
  1583)     10770.5  Rx     0001F77C  7  01 00 00 0F 03 7C F7 
  1584)     10770.6  Rx     0011F77C  5  01 00 00 7C F7 
  1585)     10775.5  Rx     00013503  7  01 00 00 0F 03 03 35 
  1586)     10775.6  Rx     00113503  5  01 00 00 03 35 
  1587)     10780.5  Rx     000101F7  7  01 00 00 0F 03 F7 01 
  1588)     10780.6  Rx     001101F7  5  01 00 00 F7 01 
  1589)     10785.5  Rx     0001FBB8  7  01 00 00 0F 03 B8 FB 
  1590)     10785.6  Rx     0011FBB8  5  01 00 00 B8 FB 
  1591)     10790.5  Rx     00014C68  7  01 00 00 0F 03 68 4C 
  1592)     10790.6  Rx     00114C68  5  01 00 00 68 4C 
  1593)     10795.5  Rx     000160EB  7  01 00 00 0F 03 EB 60 
  1594)     10795.6  Rx     001160EB  5  01 00 00 EB 60 
  1595)     10800.5  Rx     00019B3C  7  01 00 00 0F 03 3C 9B 
  1596)     10800.6  Rx     00119B3C  5  01 00 00 3C 9B 
  1597)     10805.5  Rx     000173FA  7  01 00 00 0F 03 FA 73 
  1598)     10805.6  Rx     001173FA  5  01 00 00 FA 73 
  1599)     10810.5  Rx     00012EA7  7  01 00 00 0F 03 A7 2E 
  1600)     10810.6  Rx     00112EA7  5  01 00 00 A7 2E 
  1601)     10815.5  Rx     00019ACA  7  01 00 00 0F 03 CA 9A 
  1602)     10815.6  Rx     00119ACA  5  01 00 00 CA 9A 
  1603)     10820.5  Rx     00016EA6  7  01 00 00 0F 03 A6 6E 
  1604)     10820.6  Rx     00116EA6  5  01 00 00 A6 6E 
  1605)     10825.5  Rx     0001961A  7  01 00 00 0F 03 1A 96 
  1606)     10825.6  Rx     0011961A  5  01 00 00 1A 96 
  1607)     10830.5  Rx     00011DC1  7  01 00 00 0F 03 C1 1D 
  1608)     10830.6  Rx     00111DC1  5  01 00 00 C1 1D 
  1609)     10835.5  Rx     0001D25F  7  01 00 00 0F 03 5F D2 
  1610)     10835.6  Rx     0011D25F  5  01 00 00 5F D2 
  1611)     10840.5  Rx     000120E1  7  01 00 00 0F 03 E1 20 
  1612)     10840.6  Rx     001120E1  5  01 00 00 E1 20 
  1613)     10845.5  Rx     000138B7  7  01 00 00 0F 03 B7 38 
  1614)     10845.6  Rx     001138B7  5  01 00 00 B7 38 
  1615)     10850.5  Rx     0001FF68  7  01 00 00 0F 03 68 FF 
  1616)     10850.6  Rx     0011FF68  5  01 00 00 68 FF 
  1617)     10855.5  Rx     0001DF3B  7  01 00 00 0F 03 3B DF 
  1618)     10855.6  Rx     0011DF3B  5  01 00 00 3B DF 
  1619)     10860.5  Rx     0001397B  7  01 00 00 0F 03 7B 39 
  1620)     10860.6  Rx     0011397B  5  01 00 00 7B 39 
  1621)     10865.5  Rx     000131BF  7  01 00 00 0F 03 BF 31 
  1622)     10865.6  Rx     001131BF  5  01 00 00 BF 31 
  1623)     10870.5  Rx     0001C718  7  01 00 00 0F 03 18 C7 
  1624)     10870.6  Rx     0011C718  5  01 00 00 18 C7 
  1625)     10875.5  Rx     000173B2  7  01 00 00 0F 03 B2 73 
  1626)     10875.6  Rx     001173B2  5  01 00 00 B2 73 
  1627)     10880.5  Rx     00016169  7  01 00 00 0F 03 69 61 
  1628)     10880.6  Rx     00116169  5  01 00 00 69 61 
  1629)     10885.5  Rx     0001DDC7  7  01 00 00 0F 03 C7 DD 
  1630)     10885.6  Rx     0011DDC7  5  01 00 00 C7 DD 
  1631)     10890.5  Rx     00015C7E  7  01 00 00 0F 03 7E 5C 
