;$FILEVERSION=1.1
;$STARTTIME=46290.6840104745
;
;   Start time: 25/09/2026 16:24:58.505.0
;   Generated by PCAN-View v5.3.3.958
;
;   Message Number
;   |         Time Offset (ms)
;   |         |        Type
;   |         |        |        ID (hex)
;   |         |        |        |     Data Length
;   |         |        |        |     |   Data Bytes (hex) ...
;   |         |        |        |     |   |
;---+--   ----+----  --+--  ----+---  +  -+ -- -- -- -- -- -- --
     1)      6605.6  Rx     00010643  7  01 00 00 0F 00 43 06 
     2)      6605.8  Rx     00110643  5  01 00 00 43 06 
     3)      6610.6  Rx     0001914B  7  01 00 00 0F 03 4B 91 
     4)      6610.8  Rx     0011914B  5  01 00 00 4B 91 
     5)      6615.7  Rx     0001DAD2  7  01 00 00 0F 03 D2 DA 
     6)      6615.8  Rx     0011DAD2  5  01 00 00 D2 DA 
     7)      6620.7  Rx     0001A570  7  01 00 00 0F 03 70 A5 
     8)      6620.7  Rx     0011A570  5  01 00 00 70 A5 
     9)      6625.7  Rx     000118E3  7  01 00 00 0F 03 E3 18 
    10)      6625.8  Rx     001118E3  5  01 00 00 E3 18 
    11)      6630.6  Rx     00012177  7  01 00 00 0F 03 77 21 
    12)      6630.8  Rx     00112177  5  01 00 00 77 21 
    13)      6635.6  Rx     0001030F  7  01 00 00 0F 03 0F 03 
    14)      6635.8  Rx     0011030F  5  01 00 00 0F 03 
    15)      6640.6  Rx     0001B29A  7  01 00 00 0F 03 9A B2 
    16)      6640.8  Rx     0011B29A  5  01 00 00 9A B2 
    17)      6645.7  Rx     000125FC  7  01 00 00 0F 03 FC 25 
    18)      6645.7  Rx     001125FC  5  01 00 00 FC 25 
    19)      6650.7  Rx     000175D2  7  01 00 00 0F 03 D2 75 
    20)      6650.8  Rx     001175D2  5  01 00 00 D2 75 
    21)      6655.6  Rx     0001051D  7  01 00 00 0F 03 1D 05 
    22)      6655.8  Rx     0011051D  5  01 00 00 1D 05 
    23)      6660.6  Rx     00010584  7  01 00 00 0F 03 84 05 
    24)      6660.8  Rx     00110584  5  01 00 00 84 05 
    25)      6665.6  Rx     0001886C  7  01 00 00 0F 03 6C 88 
    26)      6665.8  Rx     0011886C  5  01 00 00 6C 88 
    27)      6670.7  Rx     000140AE  7  01 00 00 0F 03 AE 40 
    28)      6670.7  Rx     001140AE  5  01 00 00 AE 40 
    29)      6675.7  Rx     0001E74B  7  01 00 00 0F 03 4B E7 
    30)      6675.7  Rx     0011E74B  5  01 00 00 4B E7 
    31)      6680.6  Rx     000183CC  7  01 00 00 0F 03 CC 83 
    32)      6680.8  Rx     001183CC  5  01 00 00 CC 83 
    33)      6685.6  Rx     0001CF6C  7  01 00 00 0F 03 6C CF 
    34)      6685.8  Rx     0011CF6C  5  01 00 00 6C CF 
    35)      6690.6  Rx     00010988  7  01 00 00 0F 03 88 09 
    36)      6690.8  Rx     00110988  5  01 00 00 88 09 
    37)      6695.6  Rx     00011F6D  7  01 00 00 0F 03 6D 1F 
    38)      6695.8  Rx     00111F6D  5  01 00 00 6D 1F 
    39)      6700.7  Rx     0001C8F1  7  01 00 00 0F 03 F1 C8 
    40)      6700.7  Rx     0011C8F1  5  01 00 00 F1 C8 
    41)      6705.6  Rx     00011793  7  01 00 00 0F 03 93 17 
    42)      6705.7  Rx     00111793  5  01 00 00 93 17 
    43)      6710.6  Rx     0001D0D9  7  01 00 00 0F 03 D9 D0 
    44)      6710.8  Rx     0011D0D9  5  01 00 00 D9 D0 
    45)      6715.6  Rx     00017BC0  7  01 00 00 0F 03 C0 7B 
    46)      6715.8  Rx     00117BC0  5  01 00 00 C0 7B 
    47)      6720.6  Rx     00015B7E  7  01 00 00 0F 03 7E 5B 
    48)      6720.8  Rx     00115B7E  5  01 00 00 7E 5B 
    49)      6725.6  Rx     0001509B  7  01 00 00 0F 03 9B 50 
    50)      6725.7  Rx     0011509B  5  01 00 00 9B 50 
    51)      6730.7  Rx     00019BAC  7  01 00 00 0F 03 AC 9B 
    52)      6730.7  Rx     00119BAC  5  01 00 00 AC 9B 
    53)      6735.6  Rx     0001E28B  7  01 00 00 0F 03 8B E2 
    54)      6735.8  Rx     0011E28B  5  01 00 00 8B E2 
    55)      6740.6  Rx     00019C02  7  01 00 00 0F 03 02 9C 
    56)      6740.8  Rx     00119C02  5  01 00 00 02 9C 
    57)      6745.6  Rx     000197E6  7  01 00 00 0F 03 E6 97 
    58)      6745.8  Rx     001197E6  5  01 00 00 E6 97 
    59)      6750.6  Rx     0001FEF3  7  01 00 00 0F 03 F3 FE 
    60)      6750.7  Rx     0011FEF3  5  01 00 00 F3 FE 
    61)      6755.7  Rx     0001308A  7  01 00 00 0F 03 8A 30 
    62)      6755.7  Rx     0011308A  5  01 00 00 8A 30 
    63)      6760.6  Rx     0001FDC6  7  01 00 00 0F 03 C6 FD 
    64)      6760.8  Rx     0011FDC6  5  01 00 00 C6 FD 
    65)      6765.6  Rx     00016FBE  7  01 00 00 0F 03 BE 6F 
    66)      6765.8  Rx     00116FBE  5  01 00 00 BE 6F 
    67)      6770.6  Rx     0001B699  7  01 00 00 0F 03 99 B6 
    68)      6770.8  Rx     0011B699  5  01 00 00 99 B6 
    69)      6775.6  Rx     0001FE09  7  01 00 00 0F 03 09 FE 
    70)      6775.7  Rx     0011FE09  5  01 00 00 09 FE 
    71)      6780.6  Rx     0001E53C  7  01 00 00 0F 03 3C E5 
    72)      6780.7  Rx     0011E53C  5  01 00 00 3C E5 
    73)      6785.6  Rx     00013B5E  7  01 00 00 0F 03 5E 3B 
    74)      6785.7  Rx     00113B5E  5  01 00 00 5E 3B 
    75)      6790.6  Rx     00012857  7  01 00 00 0F 03 57 28 
    76)      6790.7  Rx     00112857  5  01 00 00 57 28 
    77)      6795.6  Rx     000176D2  7  01 00 00 0F 03 D2 76 
    78)      6795.8  Rx     001176D2  5  01 00 00 D2 76 
    79)      6800.6  Rx     0001E438  7  01 00 00 0F 03 38 E4 
    80)      6800.8  Rx     0011E438  5  01 00 00 38 E4 
    81)      6805.6  Rx     00015BB4  7  01 00 00 0F 03 B4 5B 
    82)      6805.7  Rx     00115BB4  5  01 00 00 B4 5B 
    83)      6810.7  Rx     00010A46  7  01 00 00 0F 03 46 0A 
    84)      6810.7  Rx     00110A46  5  01 00 00 46 0A 
    85)      6815.6  Rx     000114C7  7  01 00 00 0F 03 C7 14 
    86)      6815.7  Rx     001114C7  5  01 00 00 C7 14 
    87)      6820.6  Rx     0001B3E1  7  01 00 00 0F 03 E1 B3 
    88)      6820.8  Rx     0011B3E1  5  01 00 00 E1 B3 
    89)      6825.6  Rx     0001ACE3  7  01 00 00 0F 03 E3 AC 
    90)      6825.8  Rx     0011ACE3  5  01 00 00 E3 AC 
    91)      6830.6  Rx     0001D938  7  01 00 00 0F 03 38 D9 
    92)      6830.7  Rx     0011D938  5  01 00 00 38 D9 
    93)      6835.6  Rx     0001994D  7  01 00 00 0F 03 4D 99 
    94)      6835.7  Rx     0011994D  5  01 00 00 4D 99 
    95)      6840.6  Rx     00013C65  7  01 00 00 0F 03 65 3C 
    96)      6840.7  Rx     00113C65  5  01 00 00 65 3C 
    97)      6845.6  Rx     0001B88A  7  01 00 00 0F 03 8A B8 
    98)      6845.7  Rx     0011B88A  5  01 00 00 8A B8 
    99)      6850.6  Rx     00017EC6  7  01 00 00 0F 03 C6 7E 
   100)      6850.8  Rx     00117EC6  5  01 00 00 C6 7E 
   101)      6855.6  Rx     0001B56F  7  01 00 00 0F 03 6F B5 
   102)      6855.7  Rx     0011B56F  5  01 00 00 6F B5 
   103)      6860.6  Rx     0001C26E  7  01 00 00 0F 03 6E C2 
   104)      6860.7  Rx     0011C26E  5  01 00 00 6E C2 
   105)      6865.6  Rx     000110C6  7  01 00 00 0F 03 C6 10 
   106)      6865.7  Rx     001110C6  5  01 00 00 C6 10 
   107)      6870.6  Rx     0001CF27  7  01 00 00 0F 03 27 CF 
   108)      6870.7  Rx     0011CF27  5  01 00 00 27 CF 
   109)      6875.6  Rx     0001E8BD  7  01 00 00 0F 03 BD E8 
   110)      6875.7  Rx     0011E8BD  5  01 00 00 BD E8 
   111)      6880.6  Rx     0001DA57  7  01 00 00 0F 03 57 DA 
   112)      6880.8  Rx     0011DA57  5  01 00 00 57 DA 
   113)      6885.6  Rx     00019BF8  7  01 00 00 0F 03 F8 9B 
   114)      6885.7  Rx     00119BF8  5  01 00 00 F8 9B 
   115)      6890.6  Rx     000126C6  7  01 00 00 0F 03 C6 26 
   116)      6890.7  Rx     001126C6  5  01 00 00 C6 26 
   117)      6895.6  Rx     00015AF8  7  01 00 00 0F 03 F8 5A 
   118)      6895.7  Rx     00115AF8  5  01 00 00 F8 5A 
   119)      6900.6  Rx     0001851D  7  01 00 00 0F 03 1D 85 
   120)      6900.7  Rx     0011851D  5  01 00 00 1D 85 
   121)      6905.6  Rx     0001E945  7  01 00 00 0F 03 45 E9 
   122)      6905.8  Rx     0011E945  5  01 00 00 45 E9 
   123)      6910.6  Rx     0001F391  7  01 00 00 0F 03 91 F3 
   124)      6910.7  Rx     0011F391  5  01 00 00 91 F3 
   125)      6915.6  Rx     0001946F  7  01 00 00 0F 03 6F 94 
   126)      6915.7  Rx     0011946F  5  01 00 00 6F 94 
   127)      6920.6  Rx     00014716  7  01 00 00 0F 03 16 47 
   128)      6920.7  Rx     00114716  5  01 00 00 16 47 
   129)      6925.6  Rx     000181E1  7  01 00 00 0F 03 E1 81 
   130)      6925.7  Rx     001181E1  5  01 00 00 E1 81 
   131)      6930.6  Rx     00014611  7  01 00 00 0F 03 11 46 
   132)      6930.7  Rx     00114611  5  01 00 00 11 46 
   133)      6935.6  Rx     00017127  7  01 00 00 0F 03 27 71 
   134)      6935.7  Rx     00117127  5  01 00 00 27 71 
   135)      6940.6  Rx     00012063  7  01 00 00 0F 03 63 20 
   136)      6940.7  Rx     00112063  5  01 00 00 63 20 
   137)      6945.6  Rx     0001370B  7  01 00 00 0F 03 0B 37 
   138)      6945.7  Rx     0011370B  5  01 00 00 0B 37 
   139)      6950.6  Rx     0001623E  7  01 00 00 0F 03 3E 62 
   140)      6950.7  Rx     0011623E  5  01 00 00 3E 62 
   141)      6955.6  Rx     0001CABC  7  01 00 00 0F 03 BC CA 
   142)      6955.7  Rx     0011CABC  5  01 00 00 BC CA 
   143)      6960.6  Rx     0001BB26  7  01 00 00 0F 03 26 BB 
   144)      6960.7  Rx     0011BB26  5  01 00 00 26 BB 
   145)      6965.6  Rx     000160D7  7  01 00 00 0F 03 D7 60 
   146)      6965.7  Rx     001160D7  5  01 00 00 D7 60 
   147)      6970.6  Rx     0001500F  7  01 00 00 0F 03 0F 50 
   148)      6970.7  Rx     0011500F  5  01 00 00 0F 50 
   149)      6975.6  Rx     00015D09  7  01 00 00 0F 03 09 5D 
   150)      6975.7  Rx     00115D09  5  01 00 00 09 5D 
   151)      6980.6  Rx     00016373  7  01 00 00 0F 03 73 63 
   152)      6980.7  Rx     00116373  5  01 00 00 73 63 
   153)      6985.6  Rx     000159AD  7  01 00 00 0F 03 AD 59 
   154)      6985.7  Rx     001159AD  5  01 00 00 AD 59 
   155)      6990.6  Rx     00016FD3  7  01 00 00 0F 03 D3 6F 
   156)      6990.7  Rx     00116FD3  5  01 00 00 D3 6F 
   157)      6995.6  Rx     00019989  7  01 00 00 0F 03 89 99 
   158)      6995.7  Rx     00119989  5  01 00 00 89 99 
   159)      7000.6  Rx     00011D06  7  01 00 00 0F 03 06 1D 
   160)      7000.7  Rx     00111D06  5  01 00 00 06 1D 
   161)      7005.6  Rx     00019E94  7  01 00 00 0F 03 94 9E 
   162)      7005.7  Rx     00119E94  5  01 00 00 94 9E 
   163)      7010.6  Rx     0001F242  7  01 00 00 0F 03 42 F2 
   164)      7010.7  Rx     0011F242  5  01 00 00 42 F2 
   165)      7015.6  Rx     0001697A  7  01 00 00 0F 03 7A 69 
   166)      7015.7  Rx     0011697A  5  01 00 00 7A 69 
   167)      7020.6  Rx     0001C6B9  7  01 00 00 0F 03 B9 C6 
   168)      7020.7  Rx     0011C6B9  5  01 00 00 B9 C6 
   169)      7025.6  Rx     0001382E  7  01 00 00 0F 03 2E 38 
   170)      7025.7  Rx     0011382E  5  01 00 00 2E 38 
   171)      7030.6  Rx     00018C51  7  01 00 00 0F 03 51 8C 
   172)      7030.7  Rx     00118C51  5  01 00 00 51 8C 
   173)      7035.6  Rx     00010AC7  7  01 00 00 0F 03 C7 0A 
   174)      7035.7  Rx     00110AC7  5  01 00 00 C7 0A 
   175)      7040.6  Rx     00010BB3  7  01 00 00 0F 03 B3 0B 
   176)      7040.7  Rx     00110BB3  5  01 00 00 B3 0B 
   177)      7045.6  Rx     00010882  7  01 00 00 0F 03 82 08 
   178)      7045.7  Rx     00110882  5  01 00 00 82 08 
   179)      7050.6  Rx     0001F6C8  7  01 00 00 0F 03 C8 F6 
   180)      7050.7  Rx     0011F6C8  5  01 00 00 C8 F6 
   181)      7055.6  Rx     0001D7A2  7  01 00 00 0F 03 A2 D7 
   182)      7055.7  Rx     0011D7A2  5  01 00 00 A2 D7 
   183)      7060.6  Rx     00018260  7  01 00 00 0F 03 60 82 
   184)      7060.7  Rx     00118260  5  01 00 00 60 82 
   185)      7065.6  Rx     0001157C  7  01 00 00 0F 03 7C 15 
   186)      7065.7  Rx     0011157C  5  01 00 00 7C 15 
   187)      7070.6  Rx     00016D93  7  01 00 00 0F 03 93 6D 
   188)      7070.7  Rx     00116D93  5  01 00 00 93 6D 
   189)      7075.6  Rx     000114F3  7  01 00 00 0F 03 F3 14 
   190)      7075.7  Rx     001114F3  5  01 00 00 F3 14 
   191)      7080.6  Rx     0001C523  7  01 00 00 0F 03 23 C5 
   192)      7080.7  Rx     0011C523  5  01 00 00 23 C5 
   193)      7085.6  Rx     0001E034  7  01 00 00 0F 03 34 E0 
   194)      7085.7  Rx     0011E034  5  01 00 00 34 E0 
   195)      7090.6  Rx     000166DB  7  01 00 00 0F 03 DB 66 
   196)      7090.7  Rx     001166DB  5  01 00 00 DB 66 
   197)      7095.6  Rx     0001D373  7  01 00 00 0F 03 73 D3 
   198)      7095.7  Rx     0011D373  5  01 00 00 73 D3 
   199)      7100.6  Rx     000170CC  7  01 00 00 0F 03 CC 70 
   200)      7100.7  Rx     001170CC  5  01 00 00 CC 70 
   201)      7105.6  Rx     0001B0F1  7  01 00 00 0F 03 F1 B0 
   202)      7105.7  Rx     0011B0F1  5  01 00 00 F1 B0 
   203)      7110.6  Rx     0001F1D4  7  01 00 00 0F 03 D4 F1 
   204)      7110.7  Rx     0011F1D4  5  01 00 00 D4 F1 
   205)      7115.6  Rx     0001A396  7  01 00 00 0F 03 96 A3 
   206)      7115.7  Rx     0011A396  5  01 00 00 96 A3 
   207)      7120.6  Rx     000148CB  7  01 00 00 0F 03 CB 48 
   208)      7120.7  Rx     001148CB  5  01 00 00 CB 48 
   209)      7125.6  Rx     0001DFEB  7  01 00 00 0F 03 EB DF 
   210)      7125.7  Rx     0011DFEB  5  01 00 00 EB DF 
   211)      7130.6  Rx     00017154  7  01 00 00 0F 03 54 71 
   212)      7130.7  Rx     00117154  5  01 00 00 54 71 
   213)      7135.6  Rx     0001782C  7  01 00 00 0F 03 2C 78 
   214)      7135.7  Rx     0011782C  5  01 00 00 2C 78 
   215)      7140.6  Rx     00012D21  7  01 00 00 0F 03 21 2D 
   216)      7140.7  Rx     00112D21  5  01 00 00 21 2D 
   217)      7145.6  Rx     000132D3  7  01 00 00 0F 03 D3 32 
   218)      7145.7  Rx     001132D3  5  01 00 00 D3 32 
   219)      7150.6  Rx     00011E27  7  01 00 00 0F 03 27 1E 
   220)      7150.7  Rx     00111E27  5  01 00 00 27 1E 
   221)      7155.6  Rx     000183C6  7  01 00 00 0F 03 C6 83 
   222)      7155.7  Rx     001183C6  5  01 00 00 C6 83 
   223)      7160.6  Rx     00014219  7  01 00 00 0F 03 19 42 
   224)      7160.7  Rx     00114219  5  01 00 00 19 42 
   225)      7165.6  Rx     00012313  7  01 00 00 0F 03 13 23 
   226)      7165.7  Rx     00112313  5  01 00 00 13 23 
   227)      7170.6  Rx     00018124  7  01 00 00 0F 03 24 81 
   228)      7170.7  Rx     00118124  5  01 00 00 24 81 
   229)      7175.6  Rx     0001DCD9  7  01 00 00 0F 03 D9 DC 
   230)      7175.7  Rx     0011DCD9  5  01 00 00 D9 DC 
   231)      7180.6  Rx     0001EDBA  7  01 00 00 0F 03 BA ED 
   232)      7180.7  Rx     0011EDBA  5  01 00 00 BA ED 
   233)      7185.6  Rx     000130D4  7  01 00 00 0F 03 D4 30 
   234)      7185.7  Rx     001130D4  5  01 00 00 D4 30 
   235)      7190.6  Rx     000130FD  7  01 00 00 0F 03 FD 30 
   236)      7190.7  Rx     001130FD  5  01 00 00 FD 30 
   237)      7195.6  Rx     00017CA3  7  01 00 00 0F 03 A3 7C 
   238)      7195.7  Rx     00117CA3  5  01 00 00 A3 7C 
   239)      7200.6  Rx     000102FA  7  01 00 00 0F 03 FA 02 
   240)      7200.7  Rx     001102FA  5  01 00 00 FA 02 
   241)      7205.6  Rx     00013AC3  7  01 00 00 0F 03 C3 3A 
   242)      7205.7  Rx     00113AC3  5  01 00 00 C3 3A 
   243)      7210.6  Rx     00012FD9  7  01 00 00 0F 03 D9 2F 
   244)      7210.7  Rx     00112FD9  5  01 00 00 D9 2F 
   245)      7215.6  Rx     0001F8D0  7  01 00 00 0F 03 D0 F8 
   246)      7215.7  Rx     0011F8D0  5  01 00 00 D0 F8 
   247)      7220.6  Rx     0001AAB3  7  01 00 00 0F 03 B3 AA 
   248)      7220.7  Rx     0011AAB3  5  01 00 00 B3 AA 
   249)      7225.6  Rx     0001BA92  7  01 00 00 0F 03 92 BA 
   250)      7225.7  Rx     0011BA92  5  01 00 00 92 BA 
   251)      7230.6  Rx     000194A3  7  01 00 00 0F 03 A3 94 
   252)      7230.7  Rx     001194A3  5  01 00 00 A3 94 
   253)      7235.6  Rx     00014FDC  7  01 00 00 0F 03 DC 4F 
   254)      7235.7  Rx     00114FDC  5  01 00 00 DC 4F 
   255)      7240.6  Rx     00019656  7  01 00 00 0F 03 56 96 
   256)      7240.7  Rx     00119656  5  01 00 00 56 96 
   257)      7245.6  Rx     00012E40  7  01 00 00 0F 03 40 2E 
   258)      7245.7  Rx     00112E40  5  01 00 00 40 2E 
   259)      7250.6  Rx     0001301F  7  01 00 00 0F 03 1F 30 
   260)      7250.7  Rx     0011301F  5  01 00 00 1F 30 
   261)      7255.6  Rx     0001BC36  7  01 00 00 0F 03 36 BC 
   262)      7255.7  Rx     0011BC36  5  01 00 00 36 BC 
   263)      7260.6  Rx     0001FC60  7  01 00 00 0F 03 60 FC 
   264)      7260.7  Rx     0011FC60  5  01 00 00 60 FC 
   265)      7265.6  Rx     00014E18  7  01 00 00 0F 03 18 4E 
   266)      7265.7  Rx     00114E18  5  01 00 00 18 4E 
   267)      7270.6  Rx     0001F1C1  7  01 00 00 0F 03 C1 F1 
   268)      7270.7  Rx     0011F1C1  5  01 00 00 C1 F1 
   269)      7275.6  Rx     00019A28  7  01 00 00 0F 03 28 9A 
   270)      7275.7  Rx     00119A28  5  01 00 00 28 9A 
   271)      7280.6  Rx     0001B68F  7  01 00 00 0F 03 8F B6 
   272)      7280.7  Rx     0011B68F  5  01 00 00 8F B6 
   273)      7285.6  Rx     00016F7A  7  01 00 00 0F 03 7A 6F 
   274)      7285.7  Rx     00116F7A  5  01 00 00 7A 6F 
   275)      7290.6  Rx     0001883D  7  01 00 00 0F 03 3D 88 
   276)      7290.7  Rx     0011883D  5  01 00 00 3D 88 
   277)      7295.6  Rx     00010C78  7  01 00 00 0F 03 78 0C 
   278)      7295.7  Rx     00110C78  5  01 00 00 78 0C 
   279)      7300.6  Rx     000139D3  7  01 00 00 0F 03 D3 39 
   280)      7300.7  Rx     001139D3  5  01 00 00 D3 39 
   281)      7305.6  Rx     0001CC5B  7  01 00 00 0F 03 5B CC 
   282)      7305.7  Rx     0011CC5B  5  01 00 00 5B CC 
   283)      7310.6  Rx     000105DC  7  01 00 00 0F 03 DC 05 
   284)      7310.7  Rx     001105DC  5  01 00 00 DC 05 
   285)      7315.6  Rx     0001F7CD  7  01 00 00 0F 03 CD F7 
   286)      7315.7  Rx     0011F7CD  5  01 00 00 CD F7 
   287)      7320.6  Rx     0001C806  7  01 00 00 0F 03 06 C8 
   288)      7320.7  Rx     0011C806  5  01 00 00 06 C8 
   289)      7325.6  Rx     0001DF8D  7  01 00 00 0F 03 8D DF 
   290)      7325.7  Rx     0011DF8D  5  01 00 00 8D DF 
   291)      7330.6  Rx     00015493  7  01 00 00 0F 03 93 54 
   292)      7330.7  Rx     00115493  5  01 00 00 93 54 
   293)      7335.6  Rx     0001ACD2  7  01 00 00 0F 03 D2 AC 
   294)      7335.7  Rx     0011ACD2  5  01 00 00 D2 AC 
   295)      7340.6  Rx     0001635A  7  01 00 00 0F 03 5A 63 
   296)      7340.7  Rx     0011635A  5  01 00 00 5A 63 
   297)      7345.6  Rx     000199BE  7  01 00 00 0F 03 BE 99 
   298)      7345.7  Rx     001199BE  5  01 00 00 BE 99 
   299)      7350.6  Rx     0001D5D5  7  01 00 00 0F 03 D5 D5 
   300)      7350.7  Rx     0011D5D5  5  01 00 00 D5 D5 
   301)      7355.6  Rx     0001E51C  7  01 00 00 0F 03 1C E5 
   302)      7355.7  Rx     0011E51C  5  01 00 00 1C E5 
   303)      7360.6  Rx     0001EB95  7  01 00 00 0F 03 95 EB 
   304)      7360.7  Rx     0011EB95  5  01 00 00 95 EB 
   305)      7365.6  Rx     0001CF42  7  01 00 00 0F 03 42 CF 
   306)      7365.7  Rx     0011CF42  5  01 00 00 42 CF 
   307)      7370.6  Rx     0001EA23  7  01 00 00 0F 03 23 EA 
   308)      7370.7  Rx     0011EA23  5  01 00 00 23 EA 
   309)      7375.6  Rx     000162CC  7  01 00 00 0F 03 CC 62 
   310)      7375.7  Rx     001162CC  5  01 00 00 CC 62 
   311)      7380.6  Rx     000124FF  7  01 00 00 0F 03 FF 24 
   312)      7380.7  Rx     001124FF  5  01 00 00 FF 24 
   313)      7385.6  Rx     00017A8F  7  01 00 00 0F 03 8F 7A 
   314)      7385.7  Rx     00117A8F  5  01 00 00 8F 7A 
   315)      7390.6  Rx     00018867  7  01 00 00 0F 03 67 88 
   316)      7390.7  Rx     00118867  5  01 00 00 67 88 
   317)      7395.6  Rx     0001E2F2  7  01 00 00 0F 03 F2 E2 
   318)      7395.7  Rx     0011E2F2  5  01 00 00 F2 E2 
   319)      7400.6  Rx     0001DD16  7  01 00 00 0F 03 16 DD 
   320)      7400.7  Rx     0011DD16  5  01 00 00 16 DD 
   321)      7405.6  Rx     0001078B  7  01 00 00 0F 03 8B 07 
   322)      7405.7  Rx     0011078B  5  01 00 00 8B 07 
   323)      7410.6  Rx     0001CD05  7  01 00 00 0F 03 05 CD 
   324)      7410.7  Rx     0011CD05  5  01 00 00 05 CD 
   325)      7415.6  Rx     0001DAB7  7  01 00 00 0F 03 B7 DA 
   326)      7415.7  Rx     0011DAB7  5  01 00 00 B7 DA 
   327)      7420.6  Rx     0001E106  7  01 00 00 0F 03 06 E1 
   328)      7420.7  Rx     0011E106  5  01 00 00 06 E1 
   329)      7425.6  Rx     0001AB88  7  01 00 00 0F 03 88 AB 
   330)      7425.7  Rx     0011AB88  5  01 00 00 88 AB 
   331)      7430.6  Rx     000180AD  7  01 00 00 0F 03 AD 80 
   332)      7430.7  Rx     001180AD  5  01 00 00 AD 80 
   333)      7435.6  Rx     00015739  7  01 00 00 0F 03 39 57 
   334)      7435.7  Rx     00115739  5  01 00 00 39 57 
   335)      7440.6  Rx     00011DDB  7  01 00 00 0F 03 DB 1D 
   336)      7440.7  Rx     00111DDB  5  01 00 00 DB 1D 
   337)      7445.6  Rx     0001B20B  7  01 00 00 0F 03 0B B2 
   338)      7445.7  Rx     0011B20B  5  01 00 00 0B B2 
   339)      7450.6  Rx     0001B6F1  7  01 00 00 0F 03 F1 B6 
   340)      7450.7  Rx     0011B6F1  5  01 00 00 F1 B6 
   341)      7455.6  Rx     0001B434  7  01 00 00 0F 03 34 B4 
   342)      7455.7  Rx     0011B434  5  01 00 00 34 B4 
   343)      7460.6  Rx     0001AA72  7  01 00 00 0F 03 72 AA 
   344)      7460.7  Rx     0011AA72  5  01 00 00 72 AA 
   345)      7465.6  Rx     0001D24F  7  01 00 00 0F 03 4F D2 
   346)      7465.7  Rx     0011D24F  5  01 00 00 4F D2 
   347)      7470.6  Rx     0001489A  7  01 00 00 0F 03 9A 48 
   348)      7470.7  Rx     0011489A  5  01 00 00 9A 48 
   349)      7475.6  Rx     00018D65  7  01 00 00 0F 03 65 8D 
   350)      7475.7  Rx     00118D65  5  01 00 00 65 8D 
   351)      7480.5  Rx     0001D734  7  01 00 00 0F 03 34 D7 
   352)      7480.7  Rx     0011D734  5  01 00 00 34 D7 
   353)      7485.6  Rx     0001758C  7  01 00 00 0F 03 8C 75 
   354)      7485.7  Rx     0011758C  5  01 00 00 8C 75 
   355)      7490.6  Rx     000185B9  7  01 00 00 0F 03 B9 85 
   356)      7490.7  Rx     001185B9  5  01 00 00 B9 85 
   357)      7495.6  Rx     00017EAE  7  01 00 00 0F 03 AE 7E 
   358)      7495.7  Rx     00117EAE  5  01 00 00 AE 7E 
   359)      7500.6  Rx     00013F81  7  01 00 00 0F 03 81 3F 
   360)      7500.7  Rx     00113F81  5  01 00 00 81 3F 
   361)      7505.6  Rx     00010DF6  7  01 00 00 0F 03 F6 0D 
   362)      7505.7  Rx     00110DF6  5  01 00 00 F6 0D 
   363)      7510.6  Rx     00019F7F  7  01 00 00 0F 03 7F 9F 
   364)      7510.7  Rx     00119F7F  5  01 00 00 7F 9F 
   365)      7515.6  Rx     0001DEF8  7  01 00 00 0F 03 F8 DE 
   366)      7515.7  Rx     0011DEF8  5  01 00 00 F8 DE 
   367)      7520.6  Rx     0001D8EC  7  01 00 00 0F 03 EC D8 
   368)      7520.7  Rx     0011D8EC  5  01 00 00 EC D8 
   369)      7525.6  Rx     00016687  7  01 00 00 0F 03 87 66 
   370)      7525.7  Rx     00116687  5  01 00 00 87 66 
   371)      7530.6  Rx     00014DCC  7  01 00 00 0F 03 CC 4D 
   372)      7530.7  Rx     00114DCC  5  01 00 00 CC 4D 
   373)      7535.5  Rx     0001B1DB  7  01 00 00 0F 03 DB B1 
   374)      7535.7  Rx     0011B1DB  5  01 00 00 DB B1 
   375)      7540.6  Rx     00010C2B  7  01 00 00 0F 03 2B 0C 
   376)      7540.7  Rx     00110C2B  5  01 00 00 2B 0C 
   377)      7545.6  Rx     0001EF7C  7  01 00 00 0F 03 7C EF 
   378)      7545.7  Rx     0011EF7C  5  01 00 00 7C EF 
   379)      7550.6  Rx     00016889  7  01 00 00 0F 03 89 68 
   380)      7550.7  Rx     00116889  5  01 00 00 89 68 
   381)      7555.6  Rx     00016FFF  7  01 00 00 0F 03 FF 6F 
   382)      7555.7  Rx     00116FFF  5  01 00 00 FF 6F 
   383)      7560.6  Rx     0001BBCC  7  01 00 00 0F 03 CC BB 
   384)      7560.7  Rx     0011BBCC  5  01 00 00 CC BB 
   385)      7565.6  Rx     0001079F  7  01 00 00 0F 03 9F 07 
   386)      7565.7  Rx     0011079F  5  01 00 00 9F 07 
   387)      7570.6  Rx     000158B5  7  01 00 00 0F 03 B5 58 
   388)      7570.7  Rx     001158B5  5  01 00 00 B5 58 
   389)      7575.6  Rx     0001C63F  7  01 00 00 0F 03 3F C6 
   390)      7575.7  Rx     0011C63F  5  01 00 00 3F C6 
   391)      7580.6  Rx     00013CA7  7  01 00 00 0F 03 A7 3C 
   392)      7580.7  Rx     00113CA7  5  01 00 00 A7 3C 
   393)      7585.6  Rx     0001624A  7  01 00 00 0F 03 4A 62 
   394)      7585.7  Rx     0011624A  5  01 00 00 4A 62 
   395)      7590.6  Rx     0001C940  7  01 00 00 0F 03 40 C9 
   396)      7590.7  Rx     0011C940  5  01 00 00 40 C9 
   397)      7595.6  Rx     00017392  7  01 00 00 0F 03 92 73 
   398)      7595.7  Rx     00117392  5  01 00 00 92 73 
   399)      7600.6  Rx     0001A416  7  01 00 00 0F 03 16 A4 
   400)      7600.7  Rx     0011A416  5  01 00 00 16 A4 
   401)      7605.6  Rx     00014626  7  01 00 00 0F 03 26 46 
   402)      7605.7  Rx     00114626  5  01 00 00 26 46 
   403)      7610.6  Rx     00011B9A  7  01 00 00 0F 03 9A 1B 
   404)      7610.7  Rx     00111B9A  5  01 00 00 9A 1B 
   405)      7615.6  Rx     000111AA  7  01 00 00 0F 03 AA 11 
   406)      7615.7  Rx     001111AA  5  01 00 00 AA 11 
   407)      7620.6  Rx     00019BE6  7  01 00 00 0F 03 E6 9B 
   408)      7620.7  Rx     00119BE6  5  01 00 00 E6 9B 
   409)      7625.6  Rx     0001DCB6  7  01 00 00 0F 03 B6 DC 
   410)      7625.7  Rx     0011DCB6  5  01 00 00 B6 DC 
   411)      7630.6  Rx     00010809  7  01 00 00 0F 03 09 08 
   412)      7630.7  Rx     00110809  5  01 00 00 09 08 
   413)      7635.6  Rx     0001F458  7  01 00 00 0F 03 58 F4 
   414)      7635.7  Rx     0011F458  5  01 00 00 58 F4 
   415)      7640.6  Rx     0001880B  7  01 00 00 0F 03 0B 88 
   416)      7640.7  Rx     0011880B  5  01 00 00 0B 88 
   417)      7645.6  Rx     00018A97  7  01 00 00 0F 03 97 8A 
   418)      7645.7  Rx     00118A97  5  01 00 00 97 8A 
   419)      7650.6  Rx     000131BD  7  01 00 00 0F 03 BD 31 
   420)      7650.7  Rx     001131BD  5  01 00 00 BD 31 
   421)      7655.6  Rx     0001EBB5  7  01 00 00 0F 03 B5 EB 
   422)      7655.7  Rx     0011EBB5  5  01 00 00 B5 EB 
   423)      7660.6  Rx     0001A216  7  01 00 00 0F 03 16 A2 
   424)      7660.7  Rx     0011A216  5  01 00 00 16 A2 
   425)      7665.6  Rx     00013483  7  01 00 00 0F 03 83 34 
   426)      7665.7  Rx     00113483  5  01 00 00 83 34 
   427)      7670.6  Rx     0001AAA4  7  01 00 00 0F 03 A4 AA 
   428)      7670.7  Rx     0011AAA4  5  01 00 00 A4 AA 
   429)      7675.6  Rx     00010500  7  01 00 00 0F 03 00 05 
   430)      7675.7  Rx     00110500  5  01 00 00 00 05 
   431)      7680.6  Rx     0001FA66  7  01 00 00 0F 03 66 FA 
   432)      7680.7  Rx     0011FA66  5  01 00 00 66 FA 
   433)      7685.6  Rx     0001A51A  7  01 00 00 0F 03 1A A5 
   434)      7685.7  Rx     0011A51A  5  01 00 00 1A A5 
   435)      7690.6  Rx     00017AFE  7  01 00 00 0F 03 FE 7A 
   436)      7690.7  Rx     00117AFE  5  01 00 00 FE 7A 
   437)      7695.6  Rx     00018648  7  01 00 00 0F 03 48 86 
   438)      7695.7  Rx     00118648  5  01 00 00 48 86 
   439)      7700.6  Rx     00018B20  7  01 00 00 0F 03 20 8B 
   440)      7700.7  Rx     00118B20  5  01 00 00 20 8B 
   441)      7705.6  Rx     0001BB5F  7  01 00 00 0F 03 5F BB 
   442)      7705.7  Rx     0011BB5F  5  01 00 00 5F BB 
   443)      7710.6  Rx     000150AF  7  01 00 00 0F 03 AF 50 
   444)      7710.7  Rx     001150AF  5  01 00 00 AF 50 
   445)      7715.6  Rx     000194C9  7  01 00 00 0F 03 C9 94 
   446)      7715.7  Rx     001194C9  5  01 00 00 C9 94 
   447)      7720.6  Rx     000148DF  7  01 00 00 0F 03 DF 48 
   448)      7720.7  Rx     001148DF  5  01 00 00 DF 48 
   449)      7725.6  Rx     0001D603  7  01 00 00 0F 03 03 D6 
   450)      7725.7  Rx     0011D603  5  01 00 00 03 D6 
   451)      7730.6  Rx     0001F657  7  01 00 00 0F 03 57 F6 
   452)      7730.7  Rx     0011F657  5  01 00 00 57 F6 
   453)      7735.6  Rx     00011A16  7  01 00 00 0F 03 16 1A 
   454)      7735.7  Rx     00111A16  5  01 00 00 16 1A 
   455)      7740.6  Rx     0001312A  7  01 00 00 0F 03 2A 31 
   456)      7740.7  Rx     0011312A  5  01 00 00 2A 31 
   457)      7745.6  Rx     00011F64  7  01 00 00 0F 03 64 1F 
   458)      7745.7  Rx     00111F64  5  01 00 00 64 1F 
   459)      7750.6  Rx     0001E222  7  01 00 00 0F 03 22 E2 
   460)      7750.7  Rx     0011E222  5  01 00 00 22 E2 
   461)      7755.6  Rx     00018FFB  7  01 00 00 0F 03 FB 8F 
   462)      7755.7  Rx     00118FFB  5  01 00 00 FB 8F 
   463)      7760.6  Rx     000166A9  7  01 00 00 0F 03 A9 66 
   464)      7760.7  Rx     001166A9  5  01 00 00 A9 66 
   465)      7765.6  Rx     0001D253  7  01 00 00 0F 03 53 D2 
   466)      7765.7  Rx     0011D253  5  01 00 00 53 D2 
   467)      7770.6  Rx     0001D45E  7  01 00 00 0F 03 5E D4 
   468)      7770.7  Rx     0011D45E  5  01 00 00 5E D4 
   469)      7775.6  Rx     0001C71F  7  01 00 00 0F 03 1F C7 
   470)      7775.7  Rx     0011C71F  5  01 00 00 1F C7 
   471)      7780.6  Rx     00012B16  7  01 00 00 0F 03 16 2B 
   472)      7780.7  Rx     00112B16  5  01 00 00 16 2B 
   473)      7785.6  Rx     00019398  7  01 00 00 0F 03 98 93 
   474)      7785.7  Rx     00119398  5  01 00 00 98 93 
   475)      7790.5  Rx     000161D0  7  01 00 00 0F 03 D0 61 
   476)      7790.7  Rx     001161D0  5  01 00 00 D0 61 
   477)      7795.6  Rx     0001C46C  7  01 00 00 0F 03 6C C4 
   478)      7795.7  Rx     0011C46C  5  01 00 00 6C C4 
   479)      7800.6  Rx     0001FEF4  7  01 00 00 0F 03 F4 FE 
   480)      7800.7  Rx     0011FEF4  5  01 00 00 F4 FE 
   481)      7805.6  Rx     0001B836  7  01 00 00 0F 03 36 B8 
   482)      7805.7  Rx     0011B836  5  01 00 00 36 B8 
   483)      7810.6  Rx     000181C7  7  01 00 00 0F 03 C7 81 
   484)      7810.7  Rx     001181C7  5  01 00 00 C7 81 
   485)      7815.6  Rx     0001912E  7  01 00 00 0F 03 2E 91 
   486)      7815.7  Rx     0011912E  5  01 00 00 2E 91 
   487)      7820.6  Rx     0001B301  7  01 00 00 0F 03 01 B3 
   488)      7820.7  Rx     0011B301  5  01 00 00 01 B3 
   489)      7825.6  Rx     0001AC6E  7  01 00 00 0F 03 6E AC 
   490)      7825.7  Rx     0011AC6E  5  01 00 00 6E AC 
   491)      7830.6  Rx     000117EC  7  01 00 00 0F 03 EC 17 
   492)      7830.7  Rx     001117EC  5  01 00 00 EC 17 
   493)      7835.6  Rx     000101FC  7  01 00 00 0F 03 FC 01 
   494)      7835.7  Rx     001101FC  5  01 00 00 FC 01 
   495)      7840.6  Rx     00016B6B  7  01 00 00 0F 03 6B 6B 
   496)      7840.7  Rx     00116B6B  5  01 00 00 6B 6B 
   497)      7845.5  Rx     00012783  7  01 00 00 0F 03 83 27 
   498)      7845.7  Rx     00112783  5  01 00 00 83 27 
   499)      7850.6  Rx     00018DDF  7  01 00 00 0F 03 DF 8D 
   500)      7850.7  Rx     00118DDF  5  01 00 00 DF 8D 
   501)      7855.6  Rx     00018059  7  01 00 00 0F 03 59 80 
   502)      7855.7  Rx     00118059  5  01 00 00 59 80 
   503)      7860.6  Rx     0001B8C5  7  01 00 00 0F 03 C5 B8 
   504)      7860.7  Rx     0011B8C5  5  01 00 00 C5 B8 
   505)      7865.6  Rx     00017C42  7  01 00 00 0F 03 42 7C 
   506)      7865.7  Rx     00117C42  5  01 00 00 42 7C 
   507)      7870.5  Rx     00016482  7  01 00 00 0F 03 82 64 
   508)      7870.7  Rx     00116482  5  01 00 00 82 64 
   509)      7875.5  Rx     0001F719  7  01 00 00 0F 03 19 F7 
   510)      7875.7  Rx     0011F719  5  01 00 00 19 F7 
   511)      7880.6  Rx     0001AEB7  7  01 00 00 0F 03 B7 AE 
   512)      7880.7  Rx     0011AEB7  5  01 00 00 B7 AE 
   513)      7885.6  Rx     00010E40  7  01 00 00 0F 03 40 0E 
   514)      7885.7  Rx     00110E40  5  01 00 00 40 0E 
   515)      7890.6  Rx     0001BD12  7  01 00 00 0F 03 12 BD 
   516)      7890.7  Rx     0011BD12  5  01 00 00 12 BD 
   517)      7895.5  Rx     00018184  7  01 00 00 0F 03 84 81 
   518)      7895.7  Rx     00118184  5  01 00 00 84 81 
   519)      7900.5  Rx     0001E077  7  01 00 00 0F 03 77 E0 
   520)      7900.7  Rx     0011E077  5  01 00 00 77 E0 
   521)      7905.6  Rx     00017BE0  7  01 00 00 0F 03 E0 7B 
   522)      7905.7  Rx     00117BE0  5  01 00 00 E0 7B 
   523)      7910.6  Rx     0001E9FA  7  01 00 00 0F 03 FA E9 
   524)      7910.7  Rx     0011E9FA  5  01 00 00 FA E9 
   525)      7915.6  Rx     00014D3C  7  01 00 00 0F 03 3C 4D 
   526)      7915.7  Rx     00114D3C  5  01 00 00 3C 4D 
   527)      7920.6  Rx     000186FB  7  01 00 00 0F 03 FB 86 
   528)      7920.7  Rx     001186FB  5  01 00 00 FB 86 
   529)      7925.5  Rx     0001ED1B  7  01 00 00 0F 03 1B ED 
   530)      7925.7  Rx     0011ED1B  5  01 00 00 1B ED 
   531)      7930.5  Rx     00010766  7  01 00 00 0F 03 66 07 
   532)      7930.7  Rx     00110766  5  01 00 00 66 07 
   533)      7935.6  Rx     00016EDE  7  01 00 00 0F 03 DE 6E 
   534)      7935.7  Rx     00116EDE  5  01 00 00 DE 6E 
   535)      7940.6  Rx     000178EA  7  01 00 00 0F 03 EA 78 
   536)      7940.6  Rx     001178EA  5  01 00 00 EA 78 
   537)      7945.6  Rx     00018EFE  7  01 00 00 0F 03 FE 8E 
   538)      7945.7  Rx     00118EFE  5  01 00 00 FE 8E 
   539)      7950.5  Rx     00017B99  7  01 00 00 0F 03 99 7B 
   540)      7950.7  Rx     00117B99  5  01 00 00 99 7B 
   541)      7955.5  Rx     00019D69  7  01 00 00 0F 03 69 9D 
   542)      7955.7  Rx     00119D69  5  01 00 00 69 9D 
   543)      7960.6  Rx     00015856  7  01 00 00 0F 03 56 58 
   544)      7960.7  Rx     00115856  5  01 00 00 56 58 
   545)      7965.6  Rx     0001A7F1  7  01 00 00 0F 03 F1 A7 
   546)      7965.6  Rx     0011A7F1  5  01 00 00 F1 A7 
   547)      7970.6  Rx     00018EFE  7  01 00 00 0F 03 FE 8E 
   548)      7970.7  Rx     00118EFE  5  01 00 00 FE 8E 
   549)      7975.5  Rx     00011862  7  01 00 00 0F 03 62 18 
   550)      7975.7  Rx     00111862  5  01 00 00 62 18 
   551)      7980.5  Rx     0001862A  7  01 00 00 0F 03 2A 86 
   552)      7980.7  Rx     0011862A  5  01 00 00 2A 86 
   553)      7985.5  Rx     000114BD  7  01 00 00 0F 03 BD 14 
   554)      7985.7  Rx     001114BD  5  01 00 00 BD 14 
   555)      7990.6  Rx     00010400  7  01 00 00 0F 03 00 04 
   556)      7990.7  Rx     00110400  5  01 00 00 00 04 
   557)      7995.6  Rx     00016CB3  7  01 00 00 0F 03 B3 6C 
   558)      7995.6  Rx     00116CB3  5  01 00 00 B3 6C 
   559)      8000.6  Rx     00014364  7  01 00 00 0F 03 64 43 
   560)      8000.7  Rx     00114364  5  01 00 00 64 43 
   561)      8005.5  Rx     00018A4B  7  01 00 00 0F 03 4B 8A 
   562)      8005.7  Rx     00118A4B  5  01 00 00 4B 8A 
   563)      8010.5  Rx     0001A699  7  01 00 00 0F 03 99 A6 
   564)      8010.7  Rx     0011A699  5  01 00 00 99 A6 
   565)      8015.5  Rx     00014057  7  01 00 00 0F 03 57 40 
   566)      8015.7  Rx     00114057  5  01 00 00 57 40 
   567)      8020.6  Rx     0001B402  7  01 00 00 0F 03 02 B4 
   568)      8020.6  Rx     0011B402  5  01 00 00 02 B4 
   569)      8025.6  Rx     0001D82C  7  01 00 00 0F 03 2C D8 
   570)      8025.7  Rx     0011D82C  5  01 00 00 2C D8 
   571)      8030.5  Rx     0001C3AA  7  01 00 00 0F 03 AA C3 
   572)      8030.7  Rx     0011C3AA  5  01 00 00 AA C3 
   573)      8035.5  Rx     000130B6  7  01 00 00 0F 03 B6 30 
   574)      8035.7  Rx     001130B6  5  01 00 00 B6 30 
   575)      8040.5  Rx     000107BD  7  01 00 00 0F 03 BD 07 
   576)      8040.7  Rx     001107BD  5  01 00 00 BD 07 
   577)      8045.6  Rx     000157DC  7  01 00 00 0F 03 DC 57 
   578)      8045.6  Rx     001157DC  5  01 00 00 DC 57 
   579)      8050.6  Rx     0001D410  7  01 00 00 0F 03 10 D4 
   580)      8050.6  Rx     0011D410  5  01 00 00 10 D4 
   581)      8055.5  Rx     000193D0  7  01 00 00 0F 03 D0 93 
   582)      8055.7  Rx     001193D0  5  01 00 00 D0 93 
   583)      8060.5  Rx     00016477  7  01 00 00 0F 03 77 64 
   584)      8060.7  Rx     00116477  5  01 00 00 77 64 
   585)      8065.5  Rx     000114C5  7  01 00 00 0F 03 C5 14 
   586)      8065.7  Rx     001114C5  5  01 00 00 C5 14 
   587)      8070.5  Rx     00010B72  7  01 00 00 0F 03 72 0B 
   588)      8070.7  Rx     00110B72  5  01 00 00 72 0B 
   589)      8075.6  Rx     00014C1C  7  01 00 00 0F 03 1C 4C 
   590)      8075.6  Rx     00114C1C  5  01 00 00 1C 4C 
   591)      8080.5  Rx     00012274  7  01 00 00 0F 03 74 22 
   592)      8080.6  Rx     00112274  5  01 00 00 74 22 
   593)      8085.5  Rx     00014104  7  01 00 00 0F 03 04 41 
   594)      8085.7  Rx     00114104  5  01 00 00 04 41 
   595)      8090.5  Rx     0001CEDB  7  01 00 00 0F 03 DB CE 
   596)      8090.7  Rx     0011CEDB  5  01 00 00 DB CE 
   597)      8095.5  Rx     0001AF2D  7  01 00 00 0F 03 2D AF 
   598)      8095.7  Rx     0011AF2D  5  01 00 00 2D AF 
   599)      8100.5  Rx     0001AE4B  7  01 00 00 0F 03 4B AE 
   600)      8100.6  Rx     0011AE4B  5  01 00 00 4B AE 
   601)      8105.6  Rx     000172EE  7  01 00 00 0F 03 EE 72 
   602)      8105.6  Rx     001172EE  5  01 00 00 EE 72 
   603)      8110.5  Rx     0001670B  7  01 00 00 0F 03 0B 67 
   604)      8110.6  Rx     0011670B  5  01 00 00 0B 67 
   605)      8115.5  Rx     00012319  7  01 00 00 0F 03 19 23 
   606)      8115.7  Rx     00112319  5  01 00 00 19 23 
   607)      8120.5  Rx     0001B899  7  01 00 00 0F 03 99 B8 
   608)      8120.7  Rx     0011B899  5  01 00 00 99 B8 
   609)      8125.5  Rx     0001EF51  7  01 00 00 0F 03 51 EF 
   610)      8125.6  Rx     0011EF51  5  01 00 00 51 EF 
   611)      8130.6  Rx     00017A8C  7  01 00 00 0F 03 8C 7A 
   612)      8130.6  Rx     00117A8C  5  01 00 00 8C 7A 
   613)      8135.5  Rx     00011E98  7  01 00 00 0F 03 98 1E 
   614)      8135.6  Rx     00111E98  5  01 00 00 98 1E 
   615)      8140.5  Rx     0001477B  7  01 00 00 0F 03 7B 47 
   616)      8140.7  Rx     0011477B  5  01 00 00 7B 47 
   617)      8145.5  Rx     00010879  7  01 00 00 0F 03 79 08 
   618)      8145.7  Rx     00110879  5  01 00 00 79 08 
   619)      8150.5  Rx     00019B86  7  01 00 00 0F 03 86 9B 
   620)      8150.6  Rx     00119B86  5  01 00 00 86 9B 
   621)      8155.5  Rx     0001EBEE  7  01 00 00 0F 03 EE EB 
   622)      8155.6  Rx     0011EBEE  5  01 00 00 EE EB 
   623)      8160.5  Rx     0001A9B8  7  01 00 00 0F 03 B8 A9 
   624)      8160.6  Rx     0011A9B8  5  01 00 00 B8 A9 
   625)      8165.5  Rx     000171F9  7  01 00 00 0F 03 F9 71 
   626)      8165.7  Rx     001171F9  5  01 00 00 F9 71 
   627)      8170.5  Rx     0001E552  7  01 00 00 0F 03 52 E5 
   628)      8170.7  Rx     0011E552  5  01 00 00 52 E5 
   629)      8175.5  Rx     00016689  7  01 00 00 0F 03 89 66 
   630)      8175.7  Rx     00116689  5  01 00 00 89 66 
   631)      8180.5  Rx     0001A7C0  7  01 00 00 0F 03 C0 A7 
   632)      8180.6  Rx     0011A7C0  5  01 00 00 C0 A7 
   633)      8185.5  Rx     00016D25  7  01 00 00 0F 03 25 6D 
   634)      8185.6  Rx     00116D25  5  01 00 00 25 6D 
   635)      8190.5  Rx     000189CF  7  01 00 00 0F 03 CF 89 
   636)      8190.6  Rx     001189CF  5  01 00 00 CF 89 
   637)      8195.5  Rx     0001E76A  7  01 00 00 0F 03 6A E7 
   638)      8195.6  Rx     0011E76A  5  01 00 00 6A E7 
   639)      8200.5  Rx     00017658  7  01 00 00 0F 03 58 76 
   640)      8200.7  Rx     00117658  5  01 00 00 58 76 
   641)      8205.5  Rx     00014660  7  01 00 00 0F 03 60 46 
   642)      8205.6  Rx     00114660  5  01 00 00 60 46 
   643)      8210.5  Rx     00015A77  7  01 00 00 0F 03 77 5A 
   644)      8210.6  Rx     00115A77  5  01 00 00 77 5A 
   645)      8215.5  Rx     0001F043  7  01 00 00 0F 03 43 F0 
   646)      8215.6  Rx     0011F043  5  01 00 00 43 F0 
   647)      8220.5  Rx     0001E712  7  01 00 00 0F 03 12 E7 
   648)      8220.6  Rx     0011E712  5  01 00 00 12 E7 
   649)      8225.5  Rx     00018F1B  7  01 00 00 0F 03 1B 8F 
   650)      8225.7  Rx     00118F1B  5  01 00 00 1B 8F 
   651)      8230.5  Rx     00015930  7  01 00 00 0F 03 30 59 
   652)      8230.6  Rx     00115930  5  01 00 00 30 59 
   653)      8235.5  Rx     00013164  7  01 00 00 0F 03 64 31 
   654)      8235.6  Rx     00113164  5  01 00 00 64 31 
   655)      8240.5  Rx     00015A7D  7  01 00 00 0F 03 7D 5A 
   656)      8240.6  Rx     00115A7D  5  01 00 00 7D 5A 
   657)      8245.5  Rx     00016498  7  01 00 00 0F 03 98 64 
   658)      8245.6  Rx     00116498  5  01 00 00 98 64 
   659)      8250.5  Rx     00014CE3  7  01 00 00 0F 03 E3 4C 
   660)      8250.6  Rx     00114CE3  5  01 00 00 E3 4C 
   661)      8255.5  Rx     00012255  7  01 00 00 0F 03 55 22 
   662)      8255.7  Rx     00112255  5  01 00 00 55 22 
   663)      8260.5  Rx     0001DC20  7  01 00 00 0F 03 20 DC 
   664)      8260.6  Rx     0011DC20  5  01 00 00 20 DC 
   665)      8265.5  Rx     0001DF72  7  01 00 00 0F 03 72 DF 
   666)      8265.6  Rx     0011DF72  5  01 00 00 72 DF 
   667)      8270.5  Rx     000151CD  7  01 00 00 0F 03 CD 51 
   668)      8270.6  Rx     001151CD  5  01 00 00 CD 51 
   669)      8275.5  Rx     0001ED42  7  01 00 00 0F 03 42 ED 
   670)      8275.6  Rx     0011ED42  5  01 00 00 42 ED 
   671)      8280.5  Rx     00013C27  7  01 00 00 0F 03 27 3C 
   672)      8280.7  Rx     00113C27  5  01 00 00 27 3C 
   673)      8285.5  Rx     000133DC  7  01 00 00 0F 03 DC 33 
   674)      8285.6  Rx     001133DC  5  01 00 00 DC 33 
   675)      8290.5  Rx     00016197  7  01 00 00 0F 03 97 61 
   676)      8290.6  Rx     00116197  5  01 00 00 97 61 
   677)      8295.5  Rx     0001411A  7  01 00 00 0F 03 1A 41 
   678)      8295.6  Rx     0011411A  5  01 00 00 1A 41 
   679)      8300.5  Rx     00010ED9  7  01 00 00 0F 03 D9 0E 
   680)      8300.6  Rx     00110ED9  5  01 00 00 D9 0E 
   681)      8305.5  Rx     000132AB  7  01 00 00 0F 03 AB 32 
   682)      8305.6  Rx     001132AB  5  01 00 00 AB 32 
   683)      8310.5  Rx     0001EF27  7  01 00 00 0F 03 27 EF 
   684)      8310.6  Rx     0011EF27  5  01 00 00 27 EF 
   685)      8315.5  Rx     00011A75  7  01 00 00 0F 03 75 1A 
   686)      8315.6  Rx     00111A75  5  01 00 00 75 1A 
   687)      8320.5  Rx     0001B9D0  7  01 00 00 0F 03 D0 B9 
   688)      8320.6  Rx     0011B9D0  5  01 00 00 D0 B9 
   689)      8325.5  Rx     00017B15  7  01 00 00 0F 03 15 7B 
   690)      8325.6  Rx     00117B15  5  01 00 00 15 7B 
   691)      8330.5  Rx     00016E33  7  01 00 00 0F 03 33 6E 
   692)      8330.6  Rx     00116E33  5  01 00 00 33 6E 
   693)      8335.5  Rx     00019339  7  01 00 00 0F 03 39 93 
   694)      8335.6  Rx     00119339  5  01 00 00 39 93 
   695)      8340.5  Rx     0001A2E7  7  01 00 00 0F 03 E7 A2 
   696)      8340.6  Rx     0011A2E7  5  01 00 00 E7 A2 
   697)      8345.5  Rx     0001D535  7  01 00 00 0F 03 35 D5 
   698)      8345.6  Rx     0011D535  5  01 00 00 35 D5 
   699)      8350.5  Rx     0001DE99  7  01 00 00 0F 03 99 DE 
   700)      8350.6  Rx     0011DE99  5  01 00 00 99 DE 
   701)      8355.5  Rx     0001B0FA  7  01 00 00 0F 03 FA B0 
   702)      8355.6  Rx     0011B0FA  5  01 00 00 FA B0 
   703)      8360.5  Rx     000118F1  7  01 00 00 0F 03 F1 18 
   704)      8360.6  Rx     001118F1  5  01 00 00 F1 18 
   705)      8365.5  Rx     00018555  7  01 00 00 0F 03 55 85 
   706)      8365.6  Rx     00118555  5  01 00 00 55 85 
   707)      8370.5  Rx     00017371  7  01 00 00 0F 03 71 73 
   708)      8370.6  Rx     00117371  5  01 00 00 71 73 
   709)      8375.5  Rx     00014225  7  01 00 00 0F 03 25 42 
   710)      8375.6  Rx     00114225  5  01 00 00 25 42 
   711)      8380.5  Rx     00017E2E  7  01 00 00 0F 03 2E 7E 
   712)      8380.6  Rx     00117E2E  5  01 00 00 2E 7E 
   713)      8385.5  Rx     00018BEB  7  01 00 00 0F 03 EB 8B 
   714)      8385.6  Rx     00118BEB  5  01 00 00 EB 8B 
   715)      8390.5  Rx     0001FDDE  7  01 00 00 0F 03 DE FD 
   716)      8390.6  Rx     0011FDDE  5  01 00 00 DE FD 
   717)      8395.5  Rx     000195DB  7  01 00 00 0F 03 DB 95 
   718)      8395.6  Rx     001195DB  5  01 00 00 DB 95 
   719)      8400.5  Rx     0001507E  7  01 00 00 0F 03 7E 50 
   720)      8400.6  Rx     0011507E  5  01 00 00 7E 50 
   721)      8405.5  Rx     0001025E  7  01 00 00 0F 03 5E 02 
   722)      8405.6  Rx     0011025E  5  01 00 00 5E 02 
   723)      8410.5  Rx     0001A3A7  7  01 00 00 0F 03 A7 A3 
   724)      8410.6  Rx     0011A3A7  5  01 00 00 A7 A3 
   725)      8415.5  Rx     00016E9E  7  01 00 00 0F 03 9E 6E 
   726)      8415.6  Rx     00116E9E  5  01 00 00 9E 6E 
   727)      8420.5  Rx     00013352  7  01 00 00 0F 03 52 33 
   728)      8420.6  Rx     00113352  5  01 00 00 52 33 
   729)      8425.5  Rx     00017091  7  01 00 00 0F 03 91 70 
   730)      8425.6  Rx     00117091  5  01 00 00 91 70 
   731)      8430.5  Rx     00015589  7  01 00 00 0F 03 89 55 
   732)      8430.6  Rx     00115589  5  01 00 00 89 55 
   733)      8435.5  Rx     0001A3AD  7  01 00 00 0F 03 AD A3 
   734)      8435.6  Rx     0011A3AD  5  01 00 00 AD A3 
   735)      8440.5  Rx     00010B65  7  01 00 00 0F 03 65 0B 
   736)      8440.6  Rx     00110B65  5  01 00 00 65 0B 
   737)      8445.5  Rx     0001131C  7  01 00 00 0F 03 1C 13 
   738)      8445.6  Rx     0011131C  5  01 00 00 1C 13 
   739)      8450.5  Rx     00016949  7  01 00 00 0F 03 49 69 
   740)      8450.6  Rx     00116949  5  01 00 00 49 69 
   741)      8455.5  Rx     0001212E  7  01 00 00 0F 03 2E 21 
   742)      8455.6  Rx     0011212E  5  01 00 00 2E 21 
   743)      8460.5  Rx     0001FC2E  7  01 00 00 0F 03 2E FC 
   744)      8460.6  Rx     0011FC2E  5  01 00 00 2E FC 
   745)      8465.5  Rx     0001265A  7  01 00 00 0F 03 5A 26 
   746)      8465.6  Rx     0011265A  5  01 00 00 5A 26 
   747)      8470.5  Rx     0001278B  7  01 00 00 0F 03 8B 27 
   748)      8470.6  Rx     0011278B  5  01 00 00 8B 27 
   749)      8475.5  Rx     00019F0F  7  01 00 00 0F 03 0F 9F 
   750)      8475.6  Rx     00119F0F  5  01 00 00 0F 9F 
   751)      8480.5  Rx     00019B13  7  01 00 00 0F 03 13 9B 
   752)      8480.6  Rx     00119B13  5  01 00 00 13 9B 
   753)      8485.5  Rx     00014A27  7  01 00 00 0F 03 27 4A 
   754)      8485.6  Rx     00114A27  5  01 00 00 27 4A 
   755)      8490.5  Rx     00015964  7  01 00 00 0F 03 64 59 
   756)      8490.6  Rx     00115964  5  01 00 00 64 59 
   757)      8495.5  Rx     000162AD  7  01 00 00 0F 03 AD 62 
   758)      8495.6  Rx     001162AD  5  01 00 00 AD 62 
   759)      8500.5  Rx     0001D05E  7  01 00 00 0F 03 5E D0 
   760)      8500.6  Rx     0011D05E  5  01 00 00 5E D0 
   761)      8505.5  Rx     0001BA65  7  01 00 00 0F 03 65 BA 
   762)      8505.6  Rx     0011BA65  5  01 00 00 65 BA 
   763)      8510.5  Rx     0001DDB0  7  01 00 00 0F 03 B0 DD 
   764)      8510.6  Rx     0011DDB0  5  01 00 00 B0 DD 
   765)      8515.5  Rx     00013B31  7  01 00 00 0F 03 31 3B 
   766)      8515.6  Rx     00113B31  5  01 00 00 31 3B 
   767)      8520.5  Rx     000111EF  7  01 00 00 0F 03 EF 11 
   768)      8520.6  Rx     001111EF  5  01 00 00 EF 11 
   769)      8525.5  Rx     0001AC42  7  01 00 00 0F 03 42 AC 
   770)      8525.6  Rx     0011AC42  5  01 00 00 42 AC 
   771)      8530.5  Rx     00013624  7  01 00 00 0F 03 24 36 
   772)      8530.6  Rx     00113624  5  01 00 00 24 36 
   773)      8535.5  Rx     00011CBD  7  01 00 00 0F 03 BD 1C 
   774)      8535.6  Rx     00111CBD  5  01 00 00 BD 1C 
   775)      8540.5  Rx     000153B6  7  01 00 00 0F 03 B6 53 
   776)      8540.6  Rx     001153B6  5  01 00 00 B6 53 
   777)      8545.5  Rx     0001A03B  7  01 00 00 0F 03 3B A0 
   778)      8545.6  Rx     0011A03B  5  01 00 00 3B A0 
   779)      8550.5  Rx     00011022  7  01 00 00 0F 03 22 10 
   780)      8550.6  Rx     00111022  5  01 00 00 22 10 
   781)      8555.5  Rx     00011E4B  7  01 00 00 0F 03 4B 1E 
   782)      8555.6  Rx     00111E4B  5  01 00 00 4B 1E 
   783)      8560.5  Rx     000121DD  7  01 00 00 0F 03 DD 21 
   784)      8560.6  Rx     001121DD  5  01 00 00 DD 21 
   785)      8565.5  Rx     0001ACDF  7  01 00 00 0F 03 DF AC 
   786)      8565.6  Rx     0011ACDF  5  01 00 00 DF AC 
   787)      8570.5  Rx     0001F14F  7  01 00 00 0F 03 4F F1 
   788)      8570.6  Rx     0011F14F  5  01 00 00 4F F1 
   789)      8575.5  Rx     00012E4F  7  01 00 00 0F 03 4F 2E 
   790)      8575.6  Rx     00112E4F  5  01 00 00 4F 2E 
   791)      8580.5  Rx     0001C4C8  7  01 00 00 0F 03 C8 C4 
   792)      8580.6  Rx     0011C4C8  5  01 00 00 C8 C4 
   793)      8585.5  Rx     0001CA53  7  01 00 00 0F 03 53 CA 
   794)      8585.6  Rx     0011CA53  5  01 00 00 53 CA 
   795)      8590.5  Rx     000197E5  7  01 00 00 0F 03 E5 97 
   796)      8590.7  Rx     001197E5  5  01 00 00 E5 97 
   797)      8595.5  Rx     0001E621  7  01 00 00 0F 03 21 E6 
   798)      8595.6  Rx     0011E621  5  01 00 00 21 E6 
   799)      8600.5  Rx     000136BD  7  01 00 00 0F 03 BD 36 
   800)      8600.6  Rx     001136BD  5  01 00 00 BD 36 
   801)      8605.5  Rx     00012E98  7  01 00 00 0F 03 98 2E 
   802)      8605.6  Rx     00112E98  5  01 00 00 98 2E 
   803)      8610.5  Rx     0001B2C8  7  01 00 00 0F 03 C8 B2 
   804)      8610.6  Rx     0011B2C8  5  01 00 00 C8 B2 
   805)      8615.5  Rx     0001601C  7  01 00 00 0F 03 1C 60 
   806)      8615.7  Rx     0011601C  5  01 00 00 1C 60 
   807)      8620.5  Rx     00013762  7  01 00 00 0F 03 62 37 
   808)      8620.6  Rx     00113762  5  01 00 00 62 37 
   809)      8625.5  Rx     00018E8E  7  01 00 00 0F 03 8E 8E 
   810)      8625.6  Rx     00118E8E  5  01 00 00 8E 8E 
   811)      8630.5  Rx     0001615A  7  01 00 00 0F 03 5A 61 
   812)      8630.6  Rx     0011615A  5  01 00 00 5A 61 
   813)      8635.5  Rx     00011086  7  01 00 00 0F 03 86 10 
   814)      8635.6  Rx     00111086  5  01 00 00 86 10 
   815)      8640.5  Rx     000168EA  7  01 00 00 0F 03 EA 68 
   816)      8640.6  Rx     001168EA  5  01 00 00 EA 68 
   817)      8645.5  Rx     00017FB7  7  01 00 00 0F 03 B7 7F 
   818)      8645.6  Rx     00117FB7  5  01 00 00 B7 7F 
   819)      8650.5  Rx     0001CF0D  7  01 00 00 0F 03 0D CF 
   820)      8650.6  Rx     0011CF0D  5  01 00 00 0D CF 
   821)      8655.5  Rx     0001792D  7  01 00 00 0F 03 2D 79 
   822)      8655.6  Rx     0011792D  5  01 00 00 2D 79 
   823)      8660.5  Rx     0001530D  7  01 00 00 0F 03 0D 53 
   824)      8660.6  Rx     0011530D  5  01 00 00 0D 53 
   825)      8665.5  Rx     0001B6BC  7  01 00 00 0F 03 BC B6 
   826)      8665.6  Rx     0011B6BC  5  01 00 00 BC B6 
   827)      8670.5  Rx     0001A6BC  7  01 00 00 0F 03 BC A6 
   828)      8670.6  Rx     0011A6BC  5  01 00 00 BC A6 
   829)      8675.5  Rx     00011BD5  7  01 00 00 0F 03 D5 1B 
   830)      8675.6  Rx     00111BD5  5  01 00 00 D5 1B 
   831)      8680.5  Rx     00017FBB  7  01 00 00 0F 03 BB 7F 
   832)      8680.6  Rx     00117FBB  5  01 00 00 BB 7F 
   833)      8685.5  Rx     000162AF  7  01 00 00 0F 03 AF 62 
   834)      8685.6  Rx     001162AF  5  01 00 00 AF 62 
   835)      8690.5  Rx     0001C5BA  7  01 00 00 0F 03 BA C5 
   836)      8690.6  Rx     0011C5BA  5  01 00 00 BA C5 
   837)      8695.5  Rx     00012754  7  01 00 00 0F 03 54 27 
   838)      8695.6  Rx     00112754  5  01 00 00 54 27 
   839)      8700.5  Rx     0001798F  7  01 00 00 0F 03 8F 79 
   840)      8700.6  Rx     0011798F  5  01 00 00 8F 79 
   841)      8705.5  Rx     00017D15  7  01 00 00 0F 03 15 7D 
   842)      8705.6  Rx     00117D15  5  01 00 00 15 7D 
   843)      8710.5  Rx     0001BAA6  7  01 00 00 0F 03 A6 BA 
   844)      8710.6  Rx     0011BAA6  5  01 00 00 A6 BA 
   845)      8715.5  Rx     00016779  7  01 00 00 0F 03 79 67 
   846)      8715.6  Rx     00116779  5  01 00 00 79 67 
   847)      8720.5  Rx     0001F005  7  01 00 00 0F 03 05 F0 
   848)      8720.6  Rx     0011F005  5  01 00 00 05 F0 
   849)      8725.5  Rx     00010EA1  7  01 00 00 0F 04 A1 0E 
   850)      8725.6  Rx     00110EA1  5  01 00 00 A1 0E 
   851)      8730.5  Rx     00015003  7  01 00 00 0F 03 03 50 
   852)      8730.6  Rx     00115003  5  01 00 00 03 50 
   853)      8735.5  Rx     000103B1  7  01 00 00 0F 03 B1 03 
   854)      8735.6  Rx     001103B1  5  01 00 00 B1 03 
   855)      8740.5  Rx     0001B96A  7  01 00 00 0F 03 6A B9 
   856)      8740.6  Rx     0011B96A  5  01 00 00 6A B9 
   857)      8745.5  Rx     00018CC0  7  01 00 00 0F 03 C0 8C 
   858)      8745.6  Rx     00118CC0  5  01 00 00 C0 8C 
   859)      8750.5  Rx     0001328B  7  01 00 00 0F 03 8B 32 
   860)      8750.6  Rx     0011328B  5  01 00 00 8B 32 
   861)      8755.5  Rx     00014C67  7  01 00 00 0F 03 67 4C 
   862)      8755.6  Rx     00114C67  5  01 00 00 67 4C 
   863)      8760.5  Rx     0001EA96  7  01 00 00 0F 03 96 EA 
   864)      8760.6  Rx     0011EA96  5  01 00 00 96 EA 
   865)      8765.5  Rx     000123D8  7  01 00 00 0F 03 D8 23 
   866)      8765.6  Rx     001123D8  5  01 00 00 D8 23 
   867)      8770.5  Rx     0001573D  7  01 00 00 0F 03 3D 57 
   868)      8770.6  Rx     0011573D  5  01 00 00 3D 57 
   869)      8775.5  Rx     00019F2E  7  01 00 00 0F 03 2E 9F 
   870)      8775.6  Rx     00119F2E  5  01 00 00 2E 9F 
   871)      8780.5  Rx     0001D85B  7  01 00 00 0F 03 5B D8 
   872)      8780.6  Rx     0011D85B  5  01 00 00 5B D8 
   873)      8785.5  Rx     00010250  7  01 00 00 0F 03 50 02 
   874)      8785.6  Rx     00110250  5  01 00 00 50 02 
   875)      8790.5  Rx     0001C13C  7  01 00 00 0F 03 3C C1 
   876)      8790.6  Rx     0011C13C  5  01 00 00 3C C1 
   877)      8795.5  Rx     0001159F  7  01 00 00 0F 03 9F 15 
   878)      8795.6  Rx     0011159F  5  01 00 00 9F 15 
   879)      8800.5  Rx     000142BC  7  01 00 00 0F 03 BC 42 
   880)      8800.6  Rx     001142BC  5  01 00 00 BC 42 
   881)      8805.5  Rx     0001B44E  7  01 00 00 0F 03 4E B4 
   882)      8805.6  Rx     0011B44E  5  01 00 00 4E B4 
   883)      8810.5  Rx     0001EB56  7  01 00 00 0F 03 56 EB 
   884)      8810.6  Rx     0011EB56  5  01 00 00 56 EB 
   885)      8815.5  Rx     00017703  7  01 00 00 0F 03 03 77 
   886)      8815.6  Rx     00117703  5  01 00 00 03 77 
   887)      8820.5  Rx     000145DD  7  01 00 00 0F 03 DD 45 
   888)      8820.6  Rx     001145DD  5  01 00 00 DD 45 
   889)      8825.5  Rx     00016441  7  01 00 00 0F 03 41 64 
   890)      8825.6  Rx     00116441  5  01 00 00 41 64 
   891)      8830.5  Rx     00015965  7  01 00 00 0F 03 65 59 
   892)      8830.6  Rx     00115965  5  01 00 00 65 59 
   893)      8835.5  Rx     0001F4AF  7  01 00 00 0F 03 AF F4 
   894)      8835.6  Rx     0011F4AF  5  01 00 00 AF F4 
   895)      8840.5  Rx     00017CBC  7  01 00 00 0F 03 BC 7C 
   896)      8840.6  Rx     00117CBC  5  01 00 00 BC 7C 
   897)      8845.5  Rx     00014025  7  01 00 00 0F 03 25 40 
   898)      8845.6  Rx     00114025  5  01 00 00 25 40 
   899)      8850.5  Rx     00014959  7  01 00 00 0F 03 59 49 
   900)      8850.6  Rx     00114959  5  01 00 00 59 49 
   901)      8855.5  Rx     0001FD32  7  01 00 00 0F 03 32 FD 
   902)      8855.6  Rx     0011FD32  5  01 00 00 32 FD 
   903)      8860.5  Rx     000119A3  7  01 00 00 0F 03 A3 19 
   904)      8860.6  Rx     001119A3  5  01 00 00 A3 19 
   905)      8865.5  Rx     0001B780  7  01 00 00 0F 03 80 B7 
   906)      8865.6  Rx     0011B780  5  01 00 00 80 B7 
   907)      8870.5  Rx     00011410  7  01 00 00 0F 03 10 14 
   908)      8870.6  Rx     00111410  5  01 00 00 10 14 
   909)      8875.5  Rx     00011230  7  01 00 00 0F 03 30 12 
   910)      8875.6  Rx     00111230  5  01 00 00 30 12 
   911)      8880.5  Rx     0001DC5B  7  01 00 00 0F 03 5B DC 
   912)      8880.6  Rx     0011DC5B  5  01 00 00 5B DC 
   913)      8885.5  Rx     0001C22E  7  01 00 00 0F 03 2E C2 
   914)      8885.6  Rx     0011C22E  5  01 00 00 2E C2 
   915)      8890.5  Rx     0001EDEB  7  01 00 00 0F 03 EB ED 
   916)      8890.6  Rx     0011EDEB  5  01 00 00 EB ED 
   917)      8895.5  Rx     00018D0B  7  01 00 00 0F 03 0B 8D 
   918)      8895.6  Rx     00118D0B  5  01 00 00 0B 8D 
   919)      8900.5  Rx     00013221  7  01 00 00 0F 03 21 32 
   920)      8900.6  Rx     00113221  5  01 00 00 21 32 
   921)      8905.5  Rx     000157E1  7  01 00 00 0F 03 E1 57 
   922)      8905.6  Rx     001157E1  5  01 00 00 E1 57 
   923)      8910.5  Rx     00014721  7  01 00 00 0F 03 21 47 
   924)      8910.6  Rx     00114721  5  01 00 00 21 47 
   925)      8915.5  Rx     00018247  7  01 00 00 0F 03 47 82 
   926)      8915.6  Rx     00118247  5  01 00 00 47 82 
   927)      8920.5  Rx     00014359  7  01 00 00 0F 03 59 43 
   928)      8920.6  Rx     00114359  5  01 00 00 59 43 
   929)      8925.5  Rx     00019465  7  01 00 00 0F 03 65 94 
   930)      8925.6  Rx     00119465  5  01 00 00 65 94 
   931)      8930.5  Rx     00017FD1  7  01 00 00 0F 03 D1 7F 
   932)      8930.6  Rx     00117FD1  5  01 00 00 D1 7F 
   933)      8935.5  Rx     00017BAA  7  01 00 00 0F 03 AA 7B 
   934)      8935.6  Rx     00117BAA  5  01 00 00 AA 7B 
   935)      8940.5  Rx     00010704  7  01 00 00 0F 03 04 07 
   936)      8940.6  Rx     00110704  5  01 00 00 04 07 
   937)      8945.5  Rx     000128A6  7  01 00 00 0F 03 A6 28 
   938)      8945.6  Rx     001128A6  5  01 00 00 A6 28 
   939)      8950.5  Rx     000163D8  7  01 00 00 0F 03 D8 63 
   940)      8950.6  Rx     001163D8  5  01 00 00 D8 63 
   941)      8955.5  Rx     00014D25  7  01 00 00 0F 03 25 4D 
   942)      8955.6  Rx     00114D25  5  01 00 00 25 4D 
   943)      8960.5  Rx     000147F1  7  01 00 00 0F 03 F1 47 
   944)      8960.6  Rx     001147F1  5  01 00 00 F1 47 
   945)      8965.5  Rx     00018C72  7  01 00 00 0F 03 72 8C 
   946)      8965.6  Rx     00118C72  5  01 00 00 72 8C 
   947)      8970.5  Rx     0001CA67  7  01 00 00 0F 03 67 CA 
   948)      8970.6  Rx     0011CA67  5  01 00 00 67 CA 
   949)      8975.5  Rx     0001F875  7  01 00 00 0F 03 75 F8 
   950)      8975.6  Rx     0011F875  5  01 00 00 75 F8 
   951)      8980.5  Rx     0001C7B5  7  01 00 00 0F 03 B5 C7 
   952)      8980.6  Rx     0011C7B5  5  01 00 00 B5 C7 
   953)      8985.5  Rx     000170FE  7  01 00 00 0F 03 FE 70 
   954)      8985.6  Rx     001170FE  5  01 00 00 FE 70 
   955)      8990.5  Rx     00011953  7  01 00 00 0F 03 53 19 
   956)      8990.6  Rx     00111953  5  01 00 00 53 19 
   957)      8995.5  Rx     00016B87  7  01 00 00 0F 03 87 6B 
   958)      8995.6  Rx     00116B87  5  01 00 00 87 6B 
   959)      9000.5  Rx     0001375B  7  01 00 00 0F 03 5B 37 
   960)      9000.6  Rx     0011375B  5  01 00 00 5B 37 
   961)      9005.5  Rx     0001F02A  7  01 00 00 0F 03 2A F0 
   962)      9005.6  Rx     0011F02A  5  01 00 00 2A F0 
   963)      9010.5  Rx     0001D82A  7  01 00 00 0F 03 2A D8 
   964)      9010.6  Rx     0011D82A  5  01 00 00 2A D8 
   965)      9015.5  Rx     0001419E  7  01 00 00 0F 03 9E 41 
   966)      9015.6  Rx     0011419E  5  01 00 00 9E 41 
   967)      9020.5  Rx     000155DA  7  01 00 00 0F 03 DA 55 
   968)      9020.6  Rx     001155DA  5  01 00 00 DA 55 
   969)      9025.5  Rx     0001EC84  7  01 00 00 0F 03 84 EC 
   970)      9025.6  Rx     0011EC84  5  01 00 00 84 EC 
   971)      9030.5  Rx     00014709  7  01 00 00 0F 03 09 47 
   972)      9030.6  Rx     00114709  5  01 00 00 09 47 
   973)      9035.5  Rx     0001BF36  7  01 00 00 0F 03 36 BF 
   974)      9035.6  Rx     0011BF36  5  01 00 00 36 BF 
   975)      9040.5  Rx     0001044A  7  01 00 00 0F 03 4A 04 
   976)      9040.6  Rx     0011044A  5  01 00 00 4A 04 
   977)      9045.5  Rx     00016A0D  7  01 00 00 0F 03 0D 6A 
   978)      9045.6  Rx     00116A0D  5  01 00 00 0D 6A 
   979)      9050.5  Rx     0001DD2F  7  01 00 00 0F 03 2F DD 
   980)      9050.6  Rx     0011DD2F  5  01 00 00 2F DD 
   981)      9055.5  Rx     00016CA7  7  01 00 00 0F 03 A7 6C 
   982)      9055.6  Rx     00116CA7  5  01 00 00 A7 6C 
   983)      9060.5  Rx     000147D5  7  01 00 00 0F 03 D5 47 
   984)      9060.6  Rx     001147D5  5  01 00 00 D5 47 
   985)      9065.5  Rx     0001CBBC  7  01 00 00 0F 03 BC CB 
   986)      9065.6  Rx     0011CBBC  5  01 00 00 BC CB 
   987)      9070.5  Rx     0001F750  7  01 00 00 0F 03 50 F7 
   988)      9070.6  Rx     0011F750  5  01 00 00 50 F7 
   989)      9075.5  Rx     00011F88  7  01 00 00 0F 03 88 1F 
   990)      9075.6  Rx     00111F88  5  01 00 00 88 1F 
   991)      9080.5  Rx     00015D6D  7  01 00 00 0F 03 6D 5D 
   992)      9080.6  Rx     00115D6D  5  01 00 00 6D 5D 
   993)      9085.5  Rx     000125C5  7  01 00 00 0F 03 C5 25 
   994)      9085.6  Rx     001125C5  5  01 00 00 C5 25 
   995)      9090.5  Rx     000141AA  7  01 00 00 0F 03 AA 41 
   996)      9090.6  Rx     001141AA  5  01 00 00 AA 41 
   997)      9095.5  Rx     00018ED9  7  01 00 00 0F 03 D9 8E 
   998)      9095.6  Rx     00118ED9  5  01 00 00 D9 8E 
   999)      9100.5  Rx     0001D743  7  01 00 00 0F 03 43 D7 
  1000)      9100.6  Rx     0011D743  5  01 00 00 43 D7 
  1001)      9105.5  Rx     00019C9A  7  01 00 00 0F 03 9A 9C 
  1002)      9105.6  Rx     00119C9A  5  01 00 00 9A 9C 
  1003)      9110.5  Rx     000165D8  7  01 00 00 0F 03 D8 65 
  1004)      9110.6  Rx     001165D8  5  01 00 00 D8 65 
  1005)      9115.5  Rx     000155DE  7  01 00 00 0F 03 DE 55 
  1006)      9115.6  Rx     001155DE  5  01 00 00 DE 55 
  1007)      9120.5  Rx     00019BF2  7  01 00 00 0F 03 F2 9B 
  1008)      9120.6  Rx     00119BF2  5  01 00 00 F2 9B 
  1009)      9125.5  Rx     0001ACAD  7  01 00 00 0F 03 AD AC 
  1010)      9125.6  Rx     0011ACAD  5  01 00 00 AD AC 
  1011)      9130.5  Rx     00019068  7  01 00 00 0F 03 68 90 
  1012)      9130.6  Rx     00119068  5  01 00 00 68 90 
  1013)      9135.5  Rx     0001A1CB  7  01 00 00 0F 03 CB A1 
  1014)      9135.6  Rx     0011A1CB  5  01 00 00 CB A1 
  1015)      9140.5  Rx     0001FB7D  7  01 00 00 0F 03 7D FB 
  1016)      9140.6  Rx     0011FB7D  5  01 00 00 7D FB 
  1017)      9145.5  Rx     000172FB  7  01 00 00 0F 03 FB 72 
  1018)      9145.6  Rx     001172FB  5  01 00 00 FB 72 
  1019)      9150.5  Rx     0001022E  7  01 00 00 0F 03 2E 02 
  1020)      9150.6  Rx     0011022E  5  01 00 00 2E 02 
  1021)      9155.5  Rx     00011624  7  01 00 00 0F 03 24 16 
  1022)      9155.6  Rx     00111624  5  01 00 00 24 16 
  1023)      9160.5  Rx     0001C1FF  7  01 00 00 0F 03 FF C1 
  1024)      9160.6  Rx     0011C1FF  5  01 00 00 FF C1 
  1025)      9165.4  Rx     00010A48  7  01 00 00 0F 04 48 0A 
  1026)      9165.6  Rx     00110A48  5  01 00 00 48 0A 
  1027)      9170.5  Rx     00019555  7  01 00 00 0F 03 55 95 
  1028)      9170.6  Rx     00119555  5  01 00 00 55 95 
  1029)      9175.5  Rx     000197E2  7  01 00 00 0F 03 E2 97 
  1030)      9175.6  Rx     001197E2  5  01 00 00 E2 97 
  1031)      9180.5  Rx     0001481B  7  01 00 00 0F 03 1B 48 
  1032)      9180.6  Rx     0011481B  5  01 00 00 1B 48 
  1033)      9185.5  Rx     0001C529  7  01 00 00 0F 03 29 C5 
  1034)      9185.6  Rx     0011C529  5  01 00 00 29 C5 
  1035)      9190.4  Rx     0001663A  7  01 00 00 0F 03 3A 66 
  1036)      9190.6  Rx     0011663A  5  01 00 00 3A 66 
  1037)      9195.4  Rx     00010B54  7  01 00 00 0F 03 54 0B 
  1038)      9195.6  Rx     00110B54  5  01 00 00 54 0B 
  1039)      9200.5  Rx     00018937  7  01 00 00 0F 03 37 89 
  1040)      9200.6  Rx     00118937  5  01 00 00 37 89 
  1041)      9205.5  Rx     0001A4C6  7  01 00 00 0F 03 C6 A4 
  1042)      9205.6  Rx     0011A4C6  5  01 00 00 C6 A4 
  1043)      9210.5  Rx     000147F7  7  01 00 00 0F 03 F7 47 
  1044)      9210.6  Rx     001147F7  5  01 00 00 F7 47 
  1045)      9215.5  Rx     000144CB  7  01 00 00 0F 03 CB 44 
  1046)      9215.6  Rx     001144CB  5  01 00 00 CB 44 
  1047)      9220.4  Rx     00011F6C  7  01 00 00 0F 03 6C 1F 
  1048)      9220.6  Rx     00111F6C  5  01 00 00 6C 1F 
  1049)      9225.5  Rx     0001805B  7  01 00 00 0F 03 5B 80 
  1050)      9225.6  Rx     0011805B  5  01 00 00 5B 80 
  1051)      9230.5  Rx     000160C0  7  01 00 00 0F 03 C0 60 
  1052)      9230.6  Rx     001160C0  5  01 00 00 C0 60 
  1053)      9235.5  Rx     0001C7F4  7  01 00 00 0F 03 F4 C7 
  1054)      9235.6  Rx     0011C7F4  5  01 00 00 F4 C7 
  1055)      9240.5  Rx     0001613B  7  01 00 00 0F 03 3B 61 
  1056)      9240.6  Rx     0011613B  5  01 00 00 3B 61 
  1057)      9245.4  Rx     00016D82  7  01 00 00 0F 03 82 6D 
  1058)      9245.6  Rx     00116D82  5  01 00 00 82 6D 
  1059)      9250.4  Rx     0001C1F1  7  01 00 00 0F 03 F1 C1 
  1060)      9250.6  Rx     0011C1F1  5  01 00 00 F1 C1 
  1061)      9255.5  Rx     00018602  7  01 00 00 0F 03 02 86 
  1062)      9255.6  Rx     00118602  5  01 00 00 02 86 
  1063)      9260.5  Rx     00017500  7  01 00 00 0F 03 00 75 
  1064)      9260.6  Rx     00117500  5  01 00 00 00 75 
  1065)      9265.5  Rx     00010133  7  01 00 00 0F 03 33 01 
  1066)      9265.6  Rx     00110133  5  01 00 00 33 01 
  1067)      9270.4  Rx     0001EFE3  7  01 00 00 0F 03 E3 EF 
  1068)      9270.6  Rx     0011EFE3  5  01 00 00 E3 EF 
  1069)      9275.4  Rx     0001D293  7  01 00 00 0F 03 93 D2 
  1070)      9275.6  Rx     0011D293  5  01 00 00 93 D2 
  1071)      9280.5  Rx     00015A26  7  01 00 00 0F 03 26 5A 
  1072)      9280.6  Rx     00115A26  5  01 00 00 26 5A 
  1073)      9285.5  Rx     0001AD86  7  01 00 00 0F 03 86 AD 
  1074)      9285.6  Rx     0011AD86  5  01 00 00 86 AD 
  1075)      9290.5  Rx     00016181  7  01 00 00 0F 03 81 61 
  1076)      9290.6  Rx     00116181  5  01 00 00 81 61 
  1077)      9295.5  Rx     0001134F  7  01 00 00 0F 03 4F 13 
  1078)      9295.6  Rx     0011134F  5  01 00 00 4F 13 
  1079)      9300.4  Rx     0001FC1E  7  01 00 00 0F 03 1E FC 
  1080)      9300.6  Rx     0011FC1E  5  01 00 00 1E FC 
  1081)      9305.4  Rx     00010C3E  7  01 00 00 0F 03 3E 0C 
  1082)      9305.6  Rx     00110C3E  5  01 00 00 3E 0C 
  1083)      9310.5  Rx     0001379D  7  01 00 00 0F 03 9D 37 
  1084)      9310.6  Rx     0011379D  5  01 00 00 9D 37 
  1085)      9315.5  Rx     00019E4F  7  01 00 00 0F 03 4F 9E 
  1086)      9315.5  Rx     00119E4F  5  01 00 00 4F 9E 
  1087)      9320.5  Rx     00014310  7  01 00 00 0F 03 10 43 
  1088)      9320.6  Rx     00114310  5  01 00 00 10 43 
  1089)      9325.4  Rx     00012E06  7  01 00 00 0F 03 06 2E 
  1090)      9325.6  Rx     00112E06  5  01 00 00 06 2E 
  1091)      9330.4  Rx     0001A402  7  01 00 00 0F 03 02 A4 
  1092)      9330.6  Rx     0011A402  5  01 00 00 02 A4 
  1093)      9335.4  Rx     00019743  7  01 00 00 0F 03 43 97 
  1094)      9335.6  Rx     00119743  5  01 00 00 43 97 
  1095)      9340.5  Rx     0001164E  7  01 00 00 0F 03 4E 16 
  1096)      9340.5  Rx     0011164E  5  01 00 00 4E 16 
  1097)      9345.5  Rx     0001E278  7  01 00 00 0F 03 78 E2 
  1098)      9345.5  Rx     0011E278  5  01 00 00 78 E2 
  1099)      9350.4  Rx     00019849  7  01 00 00 0F 03 49 98 
  1100)      9350.6  Rx     00119849  5  01 00 00 49 98 
  1101)      9355.4  Rx     00019B52  7  01 00 00 0F 03 52 9B 
  1102)      9355.6  Rx     00119B52  5  01 00 00 52 9B 
  1103)      9360.4  Rx     00018C8C  7  01 00 00 0F 03 8C 8C 
  1104)      9360.6  Rx     00118C8C  5  01 00 00 8C 8C 
  1105)      9365.5  Rx     000114E1  7  01 00 00 0F 03 E1 14 
  1106)      9365.6  Rx     001114E1  5  01 00 00 E1 14 
  1107)      9370.5  Rx     0001446B  7  01 00 00 0F 03 6B 44 
  1108)      9370.5  Rx     0011446B  5  01 00 00 6B 44 
  1109)      9375.4  Rx     0001B3C0  7  01 00 00 0F 03 C0 B3 
  1110)      9375.6  Rx     0011B3C0  5  01 00 00 C0 B3 
  1111)      9380.4  Rx     0001D5D1  7  01 00 00 0F 03 D1 D5 
  1112)      9380.6  Rx     0011D5D1  5  01 00 00 D1 D5 
  1113)      9385.4  Rx     000125C5  7  01 00 00 0F 03 C5 25 
  1114)      9385.6  Rx     001125C5  5  01 00 00 C5 25 
  1115)      9390.4  Rx     0001A51A  7  01 00 00 0F 03 1A A5 
  1116)      9390.6  Rx     0011A51A  5  01 00 00 1A A5 
  1117)      9395.5  Rx     00011750  7  01 00 00 0F 03 50 17 
  1118)      9395.5  Rx     00111750  5  01 00 00 50 17 
  1119)      9400.5  Rx     0001672A  7  01 00 00 0F 03 2A 67 
  1120)      9400.5  Rx     0011672A  5  01 00 00 2A 67 
  1121)      9405.4  Rx     00011523  7  01 00 00 0F 03 23 15 
  1122)      9405.6  Rx     00111523  5  01 00 00 23 15 
  1123)      9410.4  Rx     000121CE  7  01 00 00 0F 03 CE 21 
  1124)      9410.6  Rx     001121CE  5  01 00 00 CE 21 
  1125)      9415.4  Rx     0001FA6E  7  01 00 00 0F 03 6E FA 
  1126)      9415.6  Rx     0011FA6E  5  01 00 00 6E FA 
  1127)      9420.5  Rx     0001F823  7  01 00 00 0F 03 23 F8 
  1128)      9420.5  Rx     0011F823  5  01 00 00 23 F8 
  1129)      9425.5  Rx     0001F579  7  01 00 00 0F 03 79 F5 
  1130)      9425.5  Rx     0011F579  5  01 00 00 79 F5 
  1131)      9430.4  Rx     000116A0  7  01 00 00 0F 03 A0 16 
  1132)      9430.6  Rx     001116A0  5  01 00 00 A0 16 
  1133)      9435.4  Rx     00015E0B  7  01 00 00 0F 03 0B 5E 
  1134)      9435.6  Rx     00115E0B  5  01 00 00 0B 5E 
  1135)      9440.4  Rx     0001A5F6  7  01 00 00 0F 03 F6 A5 
  1136)      9440.6  Rx     0011A5F6  5  01 00 00 F6 A5 
  1137)      9445.4  Rx     00013786  7  01 00 00 0F 03 86 37 
  1138)      9445.5  Rx     00113786  5  01 00 00 86 37 
  1139)      9450.5  Rx     000155DA  7  01 00 00 0F 03 DA 55 
  1140)      9450.5  Rx     001155DA  5  01 00 00 DA 55 
  1141)      9455.4  Rx     0001E547  7  01 00 00 0F 03 47 E5 
  1142)      9455.5  Rx     0011E547  5  01 00 00 47 E5 
  1143)      9460.4  Rx     0001F080  7  01 00 00 0F 03 80 F0 
  1144)      9460.6  Rx     0011F080  5  01 00 00 80 F0 
  1145)      9465.4  Rx     0001DED1  7  01 00 00 0F 03 D1 DE 
  1146)      9465.6  Rx     0011DED1  5  01 00 00 D1 DE 
  1147)      9470.4  Rx     0001D54A  7  01 00 00 0F 03 4A D5 
  1148)      9470.6  Rx     0011D54A  5  01 00 00 4A D5 
  1149)      9475.4  Rx     0001A1D0  7  01 00 00 0F 03 D0 A1 
  1150)      9475.5  Rx     0011A1D0  5  01 00 00 D0 A1 
  1151)      9480.5  Rx     0001D4F7  7  01 00 00 0F 03 F7 D4 
  1152)      9480.5  Rx     0011D4F7  5  01 00 00 F7 D4 
  1153)      9485.4  Rx     0001FAEC  7  01 00 00 0F 03 EC FA 
  1154)      9485.6  Rx     0011FAEC  5  01 00 00 EC FA 
  1155)      9490.4  Rx     00012359  7  01 00 00 0F 03 59 23 
  1156)      9490.6  Rx     00112359  5  01 00 00 59 23 
  1157)      9495.4  Rx     0001E30C  7  01 00 00 0F 03 0C E3 
  1158)      9495.6  Rx     0011E30C  5  01 00 00 0C E3 
  1159)      9500.4  Rx     0001DE5C  7  01 00 00 0F 03 5C DE 
  1160)      9500.5  Rx     0011DE5C  5  01 00 00 5C DE 
  1161)      9505.5  Rx     0001D977  7  01 00 00 0F 03 77 D9 
  1162)      9505.5  Rx     0011D977  5  01 00 00 77 D9 
  1163)      9510.4  Rx     000103DF  7  01 00 00 0F 03 DF 03 
  1164)      9510.6  Rx     001103DF  5  01 00 00 DF 03 
  1165)      9515.4  Rx     00010BF7  7  01 00 00 0F 04 F7 0B 
  1166)      9515.6  Rx     00110BF7  5  01 00 00 F7 0B 
  1167)      9520.4  Rx     00012BB1  7  01 00 00 0F 03 B1 2B 
  1168)      9520.6  Rx     00112BB1  5  01 00 00 B1 2B 
  1169)      9525.4  Rx     000158E6  7  01 00 00 0F 03 E6 58 
  1170)      9525.5  Rx     001158E6  5  01 00 00 E6 58 
  1171)      9530.4  Rx     0001F8B3  7  01 00 00 0F 03 B3 F8 
  1172)      9530.5  Rx     0011F8B3  5  01 00 00 B3 F8 
  1173)      9535.4  Rx     000157CD  7  01 00 00 0F 03 CD 57 
  1174)      9535.5  Rx     001157CD  5  01 00 00 CD 57 
  1175)      9540.4  Rx     00018FE9  7  01 00 00 0F 03 E9 8F 
  1176)      9540.5  Rx     00118FE9  5  01 00 00 E9 8F 
  1177)      9545.4  Rx     00014C02  7  01 00 00 0F 03 02 4C 
  1178)      9545.6  Rx     00114C02  5  01 00 00 02 4C 
  1179)      9550.4  Rx     0001E604  7  01 00 00 0F 03 04 E6 
  1180)      9550.6  Rx     0011E604  5  01 00 00 04 E6 
  1181)      9555.4  Rx     0001B167  7  01 00 00 0F 03 67 B1 
  1182)      9555.5  Rx     0011B167  5  01 00 00 67 B1 
  1183)      9560.4  Rx     000193A3  7  01 00 00 0F 03 A3 93 
  1184)      9560.5  Rx     001193A3  5  01 00 00 A3 93 
  1185)      9565.4  Rx     0001B630  7  01 00 00 0F 03 30 B6 
  1186)      9565.5  Rx     0011B630  5  01 00 00 30 B6 
  1187)      9570.4  Rx     00018269  7  01 00 00 0F 03 69 82 
  1188)      9570.6  Rx     00118269  5  01 00 00 69 82 
  1189)      9575.4  Rx     00018965  7  01 00 00 0F 03 65 89 
  1190)      9575.6  Rx     00118965  5  01 00 00 65 89 
  1191)      9580.4  Rx     00018495  7  01 00 00 0F 03 95 84 
  1192)      9580.5  Rx     00118495  5  01 00 00 95 84 
  1193)      9585.4  Rx     00011874  7  01 00 00 0F 03 74 18 
  1194)      9585.5  Rx     00111874  5  01 00 00 74 18 
  1195)      9590.4  Rx     000102B9  7  01 00 00 0F 03 B9 02 
  1196)      9590.5  Rx     001102B9  5  01 00 00 B9 02 
  1197)      9595.4  Rx     00019B10  7  01 00 00 0F 03 10 9B 
  1198)      9595.5  Rx     00119B10  5  01 00 00 10 9B 
  1199)      9600.4  Rx     00019EC9  7  01 00 00 0F 03 C9 9E 
  1200)      9600.5  Rx     00119EC9  5  01 00 00 C9 9E 
  1201)      9605.4  Rx     0001DF33  7  01 00 00 0F 03 33 DF 
  1202)      9605.5  Rx     0011DF33  5  01 00 00 33 DF 
  1203)      9610.4  Rx     0001919B  7  01 00 00 0F 03 9B 91 
  1204)      9610.5  Rx     0011919B  5  01 00 00 9B 91 
  1205)      9615.4  Rx     0001BFFB  7  01 00 00 0F 03 FB BF 
  1206)      9615.5  Rx     0011BFFB  5  01 00 00 FB BF 
  1207)      9620.4  Rx     0001F78A  7  01 00 00 0F 03 8A F7 
  1208)      9620.5  Rx     0011F78A  5  01 00 00 8A F7 
  1209)      9625.4  Rx     000188BB  7  01 00 00 0F 03 BB 88 
  1210)      9625.5  Rx     001188BB  5  01 00 00 BB 88 
  1211)      9630.4  Rx     0001FEDB  7  01 00 00 0F 03 DB FE 
  1212)      9630.5  Rx     0011FEDB  5  01 00 00 DB FE 
  1213)      9635.4  Rx     0001BE6E  7  01 00 00 0F 03 6E BE 
  1214)      9635.6  Rx     0011BE6E  5  01 00 00 6E BE 
  1215)      9640.4  Rx     00019E1B  7  01 00 00 0F 03 1B 9E 
  1216)      9640.6  Rx     00119E1B  5  01 00 00 1B 9E 
  1217)      9645.5  Rx     00011482  7  01 00 00 0F 03 82 14 
  1218)      9645.6  Rx     00111482  5  01 00 00 82 14 
  1219)      9650.5  Rx     00012E82  7  01 00 00 0F 03 82 2E 
  1220)      9650.5  Rx     00112E82  5  01 00 00 82 2E 
  1221)      9655.4  Rx     00011E83  7  01 00 00 0F 03 83 1E 
  1222)      9655.6  Rx     00111E83  5  01 00 00 83 1E 
  1223)      9660.4  Rx     0001BA2C  7  01 00 00 0F 03 2C BA 
  1224)      9660.6  Rx     0011BA2C  5  01 00 00 2C BA 
  1225)      9665.4  Rx     00015330  7  01 00 00 0F 03 30 53 
  1226)      9665.6  Rx     00115330  5  01 00 00 30 53 
  1227)      9670.4  Rx     0001BBA4  7  01 00 00 0F 03 A4 BB 
  1228)      9670.6  Rx     0011BBA4  5  01 00 00 A4 BB 
  1229)      9675.5  Rx     0001FE0D  7  01 00 00 0F 03 0D FE 
  1230)      9675.5  Rx     0011FE0D  5  01 00 00 0D FE 
  1231)      9680.5  Rx     0001840D  7  01 00 00 0F 03 0D 84 
  1232)      9680.5  Rx     0011840D  5  01 00 00 0D 84 
  1233)      9685.4  Rx     0001135E  7  01 00 00 0F 03 5E 13 
  1234)      9685.6  Rx     0011135E  5  01 00 00 5E 13 
  1235)      9690.4  Rx     000186F6  7  01 00 00 0F 03 F6 86 
  1236)      9690.6  Rx     001186F6  5  01 00 00 F6 86 
  1237)      9695.4  Rx     0001CF3B  7  01 00 00 0F 03 3B CF 
  1238)      9695.6  Rx     0011CF3B  5  01 00 00 3B CF 
  1239)      9700.4  Rx     00016A9F  7  01 00 00 0F 03 9F 6A 
  1240)      9700.5  Rx     00116A9F  5  01 00 00 9F 6A 
  1241)      9705.5  Rx     00019F1B  7  01 00 00 0F 03 1B 9F 
  1242)      9705.5  Rx     00119F1B  5  01 00 00 1B 9F 
  1243)      9710.4  Rx     00014127  7  01 00 00 0F 03 27 41 
  1244)      9710.5  Rx     00114127  5  01 00 00 27 41 
  1245)      9715.4  Rx     000135FF  7  01 00 00 0F 03 FF 35 
  1246)      9715.6  Rx     001135FF  5  01 00 00 FF 35 
  1247)      9720.4  Rx     0001030D  7  01 00 00 0F 03 0D 03 
  1248)      9720.6  Rx     0011030D  5  01 00 00 0D 03 
  1249)      9725.4  Rx     0001F232  7  01 00 00 0F 03 32 F2 
  1250)      9725.5  Rx     0011F232  5  01 00 00 32 F2 
  1251)      9730.5  Rx     000100EA  7  01 00 00 0F 03 EA 00 
  1252)      9730.5  Rx     001100EA  5  01 00 00 EA 00 
  1253)      9735.4  Rx     0001D82F  7  01 00 00 0F 03 2F D8 
  1254)      9735.5  Rx     0011D82F  5  01 00 00 2F D8 
  1255)      9740.4  Rx     00013E3E  7  01 00 00 0F 03 3E 3E 
  1256)      9740.6  Rx     00113E3E  5  01 00 00 3E 3E 
  1257)      9745.4  Rx     00010D2C  7  01 00 00 0F 03 2C 0D 
  1258)      9745.6  Rx     00110D2C  5  01 00 00 2C 0D 
  1259)      9750.4  Rx     0001CCD4  7  01 00 00 0F 03 D4 CC 
  1260)      9750.6  Rx     0011CCD4  5  01 00 00 D4 CC 
  1261)      9755.4  Rx     00012867  7  01 00 00 0F 03 67 28 
  1262)      9755.5  Rx     00112867  5  01 00 00 67 28 
  1263)      9760.4  Rx     00016408  7  01 00 00 0F 03 08 64 
  1264)      9760.5  Rx     00116408  5  01 00 00 08 64 
  1265)      9765.4  Rx     00014917  7  01 00 00 0F 03 17 49 
  1266)      9765.5  Rx     00114917  5  01 00 00 17 49 
  1267)      9770.4  Rx     000134EB  7  01 00 00 0F 03 EB 34 
  1268)      9770.6  Rx     001134EB  5  01 00 00 EB 34 
  1269)      9775.4  Rx     00013FB5  7  01 00 00 0F 03 B5 3F 
  1270)      9775.6  Rx     00113FB5  5  01 00 00 B5 3F 
  1271)      9780.4  Rx     00012824  7  01 00 00 0F 03 24 28 
  1272)      9780.5  Rx     00112824  5  01 00 00 24 28 
  1273)      9785.5  Rx     0001A804  7  01 00 00 0F 03 04 A8 
  1274)      9785.5  Rx     0011A804  5  01 00 00 04 A8 
  1275)      9790.4  Rx     0001D3FA  7  01 00 00 0F 03 FA D3 
  1276)      9790.5  Rx     0011D3FA  5  01 00 00 FA D3 
  1277)      9795.4  Rx     000191F2  7  01 00 00 0F 03 F2 91 
  1278)      9795.6  Rx     001191F2  5  01 00 00 F2 91 
  1279)      9800.4  Rx     0001BCE5  7  01 00 00 0F 03 E5 BC 
  1280)      9800.6  Rx     0011BCE5  5  01 00 00 E5 BC 
  1281)      9805.4  Rx     00011E51  7  01 00 00 0F 03 51 1E 
  1282)      9805.5  Rx     00111E51  5  01 00 00 51 1E 
  1283)      9810.4  Rx     0001E4A5  7  01 00 00 0F 03 A5 E4 
  1284)      9810.5  Rx     0011E4A5  5  01 00 00 A5 E4 
  1285)      9815.4  Rx     0001E8F1  7  01 00 00 0F 03 F1 E8 
  1286)      9815.5  Rx     0011E8F1  5  01 00 00 F1 E8 
  1287)      9820.4  Rx     0001D3A7  7  01 00 00 0F 03 A7 D3 
  1288)      9820.5  Rx     0011D3A7  5  01 00 00 A7 D3 
  1289)      9825.4  Rx     0001E8AA  7  01 00 00 0F 03 AA E8 
  1290)      9825.6  Rx     0011E8AA  5  01 00 00 AA E8 
  1291)      9830.4  Rx     0001E640  7  01 00 00 0F 03 40 E6 
  1292)      9830.5  Rx     0011E640  5  01 00 00 40 E6 
  1293)      9835.4  Rx     00011259  7  01 00 00 0F 03 59 12 
  1294)      9835.5  Rx     00111259  5  01 00 00 59 12 
  1295)      9840.4  Rx     0001BF08  7  01 00 00 0F 03 08 BF 
  1296)      9840.5  Rx     0011BF08  5  01 00 00 08 BF 
  1297)      9845.4  Rx     0001DECF  7  01 00 00 0F 03 CF DE 
  1298)      9845.5  Rx     0011DECF  5  01 00 00 CF DE 
  1299)      9850.4  Rx     0001095E  7  01 00 00 0F 03 5E 09 
  1300)      9850.5  Rx     0011095E  5  01 00 00 5E 09 
  1301)      9855.4  Rx     0001BC52  7  01 00 00 0F 03 52 BC 
  1302)      9855.6  Rx     0011BC52  5  01 00 00 52 BC 
  1303)      9860.4  Rx     000182D8  7  01 00 00 0F 03 D8 82 
  1304)      9860.5  Rx     001182D8  5  01 00 00 D8 82 
  1305)      9865.4  Rx     0001BB16  7  01 00 00 0F 03 16 BB 
  1306)      9865.5  Rx     0011BB16  5  01 00 00 16 BB 
  1307)      9870.4  Rx     0001D42B  7  01 00 00 0F 03 2B D4 
  1308)      9870.5  Rx     0011D42B  5  01 00 00 2B D4 
  1309)      9875.4  Rx     000144E1  7  01 00 00 0F 03 E1 44 
  1310)      9875.5  Rx     001144E1  5  01 00 00 E1 44 
  1311)      9880.4  Rx     0001D5D0  7  01 00 00 0F 03 D0 D5 
  1312)      9880.5  Rx     0011D5D0  5  01 00 00 D0 D5 
  1313)      9885.4  Rx     00016EAF  7  01 00 00 0F 03 AF 6E 
  1314)      9885.5  Rx     00116EAF  5  01 00 00 AF 6E 
  1315)      9890.4  Rx     0001BE79  7  01 00 00 0F 03 79 BE 
  1316)      9890.5  Rx     0011BE79  5  01 00 00 79 BE 
  1317)      9895.4  Rx     00018413  7  01 00 00 0F 03 13 84 
  1318)      9895.5  Rx     00118413  5  01 00 00 13 84 
  1319)      9900.4  Rx     00013D05  7  01 00 00 0F 03 05 3D 
  1320)      9900.5  Rx     00113D05  5  01 00 00 05 3D 
  1321)      9905.4  Rx     000172AA  7  01 00 00 0F 03 AA 72 
  1322)      9905.5  Rx     001172AA  5  01 00 00 AA 72 
  1323)      9910.4  Rx     0001A19B  7  01 00 00 0F 03 9B A1 
  1324)      9910.5  Rx     0011A19B  5  01 00 00 9B A1 
  1325)      9915.4  Rx     0001ACDB  7  01 00 00 0F 03 DB AC 
  1326)      9915.5  Rx     0011ACDB  5  01 00 00 DB AC 
  1327)      9920.4  Rx     0001151A  7  01 00 00 0F 03 1A 15 
  1328)      9920.5  Rx     0011151A  5  01 00 00 1A 15 
  1329)      9925.4  Rx     00011DB9  7  01 00 00 0F 03 B9 1D 
  1330)      9925.5  Rx     00111DB9  5  01 00 00 B9 1D 
  1331)      9930.4  Rx     00015FF4  7  01 00 00 0F 03 F4 5F 
  1332)      9930.5  Rx     00115FF4  5  01 00 00 F4 5F 
  1333)      9935.4  Rx     000100BB  7  01 00 00 0F 03 BB 00 
  1334)      9935.6  Rx     001100BB  5  01 00 00 BB 00 
  1335)      9940.4  Rx     0001B137  7  01 00 00 0F 03 37 B1 
  1336)      9940.5  Rx     0011B137  5  01 00 00 37 B1 
  1337)      9945.4  Rx     0001E2B4  7  01 00 00 0F 03 B4 E2 
  1338)      9945.5  Rx     0011E2B4  5  01 00 00 B4 E2 
  1339)      9950.4  Rx     0001704D  7  01 00 00 0F 03 4D 70 
  1340)      9950.5  Rx     0011704D  5  01 00 00 4D 70 
  1341)      9955.4  Rx     0001C224  7  01 00 00 0F 03 24 C2 
  1342)      9955.5  Rx     0011C224  5  01 00 00 24 C2 
  1343)      9960.4  Rx     00014FBC  7  01 00 00 0F 03 BC 4F 
  1344)      9960.5  Rx     00114FBC  5  01 00 00 BC 4F 
  1345)      9965.4  Rx     0001B3DF  7  01 00 00 0F 03 DF B3 
  1346)      9965.5  Rx     0011B3DF  5  01 00 00 DF B3 
  1347)      9970.4  Rx     00016CEA  7  01 00 00 0F 03 EA 6C 
  1348)      9970.5  Rx     00116CEA  5  01 00 00 EA 6C 
  1349)      9975.4  Rx     0001E19D  7  01 00 00 0F 03 9D E1 
  1350)      9975.5  Rx     0011E19D  5  01 00 00 9D E1 
  1351)      9980.4  Rx     000140B4  7  01 00 00 0F 03 B4 40 
  1352)      9980.5  Rx     001140B4  5  01 00 00 B4 40 
  1353)      9985.4  Rx     000142ED  7  01 00 00 0F 03 ED 42 
  1354)      9985.5  Rx     001142ED  5  01 00 00 ED 42 
  1355)      9990.4  Rx     0001A65B  7  01 00 00 0F 03 5B A6 
  1356)      9990.5  Rx     0011A65B  5  01 00 00 5B A6 
  1357)      9995.4  Rx     0001E9A6  7  01 00 00 0F 03 A6 E9 
  1358)      9995.5  Rx     0011E9A6  5  01 00 00 A6 E9 
  1359)     10000.4  Rx     0001F20B  7  01 00 00 0F 03 0B F2 
  1360)     10000.5  Rx     0011F20B  5  01 00 00 0B F2 
  1361)     10005.4  Rx     00015DC3  7  01 00 00 0F 03 C3 5D 
  1362)     10005.5  Rx     00115DC3  5  01 00 00 C3 5D 
  1363)     10010.4  Rx     0001A212  7  01 00 00 0F 03 12 A2 
  1364)     10010.5  Rx     0011A212  5  01 00 00 12 A2 
  1365)     10015.4  Rx     0001C159  7  01 00 00 0F 03 59 C1 
  1366)     10015.5  Rx     0011C159  5  01 00 00 59 C1 
  1367)     10020.4  Rx     0001FD7E  7  01 00 00 0F 03 7E FD 
  1368)     10020.5  Rx     0011FD7E  5  01 00 00 7E FD 
  1369)     10025.4  Rx     00013BFD  7  01 00 00 0F 03 FD 3B 
  1370)     10025.5  Rx     00113BFD  5  01 00 00 FD 3B 
  1371)     10030.4  Rx     0001C4B7  7  01 00 00 0F 03 B7 C4 
  1372)     10030.5  Rx     0011C4B7  5  01 00 00 B7 C4 
  1373)     10035.4  Rx     00017DD5  7  01 00 00 0F 03 D5 7D 
  1374)     10035.5  Rx     00117DD5  5  01 00 00 D5 7D 
  1375)     10040.4  Rx     00012C55  7  01 00 00 0F 03 55 2C 
  1376)     10040.5  Rx     00112C55  5  01 00 00 55 2C 
  1377)     10045.4  Rx     0001C131  7  01 00 00 0F 03 31 C1 
  1378)     10045.5  Rx     0011C131  5  01 00 00 31 C1 
  1379)     10050.4  Rx     0001D83E  7  01 00 00 0F 03 3E D8 
  1380)     10050.5  Rx     0011D83E  5  01 00 00 3E D8 
  1381)     10055.4  Rx     00012E5A  7  01 00 00 0F 03 5A 2E 
  1382)     10055.5  Rx     00112E5A  5  01 00 00 5A 2E 
  1383)     10060.4  Rx     0001A4D2  7  01 00 00 0F 03 D2 A4 
  1384)     10060.5  Rx     0011A4D2  5  01 00 00 D2 A4 
  1385)     10065.4  Rx     0001E7F5  7  01 00 00 0F 03 F5 E7 
  1386)     10065.5  Rx     0011E7F5  5  01 00 00 F5 E7 
  1387)     10070.4  Rx     000195B4  7  01 00 00 0F 03 B4 95 
  1388)     10070.5  Rx     001195B4  5  01 00 00 B4 95 
  1389)     10075.4  Rx     0001BF32  7  01 00 00 0F 03 32 BF 
  1390)     10075.5  Rx     0011BF32  5  01 00 00 32 BF 
  1391)     10080.4  Rx     0001D567  7  01 00 00 0F 03 67 D5 
  1392)     10080.5  Rx     0011D567  5  01 00 00 67 D5 
  1393)     10085.4  Rx     0001F1A1  7  01 00 00 0F 03 A1 F1 
  1394)     10085.5  Rx     0011F1A1  5  01 00 00 A1 F1 
  1395)     10090.4  Rx     000132DC  7  01 00 00 0F 03 DC 32 
  1396)     10090.5  Rx     001132DC  5  01 00 00 DC 32 
  1397)     10095.4  Rx     0001AF56  7  01 00 00 0F 03 56 AF 
  1398)     10095.5  Rx     0011AF56  5  01 00 00 56 AF 
  1399)     10100.4  Rx     0001A9AA  7  01 00 00 0F 03 AA A9 
  1400)     10100.5  Rx     0011A9AA  5  01 00 00 AA A9 
  1401)     10105.4  Rx     0001D2D3  7  01 00 00 0F 03 D3 D2 
  1402)     10105.5  Rx     0011D2D3  5  01 00 00 D3 D2 
  1403)     10110.4  Rx     0001FB7E  7  01 00 00 0F 03 7E FB 
  1404)     10110.5  Rx     0011FB7E  5  01 00 00 7E FB 
  1405)     10115.4  Rx     0001E8CC  7  01 00 00 0F 03 CC E8 
  1406)     10115.5  Rx     0011E8CC  5  01 00 00 CC E8 
  1407)     10120.4  Rx     00017509  7  01 00 00 0F 03 09 75 
  1408)     10120.5  Rx     00117509  5  01 00 00 09 75 
  1409)     10125.4  Rx     000170B6  7  01 00 00 0F 03 B6 70 
  1410)     10125.5  Rx     001170B6  5  01 00 00 B6 70 
  1411)     10130.4  Rx     0001E679  7  01 00 00 0F 03 79 E6 
  1412)     10130.5  Rx     0011E679  5  01 00 00 79 E6 
  1413)     10135.4  Rx     0001A7D1  7  01 00 00 0F 03 D1 A7 
  1414)     10135.5  Rx     0011A7D1  5  01 00 00 D1 A7 
  1415)     10140.4  Rx     00012B3C  7  01 00 00 0F 03 3C 2B 
  1416)     10140.5  Rx     00112B3C  5  01 00 00 3C 2B 
  1417)     10145.4  Rx     0001FB02  7  01 00 00 0F 03 02 FB 
  1418)     10145.5  Rx     0011FB02  5  01 00 00 02 FB 
  1419)     10150.4  Rx     0001169C  7  01 00 00 0F 03 9C 16 
  1420)     10150.5  Rx     0011169C  5  01 00 00 9C 16 
  1421)     10155.4  Rx     000120BA  7  01 00 00 0F 03 BA 20 
  1422)     10155.5  Rx     001120BA  5  01 00 00 BA 20 
  1423)     10160.4  Rx     0001467D  7  01 00 00 0F 03 7D 46 
  1424)     10160.5  Rx     0011467D  5  01 00 00 7D 46 
  1425)     10165.4  Rx     00012EC1  7  01 00 00 0F 03 C1 2E 
  1426)     10165.5  Rx     00112EC1  5  01 00 00 C1 2E 
  1427)     10170.4  Rx     00017339  7  01 00 00 0F 03 39 73 
  1428)     10170.5  Rx     00117339  5  01 00 00 39 73 
  1429)     10175.4  Rx     00017899  7  01 00 00 0F 03 99 78 
  1430)     10175.5  Rx     00117899  5  01 00 00 99 78 
  1431)     10180.4  Rx     0001FB79  7  01 00 00 0F 03 79 FB 
  1432)     10180.5  Rx     0011FB79  5  01 00 00 79 FB 
  1433)     10185.4  Rx     0001C1D7  7  01 00 00 0F 03 D7 C1 
  1434)     10185.5  Rx     0011C1D7  5  01 00 00 D7 C1 
  1435)     10190.4  Rx     00013075  7  01 00 00 0F 03 75 30 
  1436)     10190.5  Rx     00113075  5  01 00 00 75 30 
  1437)     10195.4  Rx     00017CA2  7  01 00 00 0F 03 A2 7C 
  1438)     10195.5  Rx     00117CA2  5  01 00 00 A2 7C 
  1439)     10200.4  Rx     00012F04  7  01 00 00 0F 03 04 2F 
  1440)     10200.5  Rx     00112F04  5  01 00 00 04 2F 
  1441)     10205.4  Rx     0001933F  7  01 00 00 0F 03 3F 93 
  1442)     10205.5  Rx     0011933F  5  01 00 00 3F 93 
  1443)     10210.4  Rx     00017760  7  01 00 00 0F 03 60 77 
  1444)     10210.5  Rx     00117760  5  01 00 00 60 77 
  1445)     10215.4  Rx     0001744B  7  01 00 00 0F 03 4B 74 
  1446)     10215.5  Rx     0011744B  5  01 00 00 4B 74 
  1447)     10220.4  Rx     0001958E  7  01 00 00 0F 03 8E 95 
  1448)     10220.5  Rx     0011958E  5  01 00 00 8E 95 
  1449)     10225.4  Rx     00010815  7  01 00 00 0F 03 15 08 
  1450)     10225.5  Rx     00110815  5  01 00 00 15 08 
  1451)     10230.4  Rx     0001C9C8  7  01 00 00 0F 03 C8 C9 
  1452)     10230.5  Rx     0011C9C8  5  01 00 00 C8 C9 
  1453)     10235.4  Rx     00010635  7  01 00 00 0F 03 35 06 
  1454)     10235.5  Rx     00110635  5  01 00 00 35 06 
  1455)     10240.4  Rx     0001C058  7  01 00 00 0F 03 58 C0 
  1456)     10240.5  Rx     0011C058  5  01 00 00 58 C0 
  1457)     10245.4  Rx     00016957  7  01 00 00 0F 03 57 69 
  1458)     10245.5  Rx     00116957  5  01 00 00 57 69 
  1459)     10250.4  Rx     0001C9CD  7  01 00 00 0F 03 CD C9 
  1460)     10250.5  Rx     0011C9CD  5  01 00 00 CD C9 
  1461)     10255.4  Rx     0001DFCD  7  01 00 00 0F 03 CD DF 
  1462)     10255.5  Rx     0011DFCD  5  01 00 00 CD DF 
  1463)     10260.4  Rx     00013066  7  01 00 00 0F 03 66 30 
  1464)     10260.5  Rx     00113066  5  01 00 00 66 30 
  1465)     10265.4  Rx     00011A6A  7  01 00 00 0F 03 6A 1A 
  1466)     10265.5  Rx     00111A6A  5  01 00 00 6A 1A 
  1467)     10270.4  Rx     00018D33  7  01 00 00 0F 03 33 8D 
  1468)     10270.5  Rx     00118D33  5  01 00 00 33 8D 
  1469)     10275.4  Rx     0001AFB1  7  01 00 00 0F 03 B1 AF 
  1470)     10275.5  Rx     0011AFB1  5  01 00 00 B1 AF 
  1471)     10280.4  Rx     00015333  7  01 00 00 0F 03 33 53 
  1472)     10280.5  Rx     00115333  5  01 00 00 33 53 
  1473)     10285.4  Rx     0001F85D  7  01 00 00 0F 03 5D F8 
  1474)     10285.5  Rx     0011F85D  5  01 00 00 5D F8 
  1475)     10290.4  Rx     00016C79  7  01 00 00 0F 03 79 6C 
  1476)     10290.5  Rx     00116C79  5  01 00 00 79 6C 
  1477)     10295.4  Rx     0001DAD3  7  01 00 00 0F 03 D3 DA 
  1478)     10295.5  Rx     0011DAD3  5  01 00 00 D3 DA 
  1479)     10300.4  Rx     0001A926  7  01 00 00 0F 03 26 A9 
  1480)     10300.5  Rx     0011A926  5  01 00 00 26 A9 
  1481)     10305.4  Rx     0001ADEF  7  01 00 00 0F 03 EF AD 
  1482)     10305.5  Rx     0011ADEF  5  01 00 00 EF AD 
  1483)     10310.4  Rx     000159AD  7  01 00 00 0F 03 AD 59 
  1484)     10310.5  Rx     001159AD  5  01 00 00 AD 59 
  1485)     10315.4  Rx     0001585E  7  01 00 00 0F 03 5E 58 
  1486)     10315.5  Rx     0011585E  5  01 00 00 5E 58 
  1487)     10320.4  Rx     0001D5C7  7  01 00 00 0F 03 C7 D5 
  1488)     10320.5  Rx     0011D5C7  5  01 00 00 C7 D5 
  1489)     10325.4  Rx     0001F452  7  01 00 00 0F 03 52 F4 
  1490)     10325.5  Rx     0011F452  5  01 00 00 52 F4 
  1491)     10330.4  Rx     00019AFD  7  01 00 00 0F 03 FD 9A 
  1492)     10330.5  Rx     00119AFD  5  01 00 00 FD 9A 
  1493)     10335.4  Rx     0001885A  7  01 00 00 0F 03 5A 88 
  1494)     10335.5  Rx     0011885A  5  01 00 00 5A 88 
  1495)     10340.4  Rx     000195AF  7  01 00 00 0F 03 AF 95 
  1496)     10340.5  Rx     001195AF  5  01 00 00 AF 95 
  1497)     10345.4  Rx     0001F0AC  7  01 00 00 0F 03 AC F0 
  1498)     10345.5  Rx     0011F0AC  5  01 00 00 AC F0 
  1499)     10350.4  Rx     0001390C  7  01 00 00 0F 03 0C 39 
  1500)     10350.5  Rx     0011390C  5  01 00 00 0C 39 
  1501)     10355.4  Rx     0001E911  7  01 00 00 0F 03 11 E9 
  1502)     10355.5  Rx     0011E911  5  01 00 00 11 E9 
  1503)     10360.4  Rx     0001EE43  7  01 00 00 0F 03 43 EE 
  1504)     10360.5  Rx     0011EE43  5  01 00 00 43 EE 
  1505)     10365.4  Rx     00017E61  7  01 00 00 0F 03 61 7E 
  1506)     10365.5  Rx     00117E61  5  01 00 00 61 7E 
  1507)     10370.4  Rx     0001AD09  7  01 00 00 0F 03 09 AD 
  1508)     10370.5  Rx     0011AD09  5  01 00 00 09 AD 
  1509)     10375.4  Rx     0001FF2F  7  01 00 00 0F 03 2F FF 
  1510)     10375.5  Rx     0011FF2F  5  01 00 00 2F FF 
  1511)     10380.4  Rx     00012F20  7  01 00 00 0F 03 20 2F 
  1512)     10380.5  Rx     00112F20  5  01 00 00 20 2F 
  1513)     10385.4  Rx     00017E12  7  01 00 00 0F 03 12 7E 
  1514)     10385.5  Rx     00117E12  5  01 00 00 12 7E 
  1515)     10390.4  Rx     00016680  7  01 00 00 0F 03 80 66 
  1516)     10390.5  Rx     00116680  5  01 00 00 80 66 
  1517)     10395.4  Rx     000118AC  7  01 00 00 0F 03 AC 18 
  1518)     10395.5  Rx     001118AC  5  01 00 00 AC 18 
  1519)     10400.4  Rx     0001FD55  7  01 00 00 0F 03 55 FD 
  1520)     10400.5  Rx     0011FD55  5  01 00 00 55 FD 
  1521)     10405.4  Rx     00012563  7  01 00 00 0F 03 63 25 
  1522)     10405.5  Rx     00112563  5  01 00 00 63 25 
  1523)     10410.4  Rx     000144ED  7  01 00 00 0F 03 ED 44 
  1524)     10410.5  Rx     001144ED  5  01 00 00 ED 44 
  1525)     10415.4  Rx     00013269  7  01 00 00 0F 03 69 32 
  1526)     10415.5  Rx     00113269  5  01 00 00 69 32 
  1527)     10420.4  Rx     00016852  7  01 00 00 0F 03 52 68 
  1528)     10420.5  Rx     00116852  5  01 00 00 52 68 
  1529)     10425.4  Rx     00015B7F  7  01 00 00 0F 03 7F 5B 
  1530)     10425.5  Rx     00115B7F  5  01 00 00 7F 5B 
  1531)     10430.3  Rx     00014D15  7  01 00 00 0F 03 15 4D 
  1532)     10430.5  Rx     00114D15  5  01 00 00 15 4D 
  1533)     10435.4  Rx     0001A89C  7  01 00 00 0F 03 9C A8 
  1534)     10435.5  Rx     0011A89C  5  01 00 00 9C A8 
  1535)     10440.4  Rx     000104A2  7  01 00 00 0F 03 A2 04 
  1536)     10440.5  Rx     001104A2  5  01 00 00 A2 04 
  1537)     10445.4  Rx     0001F25C  7  01 00 00 0F 03 5C F2 
  1538)     10445.5  Rx     0011F25C  5  01 00 00 5C F2 
  1539)     10450.4  Rx     00012214  7  01 00 00 0F 03 14 22 
  1540)     10450.5  Rx     00112214  5  01 00 00 14 22 
  1541)     10455.4  Rx     000119EB  7  01 00 00 0F 03 EB 19 
  1542)     10455.5  Rx     001119EB  5  01 00 00 EB 19 
  1543)     10460.3  Rx     0001E45A  7  01 00 00 0F 03 5A E4 
  1544)     10460.5  Rx     0011E45A  5  01 00 00 5A E4 
  1545)     10465.4  Rx     000104BE  7  01 00 00 0F 03 BE 04 
  1546)     10465.5  Rx     001104BE  5  01 00 00 BE 04 
  1547)     10470.4  Rx     00019235  7  01 00 00 0F 03 35 92 
  1548)     10470.5  Rx     00119235  5  01 00 00 35 92 
  1549)     10475.4  Rx     00013559  7  01 00 00 0F 03 59 35 
  1550)     10475.5  Rx     00113559  5  01 00 00 59 35 
  1551)     10480.4  Rx     0001BD50  7  01 00 00 0F 03 50 BD 
  1552)     10480.5  Rx     0011BD50  5  01 00 00 50 BD 
  1553)     10485.3  Rx     00014CFC  7  01 00 00 0F 03 FC 4C 
  1554)     10485.5  Rx     00114CFC  5  01 00 00 FC 4C 
  1555)     10490.4  Rx     00013784  7  01 00 00 0F 03 84 37 
  1556)     10490.5  Rx     00113784  5  01 00 00 84 37 
  1557)     10495.4  Rx     00018EE4  7  01 00 00 0F 03 E4 8E 
  1558)     10495.5  Rx     00118EE4  5  01 00 00 E4 8E 
  1559)     10500.4  Rx     0001F10B  7  01 00 00 0F 03 0B F1 
  1560)     10500.5  Rx     0011F10B  5  01 00 00 0B F1 
  1561)     10505.4  Rx     00016884  7  01 00 00 0F 03 84 68 
  1562)     10505.5  Rx     00116884  5  01 00 00 84 68 
  1563)     10510.3  Rx     0001F824  7  01 00 00 0F 03 24 F8 
  1564)     10510.5  Rx     0011F824  5  01 00 00 24 F8 
  1565)     10515.3  Rx     00015EEA  7  01 00 00 0F 03 EA 5E 
  1566)     10515.5  Rx     00115EEA  5  01 00 00 EA 5E 
  1567)     10520.4  Rx     0001967C  7  01 00 00 0F 03 7C 96 
  1568)     10520.5  Rx     0011967C  5  01 00 00 7C 96 
  1569)     10525.4  Rx     0001241F  7  01 00 00 0F 03 1F 24 
  1570)     10525.5  Rx     0011241F  5  01 00 00 1F 24 
  1571)     10530.4  Rx     0001A660  7  01 00 00 0F 03 60 A6 
  1572)     10530.5  Rx     0011A660  5  01 00 00 60 A6 
  1573)     10535.3  Rx     0001604E  7  01 00 00 0F 03 4E 60 
  1574)     10535.5  Rx     0011604E  5  01 00 00 4E 60 
  1575)     10540.3  Rx     00019171  7  01 00 00 0F 03 71 91 
  1576)     10540.5  Rx     00119171  5  01 00 00 71 91 
  1577)     10545.4  Rx     0001DCF4  7  01 00 00 0F 03 F4 DC 
  1578)     10545.5  Rx     0011DCF4  5  01 00 00 F4 DC 
  1579)     10550.4  Rx     00018082  7  01 00 00 0F 03 82 80 
  1580)     10550.5  Rx     00118082  5  01 00 00 82 80 
  1581)     10555.4  Rx     0001A15E  7  01 00 00 0F 03 5E A1 
  1582)     10555.5  Rx     0011A15E  5  01 00 00 5E A1 
  1583)     10560.4  Rx     0001A3C4  7  01 00 00 0F 03 C4 A3 
  1584)     10560.5  Rx     0011A3C4  5  01 00 00 C4 A3 
  1585)     10565.3  Rx     0001C64E  7  01 00 00 0F 03 4E C6 
  1586)     10565.5  Rx     0011C64E  5  01 00 00 4E C6 
  1587)     10570.3  Rx     0001C866  7  01 00 00 0F 03 66 C8 
  1588)     10570.5  Rx     0011C866  5  01 00 00 66 C8 
  1589)     10575.4  Rx     00014F72  7  01 00 00 0F 03 72 4F 
  1590)     10575.5  Rx     00114F72  5  01 00 00 72 4F 
  1591)     10580.4  Rx     00017057  7  01 00 00 0F 03 57 70 
  1592)     10580.4  Rx     00117057  5  01 00 00 57 70 
  1593)     10585.4  Rx     0001301C  7  01 00 00 0F 03 1C 30 
  1594)     10585.5  Rx     0011301C  5  01 00 00 1C 30 
  1595)     10590.3  Rx     00015ACC  7  01 00 00 0F 03 CC 5A 
  1596)     10590.5  Rx     00115ACC  5  01 00 00 CC 5A 
  1597)     10595.3  Rx     00017D54  7  01 00 00 0F 03 54 7D 
  1598)     10595.5  Rx     00117D54  5  01 00 00 54 7D 
  1599)     10600.3  Rx     0001ABBF  7  01 00 00 0F 03 BF AB 
  1600)     10600.5  Rx     0011ABBF  5  01 00 00 BF AB 
  1601)     10605.4  Rx     0001F23C  7  01 00 00 0F 03 3C F2 
  1602)     10605.4  Rx     0011F23C  5  01 00 00 3C F2 
  1603)     10610.4  Rx     00012671  7  01 00 00 0F 03 71 26 
  1604)     10610.4  Rx     00112671  5  01 00 00 71 26 
  1605)     10615.3  Rx     00010862  7  01 00 00 0F 03 62 08 
  1606)     10615.5  Rx     00110862  5  01 00 00 62 08 
  1607)     10620.3  Rx     0001F6C1  7  01 00 00 0F 03 C1 F6 
  1608)     10620.5  Rx     0011F6C1  5  01 00 00 C1 F6 
  1609)     10625.3  Rx     00019C76  7  01 00 00 0F 03 76 9C 
  1610)     10625.5  Rx     00119C76  5  01 00 00 76 9C 
  1611)     10630.4  Rx     0001DADC  7  01 00 00 0F 03 DC DA 
  1612)     10630.5  Rx     0011DADC  5  01 00 00 DC DA 
  1613)     10635.4  Rx     00015474  7  01 00 00 0F 03 74 54 
  1614)     10635.4  Rx     00115474  5  01 00 00 74 54 
  1615)     10640.4  Rx     00012680  7  01 00 00 0F 03 80 26 
  1616)     10640.5  Rx     00112680  5  01 00 00 80 26 
  1617)     10645.3  Rx     0001DF49  7  01 00 00 0F 03 49 DF 
  1618)     10645.5  Rx     0011DF49  5  01 00 00 49 DF 
  1619)     10650.3  Rx     00016AF7  7  01 00 00 0F 03 F7 6A 
  1620)     10650.5  Rx     00116AF7  5  01 00 00 F7 6A 
  1621)     10655.3  Rx     00012A7E  7  01 00 00 0F 03 7E 2A 
  1622)     10655.5  Rx     00112A7E  5  01 00 00 7E 2A 
  1623)     10660.4  Rx     00012E73  7  01 00 00 0F 03 73 2E 
  1624)     10660.4  Rx     00112E73  5  01 00 00 73 2E 
  1625)     10665.4  Rx     0001C968  7  01 00 00 0F 03 68 C9 
  1626)     10665.4  Rx     0011C968  5  01 00 00 68 C9 
  1627)     10670.3  Rx     00019764  7  01 00 00 0F 03 64 97 
  1628)     10670.5  Rx     00119764  5  01 00 00 64 97 
  1629)     10675.3  Rx     00017DF4  7  01 00 00 0F 03 F4 7D 
  1630)     10675.5  Rx     00117DF4  5  01 00 00 F4 7D 
  1631)     10680.3  Rx     00014017  7  01 00 00 0F 03 17 40 
