;$FILEVERSION=1.1
;$STARTTIME=46290.6826113542
;
;   Start time: 25/09/2026 16:22:57.621.0
;   Generated by PCAN-View v5.3.3.958
;
;   Message Number
;   |         Time Offset (ms)
;   |         |        Type
;   |         |        |        ID (hex)
;   |         |        |        |     Data Length
;   |         |        |        |     |   Data Bytes (hex) ...
;   |         |        |        |     |   |
;---+--   ----+----  --+--  ----+---  +  -+ -- -- -- -- -- -- --
     1)      5607.7  Rx     0001F1CF  7  01 00 00 0F 00 CF F1 
     2)      5607.9  Rx     0011F1CF  5  01 00 00 CF F1 
     3)      5612.7  Rx     0001E2B1  7  01 00 00 0F 03 B1 E2 
     4)      5612.9  Rx     0011E2B1  5  01 00 00 B1 E2 
     5)      5617.8  Rx     00012000  7  01 00 00 0F 03 00 20 
     6)      5617.9  Rx     00112000  5  01 00 00 00 20 
     7)      5622.8  Rx     0001A7D9  7  01 00 00 0F 04 D9 A7 
     8)      5622.8  Rx     0011A7D9  5  01 00 00 D9 A7 
     9)      5627.8  Rx     0001445A  7  01 00 00 0F 03 5A 44 
    10)      5627.8  Rx     0011445A  5  01 00 00 5A 44 
    11)      5632.7  Rx     00011401  7  01 00 00 0F 03 01 14 
    12)      5632.9  Rx     00111401  5  01 00 00 01 14 
    13)      5637.7  Rx     00012884  7  01 00 00 0F 03 84 28 
    14)      5637.9  Rx     00112884  5  01 00 00 84 28 
    15)      5642.7  Rx     00012FC3  7  01 00 00 0F 03 C3 2F 
    16)      5642.9  Rx     00112FC3  5  01 00 00 C3 2F 
    17)      5647.8  Rx     0001057F  7  01 00 00 0F 03 7F 05 
    18)      5647.8  Rx     0011057F  5  01 00 00 7F 05 
    19)      5652.8  Rx     0001A5EE  7  01 00 00 0F 03 EE A5 
    20)      5652.8  Rx     0011A5EE  5  01 00 00 EE A5 
    21)      5657.7  Rx     0001FC64  7  01 00 00 0F 03 64 FC 
    22)      5657.9  Rx     0011FC64  5  01 00 00 64 FC 
    23)      5662.7  Rx     0001A5EF  7  01 00 00 0F 03 EF A5 
    24)      5662.9  Rx     0011A5EF  5  01 00 00 EF A5 
    25)      5667.7  Rx     0001BC53  7  01 00 00 0F 03 53 BC 
    26)      5667.9  Rx     0011BC53  5  01 00 00 53 BC 
    27)      5672.7  Rx     0001BE11  7  01 00 00 0F 03 11 BE 
    28)      5672.8  Rx     0011BE11  5  01 00 00 11 BE 
    29)      5677.8  Rx     00013BDF  7  01 00 00 0F 03 DF 3B 
    30)      5677.8  Rx     00113BDF  5  01 00 00 DF 3B 
    31)      5682.7  Rx     00013696  7  01 00 00 0F 03 96 36 
    32)      5682.8  Rx     00113696  5  01 00 00 96 36 
    33)      5687.7  Rx     0001A607  7  01 00 00 0F 03 07 A6 
    34)      5687.9  Rx     0011A607  5  01 00 00 07 A6 
    35)      5692.7  Rx     0001D736  7  01 00 00 0F 03 36 D7 
    36)      5692.9  Rx     0011D736  5  01 00 00 36 D7 
    37)      5697.7  Rx     00010A7D  7  01 00 00 0F 03 7D 0A 
    38)      5697.9  Rx     00110A7D  5  01 00 00 7D 0A 
    39)      5702.8  Rx     00014F82  7  01 00 00 0F 03 82 4F 
    40)      5702.8  Rx     00114F82  5  01 00 00 82 4F 
    41)      5707.8  Rx     00011EBC  7  01 00 00 0F 03 BC 1E 
    42)      5707.8  Rx     00111EBC  5  01 00 00 BC 1E 
    43)      5712.7  Rx     00016743  7  01 00 00 0F 03 43 67 
    44)      5712.8  Rx     00116743  5  01 00 00 43 67 
    45)      5717.7  Rx     00012948  7  01 00 00 0F 03 48 29 
    46)      5717.9  Rx     00112948  5  01 00 00 48 29 
    47)      5722.7  Rx     0001F2CC  7  01 00 00 0F 03 CC F2 
    48)      5722.9  Rx     0011F2CC  5  01 00 00 CC F2 
    49)      5727.7  Rx     00014E11  7  01 00 00 0F 03 11 4E 
    50)      5727.8  Rx     00114E11  5  01 00 00 11 4E 
    51)      5732.8  Rx     0001CFD8  7  01 00 00 0F 03 D8 CF 
    52)      5732.8  Rx     0011CFD8  5  01 00 00 D8 CF 
    53)      5737.7  Rx     00010EBD  7  01 00 00 0F 03 BD 0E 
    54)      5737.8  Rx     00110EBD  5  01 00 00 BD 0E 
    55)      5742.7  Rx     00010A67  7  01 00 00 0F 03 67 0A 
    56)      5742.8  Rx     00110A67  5  01 00 00 67 0A 
    57)      5747.7  Rx     0001AF7B  7  01 00 00 0F 03 7B AF 
    58)      5747.8  Rx     0011AF7B  5  01 00 00 7B AF 
    59)      5752.7  Rx     000121BA  7  01 00 00 0F 03 BA 21 
    60)      5752.8  Rx     001121BA  5  01 00 00 BA 21 
    61)      5757.7  Rx     0001E081  7  01 00 00 0F 03 81 E0 
    62)      5757.8  Rx     0011E081  5  01 00 00 81 E0 
    63)      5762.7  Rx     0001BC60  7  01 00 00 0F 03 60 BC 
    64)      5762.8  Rx     0011BC60  5  01 00 00 60 BC 
    65)      5767.7  Rx     00019E5C  7  01 00 00 0F 03 5C 9E 
    66)      5767.8  Rx     00119E5C  5  01 00 00 5C 9E 
    67)      5772.7  Rx     0001E6EF  7  01 00 00 0F 03 EF E6 
    68)      5772.8  Rx     0011E6EF  5  01 00 00 EF E6 
    69)      5777.7  Rx     000196D3  7  01 00 00 0F 03 D3 96 
    70)      5777.8  Rx     001196D3  5  01 00 00 D3 96 
    71)      5782.7  Rx     0001B7E1  7  01 00 00 0F 03 E1 B7 
    72)      5782.8  Rx     0011B7E1  5  01 00 00 E1 B7 
    73)      5787.6  Rx     0001EDD1  7  01 00 00 0F 03 D1 ED 
    74)      5787.8  Rx     0011EDD1  5  01 00 00 D1 ED 
    75)      5792.7  Rx     0001F7A8  7  01 00 00 0F 03 A8 F7 
    76)      5792.8  Rx     0011F7A8  5  01 00 00 A8 F7 
    77)      5797.7  Rx     0001F9C3  7  01 00 00 0F 03 C3 F9 
    78)      5797.8  Rx     0011F9C3  5  01 00 00 C3 F9 
    79)      5802.7  Rx     000172FA  7  01 00 00 0F 03 FA 72 
    80)      5802.8  Rx     001172FA  5  01 00 00 FA 72 
    81)      5807.7  Rx     00016C49  7  01 00 00 0F 03 49 6C 
    82)      5807.8  Rx     00116C49  5  01 00 00 49 6C 
    83)      5812.6  Rx     00014DE2  7  01 00 00 0F 03 E2 4D 
    84)      5812.8  Rx     00114DE2  5  01 00 00 E2 4D 
    85)      5817.7  Rx     0001C826  7  01 00 00 0F 03 26 C8 
    86)      5817.8  Rx     0011C826  5  01 00 00 26 C8 
    87)      5822.7  Rx     0001991E  7  01 00 00 0F 03 1E 99 
    88)      5822.8  Rx     0011991E  5  01 00 00 1E 99 
    89)      5827.7  Rx     000186DA  7  01 00 00 0F 03 DA 86 
    90)      5827.8  Rx     001186DA  5  01 00 00 DA 86 
    91)      5832.7  Rx     0001DFCB  7  01 00 00 0F 03 CB DF 
    92)      5832.8  Rx     0011DFCB  5  01 00 00 CB DF 
    93)      5837.7  Rx     0001B847  7  01 00 00 0F 03 47 B8 
    94)      5837.8  Rx     0011B847  5  01 00 00 47 B8 
    95)      5842.6  Rx     00014A6E  7  01 00 00 0F 03 6E 4A 
    96)      5842.8  Rx     00114A6E  5  01 00 00 6E 4A 
    97)      5847.7  Rx     0001BC53  7  01 00 00 0F 03 53 BC 
    98)      5847.8  Rx     0011BC53  5  01 00 00 53 BC 
    99)      5852.7  Rx     000140E5  7  01 00 00 0F 03 E5 40 
   100)      5852.8  Rx     001140E5  5  01 00 00 E5 40 
   101)      5857.7  Rx     00018A5E  7  01 00 00 0F 03 5E 8A 
   102)      5857.8  Rx     00118A5E  5  01 00 00 5E 8A 
   103)      5862.7  Rx     00016FB8  7  01 00 00 0F 03 B8 6F 
   104)      5862.8  Rx     00116FB8  5  01 00 00 B8 6F 
   105)      5867.6  Rx     0001540F  7  01 00 00 0F 03 0F 54 
   106)      5867.8  Rx     0011540F  5  01 00 00 0F 54 
   107)      5872.7  Rx     0001B9EB  7  01 00 00 0F 03 EB B9 
   108)      5872.8  Rx     0011B9EB  5  01 00 00 EB B9 
   109)      5877.7  Rx     000118C1  7  01 00 00 0F 03 C1 18 
   110)      5877.8  Rx     001118C1  5  01 00 00 C1 18 
   111)      5882.7  Rx     0001033D  7  01 00 00 0F 03 3D 03 
   112)      5882.8  Rx     0011033D  5  01 00 00 3D 03 
   113)      5887.7  Rx     0001C48E  7  01 00 00 0F 03 8E C4 
   114)      5887.8  Rx     0011C48E  5  01 00 00 8E C4 
   115)      5892.6  Rx     0001DB76  7  01 00 00 0F 03 76 DB 
   116)      5892.8  Rx     0011DB76  5  01 00 00 76 DB 
   117)      5897.6  Rx     00016DDB  7  01 00 00 0F 03 DB 6D 
   118)      5897.8  Rx     00116DDB  5  01 00 00 DB 6D 
   119)      5902.7  Rx     00016635  7  01 00 00 0F 03 35 66 
   120)      5902.8  Rx     00116635  5  01 00 00 35 66 
   121)      5907.7  Rx     000165C5  7  01 00 00 0F 03 C5 65 
   122)      5907.8  Rx     001165C5  5  01 00 00 C5 65 
   123)      5912.7  Rx     0001675D  7  01 00 00 0F 03 5D 67 
   124)      5912.8  Rx     0011675D  5  01 00 00 5D 67 
   125)      5917.7  Rx     0001C7DF  7  01 00 00 0F 03 DF C7 
   126)      5917.8  Rx     0011C7DF  5  01 00 00 DF C7 
   127)      5922.6  Rx     0001B712  7  01 00 00 0F 03 12 B7 
   128)      5922.8  Rx     0011B712  5  01 00 00 12 B7 
   129)      5927.6  Rx     0001EB2F  7  01 00 00 0F 03 2F EB 
   130)      5927.8  Rx     0011EB2F  5  01 00 00 2F EB 
   131)      5932.7  Rx     000120E0  7  01 00 00 0F 03 E0 20 
   132)      5932.8  Rx     001120E0  5  01 00 00 E0 20 
   133)      5937.7  Rx     0001B23B  7  01 00 00 0F 03 3B B2 
   134)      5937.7  Rx     0011B23B  5  01 00 00 3B B2 
   135)      5942.7  Rx     00011087  7  01 00 00 0F 03 87 10 
   136)      5942.8  Rx     00111087  5  01 00 00 87 10 
   137)      5947.6  Rx     0001F9AB  7  01 00 00 0F 03 AB F9 
   138)      5947.8  Rx     0011F9AB  5  01 00 00 AB F9 
   139)      5952.6  Rx     0001A784  7  01 00 00 0F 03 84 A7 
   140)      5952.8  Rx     0011A784  5  01 00 00 84 A7 
   141)      5957.7  Rx     000114CE  7  01 00 00 0F 03 CE 14 
   142)      5957.8  Rx     001114CE  5  01 00 00 CE 14 
   143)      5962.7  Rx     0001F546  7  01 00 00 0F 03 46 F5 
   144)      5962.7  Rx     0011F546  5  01 00 00 46 F5 
   145)      5967.7  Rx     0001BD04  7  01 00 00 0F 03 04 BD 
   146)      5967.8  Rx     0011BD04  5  01 00 00 04 BD 
   147)      5972.6  Rx     000120BB  7  01 00 00 0F 03 BB 20 
   148)      5972.8  Rx     001120BB  5  01 00 00 BB 20 
   149)      5977.6  Rx     000140D9  7  01 00 00 0F 03 D9 40 
   150)      5977.8  Rx     001140D9  5  01 00 00 D9 40 
   151)      5982.6  Rx     0001808C  7  01 00 00 0F 03 8C 80 
   152)      5982.8  Rx     0011808C  5  01 00 00 8C 80 
   153)      5987.7  Rx     0001754F  7  01 00 00 0F 03 4F 75 
   154)      5987.8  Rx     0011754F  5  01 00 00 4F 75 
   155)      5992.7  Rx     0001304A  7  01 00 00 0F 03 4A 30 
   156)      5992.8  Rx     0011304A  5  01 00 00 4A 30 
   157)      5997.6  Rx     00010FB5  7  01 00 00 0F 03 B5 0F 
   158)      5997.8  Rx     00110FB5  5  01 00 00 B5 0F 
   159)      6002.6  Rx     0001CB5E  7  01 00 00 0F 03 5E CB 
   160)      6002.8  Rx     0011CB5E  5  01 00 00 5E CB 
   161)      6007.6  Rx     000107F8  7  01 00 00 0F 03 F8 07 
   162)      6007.8  Rx     001107F8  5  01 00 00 F8 07 
   163)      6012.7  Rx     0001BF6A  7  01 00 00 0F 03 6A BF 
   164)      6012.8  Rx     0011BF6A  5  01 00 00 6A BF 
   165)      6017.7  Rx     0001C749  7  01 00 00 0F 03 49 C7 
   166)      6017.7  Rx     0011C749  5  01 00 00 49 C7 
   167)      6022.7  Rx     0001328F  7  01 00 00 0F 03 8F 32 
   168)      6022.8  Rx     0011328F  5  01 00 00 8F 32 
   169)      6027.6  Rx     00017C99  7  01 00 00 0F 03 99 7C 
   170)      6027.8  Rx     00117C99  5  01 00 00 99 7C 
   171)      6032.6  Rx     0001AEAB  7  01 00 00 0F 03 AB AE 
   172)      6032.8  Rx     0011AEAB  5  01 00 00 AB AE 
   173)      6037.6  Rx     00016838  7  01 00 00 0F 03 38 68 
   174)      6037.8  Rx     00116838  5  01 00 00 38 68 
   175)      6042.7  Rx     0001A588  7  01 00 00 0F 03 88 A5 
   176)      6042.7  Rx     0011A588  5  01 00 00 88 A5 
   177)      6047.7  Rx     0001B590  7  01 00 00 0F 03 90 B5 
   178)      6047.7  Rx     0011B590  5  01 00 00 90 B5 
   179)      6052.6  Rx     0001DA9C  7  01 00 00 0F 03 9C DA 
   180)      6052.8  Rx     0011DA9C  5  01 00 00 9C DA 
   181)      6057.6  Rx     00018DDD  7  01 00 00 0F 03 DD 8D 
   182)      6057.8  Rx     00118DDD  5  01 00 00 DD 8D 
   183)      6062.6  Rx     000105C5  7  01 00 00 0F 03 C5 05 
   184)      6062.8  Rx     001105C5  5  01 00 00 C5 05 
   185)      6067.6  Rx     0001D84F  7  01 00 00 0F 03 4F D8 
   186)      6067.7  Rx     0011D84F  5  01 00 00 4F D8 
   187)      6072.7  Rx     0001B72B  7  01 00 00 0F 03 2B B7 
   188)      6072.7  Rx     0011B72B  5  01 00 00 2B B7 
   189)      6077.6  Rx     00018FF7  7  01 00 00 0F 03 F7 8F 
   190)      6077.8  Rx     00118FF7  5  01 00 00 F7 8F 
   191)      6082.6  Rx     00016721  7  01 00 00 0F 03 21 67 
   192)      6082.8  Rx     00116721  5  01 00 00 21 67 
   193)      6087.6  Rx     0001F571  7  01 00 00 0F 03 71 F5 
   194)      6087.8  Rx     0011F571  5  01 00 00 71 F5 
   195)      6092.6  Rx     000141CB  7  01 00 00 0F 03 CB 41 
   196)      6092.8  Rx     001141CB  5  01 00 00 CB 41 
   197)      6097.7  Rx     00019622  7  01 00 00 0F 03 22 96 
   198)      6097.7  Rx     00119622  5  01 00 00 22 96 
   199)      6102.7  Rx     00015CD2  7  01 00 00 0F 03 D2 5C 
   200)      6102.7  Rx     00115CD2  5  01 00 00 D2 5C 
   201)      6107.6  Rx     00018490  7  01 00 00 0F 03 90 84 
   202)      6107.8  Rx     00118490  5  01 00 00 90 84 
   203)      6112.6  Rx     0001CA5A  7  01 00 00 0F 03 5A CA 
   204)      6112.8  Rx     0011CA5A  5  01 00 00 5A CA 
   205)      6117.6  Rx     0001990C  7  01 00 00 0F 03 0C 99 
   206)      6117.8  Rx     0011990C  5  01 00 00 0C 99 
   207)      6122.6  Rx     00016331  7  01 00 00 0F 03 31 63 
   208)      6122.7  Rx     00116331  5  01 00 00 31 63 
   209)      6127.7  Rx     000117D7  7  01 00 00 0F 03 D7 17 
   210)      6127.7  Rx     001117D7  5  01 00 00 D7 17 
   211)      6132.6  Rx     0001B6C0  7  01 00 00 0F 03 C0 B6 
   212)      6132.8  Rx     0011B6C0  5  01 00 00 C0 B6 
   213)      6137.6  Rx     00018D64  7  01 00 00 0F 03 64 8D 
   214)      6137.8  Rx     00118D64  5  01 00 00 64 8D 
   215)      6142.6  Rx     00010642  7  01 00 00 0F 03 42 06 
   216)      6142.8  Rx     00110642  5  01 00 00 42 06 
   217)      6147.6  Rx     0001B359  7  01 00 00 0F 03 59 B3 
   218)      6147.7  Rx     0011B359  5  01 00 00 59 B3 
   219)      6152.7  Rx     00016157  7  01 00 00 0F 03 57 61 
   220)      6152.7  Rx     00116157  5  01 00 00 57 61 
   221)      6157.6  Rx     00015491  7  01 00 00 0F 03 91 54 
   222)      6157.7  Rx     00115491  5  01 00 00 91 54 
   223)      6162.6  Rx     000154ED  7  01 00 00 0F 03 ED 54 
   224)      6162.7  Rx     001154ED  5  01 00 00 ED 54 
   225)      6167.6  Rx     0001981F  7  01 00 00 0F 03 1F 98 
   226)      6167.8  Rx     0011981F  5  01 00 00 1F 98 
   227)      6172.6  Rx     0001E60E  7  01 00 00 0F 03 0E E6 
   228)      6172.8  Rx     0011E60E  5  01 00 00 0E E6 
   229)      6177.6  Rx     0001DF26  7  01 00 00 0F 03 26 DF 
   230)      6177.7  Rx     0011DF26  5  01 00 00 26 DF 
   231)      6182.6  Rx     0001310F  7  01 00 00 0F 03 0F 31 
   232)      6182.7  Rx     0011310F  5  01 00 00 0F 31 
   233)      6187.6  Rx     0001BB03  7  01 00 00 0F 03 03 BB 
   234)      6187.7  Rx     0011BB03  5  01 00 00 03 BB 
   235)      6192.6  Rx     0001E64B  7  01 00 00 0F 03 4B E6 
   236)      6192.8  Rx     0011E64B  5  01 00 00 4B E6 
   237)      6197.6  Rx     00013117  7  01 00 00 0F 03 17 31 
   238)      6197.8  Rx     00113117  5  01 00 00 17 31 
   239)      6202.6  Rx     00017C35  7  01 00 00 0F 03 35 7C 
   240)      6202.7  Rx     00117C35  5  01 00 00 35 7C 
   241)      6207.7  Rx     00013F3E  7  01 00 00 0F 03 3E 3F 
   242)      6207.7  Rx     00113F3E  5  01 00 00 3E 3F 
   243)      6212.6  Rx     00016F92  7  01 00 00 0F 03 92 6F 
   244)      6212.7  Rx     00116F92  5  01 00 00 92 6F 
   245)      6217.6  Rx     00018FAB  7  01 00 00 0F 03 AB 8F 
   246)      6217.8  Rx     00118FAB  5  01 00 00 AB 8F 
   247)      6222.6  Rx     00018D21  7  01 00 00 0F 03 21 8D 
   248)      6222.8  Rx     00118D21  5  01 00 00 21 8D 
   249)      6227.6  Rx     000124C2  7  01 00 00 0F 03 C2 24 
   250)      6227.7  Rx     001124C2  5  01 00 00 C2 24 
   251)      6232.6  Rx     0001ACE9  7  01 00 00 0F 03 E9 AC 
   252)      6232.7  Rx     0011ACE9  5  01 00 00 E9 AC 
   253)      6237.6  Rx     00015D30  7  01 00 00 0F 03 30 5D 
   254)      6237.7  Rx     00115D30  5  01 00 00 30 5D 
   255)      6242.6  Rx     00017214  7  01 00 00 0F 03 14 72 
   256)      6242.7  Rx     00117214  5  01 00 00 14 72 
   257)      6247.6  Rx     0001DE48  7  01 00 00 0F 03 48 DE 
   258)      6247.8  Rx     0011DE48  5  01 00 00 48 DE 
   259)      6252.6  Rx     0001DEFA  7  01 00 00 0F 03 FA DE 
   260)      6252.7  Rx     0011DEFA  5  01 00 00 FA DE 
   261)      6257.6  Rx     00016270  7  01 00 00 0F 03 70 62 
   262)      6257.7  Rx     00116270  5  01 00 00 70 62 
   263)      6262.6  Rx     00013BCA  7  01 00 00 0F 03 CA 3B 
   264)      6262.7  Rx     00113BCA  5  01 00 00 CA 3B 
   265)      6267.6  Rx     0001BB27  7  01 00 00 0F 03 27 BB 
   266)      6267.7  Rx     0011BB27  5  01 00 00 27 BB 
   267)      6272.6  Rx     0001FEF5  7  01 00 00 0F 03 F5 FE 
   268)      6272.8  Rx     0011FEF5  5  01 00 00 F5 FE 
   269)      6277.6  Rx     0001B1E6  7  01 00 00 0F 03 E6 B1 
   270)      6277.8  Rx     0011B1E6  5  01 00 00 E6 B1 
   271)      6282.6  Rx     00014D43  7  01 00 00 0F 03 43 4D 
   272)      6282.7  Rx     00114D43  5  01 00 00 43 4D 
   273)      6287.6  Rx     000190EA  7  01 00 00 0F 03 EA 90 
   274)      6287.7  Rx     001190EA  5  01 00 00 EA 90 
   275)      6292.6  Rx     0001B03A  7  01 00 00 0F 03 3A B0 
   276)      6292.7  Rx     0011B03A  5  01 00 00 3A B0 
   277)      6297.6  Rx     0001C8AF  7  01 00 00 0F 03 AF C8 
   278)      6297.7  Rx     0011C8AF  5  01 00 00 AF C8 
   279)      6302.6  Rx     0001BC46  7  01 00 00 0F 03 46 BC 
   280)      6302.8  Rx     0011BC46  5  01 00 00 46 BC 
   281)      6307.6  Rx     0001589F  7  01 00 00 0F 03 9F 58 
   282)      6307.7  Rx     0011589F  5  01 00 00 9F 58 
   283)      6312.6  Rx     00010CBA  7  01 00 00 0F 03 BA 0C 
   284)      6312.7  Rx     00110CBA  5  01 00 00 BA 0C 
   285)      6317.6  Rx     0001B141  7  01 00 00 0F 03 41 B1 
   286)      6317.7  Rx     0011B141  5  01 00 00 41 B1 
   287)      6322.6  Rx     00018EA5  7  01 00 00 0F 03 A5 8E 
   288)      6322.7  Rx     00118EA5  5  01 00 00 A5 8E 
   289)      6327.6  Rx     00019FF0  7  01 00 00 0F 03 F0 9F 
   290)      6327.8  Rx     00119FF0  5  01 00 00 F0 9F 
   291)      6332.6  Rx     00015818  7  01 00 00 0F 03 18 58 
   292)      6332.7  Rx     00115818  5  01 00 00 18 58 
   293)      6337.6  Rx     0001EBDE  7  01 00 00 0F 03 DE EB 
   294)      6337.7  Rx     0011EBDE  5  01 00 00 DE EB 
   295)      6342.6  Rx     00011041  7  01 00 00 0F 03 41 10 
   296)      6342.7  Rx     00111041  5  01 00 00 41 10 
   297)      6347.6  Rx     000129F3  7  01 00 00 0F 03 F3 29 
   298)      6347.7  Rx     001129F3  5  01 00 00 F3 29 
   299)      6352.6  Rx     00010192  7  01 00 00 0F 03 92 01 
   300)      6352.7  Rx     00110192  5  01 00 00 92 01 
   301)      6357.6  Rx     000198C6  7  01 00 00 0F 03 C6 98 
   302)      6357.7  Rx     001198C6  5  01 00 00 C6 98 
   303)      6362.6  Rx     000129CC  7  01 00 00 0F 03 CC 29 
   304)      6362.7  Rx     001129CC  5  01 00 00 CC 29 
   305)      6367.6  Rx     00017BC0  7  01 00 00 0F 03 C0 7B 
   306)      6367.7  Rx     00117BC0  5  01 00 00 C0 7B 
   307)      6372.6  Rx     000138A2  7  01 00 00 0F 03 A2 38 
   308)      6372.7  Rx     001138A2  5  01 00 00 A2 38 
   309)      6377.6  Rx     00018C2E  7  01 00 00 0F 03 2E 8C 
   310)      6377.7  Rx     00118C2E  5  01 00 00 2E 8C 
   311)      6382.6  Rx     0001A051  7  01 00 00 0F 03 51 A0 
   312)      6382.7  Rx     0011A051  5  01 00 00 51 A0 
   313)      6387.6  Rx     00016CC6  7  01 00 00 0F 03 C6 6C 
   314)      6387.7  Rx     00116CC6  5  01 00 00 C6 6C 
   315)      6392.6  Rx     0001F062  7  01 00 00 0F 03 62 F0 
   316)      6392.7  Rx     0011F062  5  01 00 00 62 F0 
   317)      6397.6  Rx     000153F2  7  01 00 00 0F 03 F2 53 
   318)      6397.7  Rx     001153F2  5  01 00 00 F2 53 
   319)      6402.6  Rx     00017D73  7  01 00 00 0F 03 73 7D 
   320)      6402.7  Rx     00117D73  5  01 00 00 73 7D 
   321)      6407.6  Rx     0001C6DD  7  01 00 00 0F 03 DD C6 
   322)      6407.7  Rx     0011C6DD  5  01 00 00 DD C6 
   323)      6412.6  Rx     000195B2  7  01 00 00 0F 03 B2 95 
   324)      6412.7  Rx     001195B2  5  01 00 00 B2 95 
   325)      6417.6  Rx     0001370C  7  01 00 00 0F 03 0C 37 
   326)      6417.7  Rx     0011370C  5  01 00 00 0C 37 
   327)      6422.6  Rx     00014477  7  01 00 00 0F 03 77 44 
   328)      6422.7  Rx     00114477  5  01 00 00 77 44 
   329)      6427.6  Rx     0001AE1A  7  01 00 00 0F 03 1A AE 
   330)      6427.7  Rx     0011AE1A  5  01 00 00 1A AE 
   331)      6432.6  Rx     0001E01B  7  01 00 00 0F 03 1B E0 
   332)      6432.7  Rx     0011E01B  5  01 00 00 1B E0 
   333)      6437.6  Rx     000172C3  7  01 00 00 0F 03 C3 72 
   334)      6437.7  Rx     001172C3  5  01 00 00 C3 72 
   335)      6442.6  Rx     00015C02  7  01 00 00 0F 03 02 5C 
   336)      6442.7  Rx     00115C02  5  01 00 00 02 5C 
   337)      6447.6  Rx     00015465  7  01 00 00 0F 03 65 54 
   338)      6447.7  Rx     00115465  5  01 00 00 65 54 
   339)      6452.6  Rx     0001B171  7  01 00 00 0F 03 71 B1 
   340)      6452.7  Rx     0011B171  5  01 00 00 71 B1 
   341)      6457.6  Rx     000119A3  7  01 00 00 0F 03 A3 19 
   342)      6457.7  Rx     001119A3  5  01 00 00 A3 19 
   343)      6462.6  Rx     00014CA2  7  01 00 00 0F 03 A2 4C 
   344)      6462.7  Rx     00114CA2  5  01 00 00 A2 4C 
   345)      6467.6  Rx     000188CB  7  01 00 00 0F 03 CB 88 
   346)      6467.7  Rx     001188CB  5  01 00 00 CB 88 
   347)      6472.6  Rx     0001CC3A  7  01 00 00 0F 03 3A CC 
   348)      6472.7  Rx     0011CC3A  5  01 00 00 3A CC 
   349)      6477.6  Rx     00014030  7  01 00 00 0F 03 30 40 
   350)      6477.7  Rx     00114030  5  01 00 00 30 40 
   351)      6482.6  Rx     0001100E  7  01 00 00 0F 03 0E 10 
   352)      6482.7  Rx     0011100E  5  01 00 00 0E 10 
   353)      6487.6  Rx     00013293  7  01 00 00 0F 03 93 32 
   354)      6487.7  Rx     00113293  5  01 00 00 93 32 
   355)      6492.6  Rx     0001BCD1  7  01 00 00 0F 03 D1 BC 
   356)      6492.7  Rx     0011BCD1  5  01 00 00 D1 BC 
   357)      6497.6  Rx     00010F58  7  01 00 00 0F 03 58 0F 
   358)      6497.7  Rx     00110F58  5  01 00 00 58 0F 
   359)      6502.6  Rx     0001712C  7  01 00 00 0F 03 2C 71 
   360)      6502.7  Rx     0011712C  5  01 00 00 2C 71 
   361)      6507.6  Rx     0001E812  7  01 00 00 0F 03 12 E8 
   362)      6507.7  Rx     0011E812  5  01 00 00 12 E8 
   363)      6512.6  Rx     00019949  7  01 00 00 0F 03 49 99 
   364)      6512.7  Rx     00119949  5  01 00 00 49 99 
   365)      6517.6  Rx     0001BCAC  7  01 00 00 0F 03 AC BC 
   366)      6517.7  Rx     0011BCAC  5  01 00 00 AC BC 
   367)      6522.6  Rx     000148D6  7  01 00 00 0F 03 D6 48 
   368)      6522.7  Rx     001148D6  5  01 00 00 D6 48 
   369)      6527.6  Rx     00018D3E  7  01 00 00 0F 03 3E 8D 
   370)      6527.7  Rx     00118D3E  5  01 00 00 3E 8D 
   371)      6532.6  Rx     0001D812  7  01 00 00 0F 03 12 D8 
   372)      6532.7  Rx     0011D812  5  01 00 00 12 D8 
   373)      6537.6  Rx     0001AC4D  7  01 00 00 0F 03 4D AC 
   374)      6537.7  Rx     0011AC4D  5  01 00 00 4D AC 
   375)      6542.6  Rx     0001DB5B  7  01 00 00 0F 03 5B DB 
   376)      6542.7  Rx     0011DB5B  5  01 00 00 5B DB 
   377)      6547.6  Rx     0001D203  7  01 00 00 0F 03 03 D2 
   378)      6547.7  Rx     0011D203  5  01 00 00 03 D2 
   379)      6552.6  Rx     00011D5C  7  01 00 00 0F 03 5C 1D 
   380)      6552.7  Rx     00111D5C  5  01 00 00 5C 1D 
   381)      6557.6  Rx     000188A6  7  01 00 00 0F 03 A6 88 
   382)      6557.7  Rx     001188A6  5  01 00 00 A6 88 
   383)      6562.6  Rx     000122C6  7  01 00 00 0F 03 C6 22 
   384)      6562.7  Rx     001122C6  5  01 00 00 C6 22 
   385)      6567.6  Rx     0001C858  7  01 00 00 0F 03 58 C8 
   386)      6567.7  Rx     0011C858  5  01 00 00 58 C8 
   387)      6572.6  Rx     00010F3E  7  01 00 00 0F 03 3E 0F 
   388)      6572.7  Rx     00110F3E  5  01 00 00 3E 0F 
   389)      6577.6  Rx     000137DF  7  01 00 00 0F 03 DF 37 
   390)      6577.7  Rx     001137DF  5  01 00 00 DF 37 
   391)      6582.6  Rx     000121E1  7  01 00 00 0F 03 E1 21 
   392)      6582.7  Rx     001121E1  5  01 00 00 E1 21 
   393)      6587.6  Rx     0001820F  7  01 00 00 0F 03 0F 82 
   394)      6587.7  Rx     0011820F  5  01 00 00 0F 82 
   395)      6592.6  Rx     00011895  7  01 00 00 0F 04 95 18 
   396)      6592.7  Rx     00111895  5  01 00 00 95 18 
   397)      6597.6  Rx     0001FF0C  7  01 00 00 0F 03 0C FF 
   398)      6597.7  Rx     0011FF0C  5  01 00 00 0C FF 
   399)      6602.6  Rx     000137F8  7  01 00 00 0F 03 F8 37 
   400)      6602.7  Rx     001137F8  5  01 00 00 F8 37 
   401)      6607.6  Rx     0001826F  7  01 00 00 0F 03 6F 82 
   402)      6607.7  Rx     0011826F  5  01 00 00 6F 82 
   403)      6612.6  Rx     00015AAD  7  01 00 00 0F 03 AD 5A 
   404)      6612.7  Rx     00115AAD  5  01 00 00 AD 5A 
   405)      6617.6  Rx     00019727  7  01 00 00 0F 03 27 97 
   406)      6617.7  Rx     00119727  5  01 00 00 27 97 
   407)      6622.6  Rx     0001555D  7  01 00 00 0F 03 5D 55 
   408)      6622.7  Rx     0011555D  5  01 00 00 5D 55 
   409)      6627.6  Rx     00016783  7  01 00 00 0F 03 83 67 
   410)      6627.7  Rx     00116783  5  01 00 00 83 67 
   411)      6632.6  Rx     00014DA0  7  01 00 00 0F 03 A0 4D 
   412)      6632.7  Rx     00114DA0  5  01 00 00 A0 4D 
   413)      6637.6  Rx     00012BC3  7  01 00 00 0F 03 C3 2B 
   414)      6637.7  Rx     00112BC3  5  01 00 00 C3 2B 
   415)      6642.6  Rx     000180AE  7  01 00 00 0F 03 AE 80 
   416)      6642.7  Rx     001180AE  5  01 00 00 AE 80 
   417)      6647.6  Rx     00017730  7  01 00 00 0F 03 30 77 
   418)      6647.7  Rx     00117730  5  01 00 00 30 77 
   419)      6652.6  Rx     0001B381  7  01 00 00 0F 03 81 B3 
   420)      6652.7  Rx     0011B381  5  01 00 00 81 B3 
   421)      6657.6  Rx     00016F7D  7  01 00 00 0F 03 7D 6F 
   422)      6657.7  Rx     00116F7D  5  01 00 00 7D 6F 
   423)      6662.6  Rx     0001F0D8  7  01 00 00 0F 03 D8 F0 
   424)      6662.7  Rx     0011F0D8  5  01 00 00 D8 F0 
   425)      6667.6  Rx     00011C08  7  01 00 00 0F 03 08 1C 
   426)      6667.7  Rx     00111C08  5  01 00 00 08 1C 
   427)      6672.6  Rx     00015638  7  01 00 00 0F 03 38 56 
   428)      6672.7  Rx     00115638  5  01 00 00 38 56 
   429)      6677.6  Rx     0001BE31  7  01 00 00 0F 03 31 BE 
   430)      6677.7  Rx     0011BE31  5  01 00 00 31 BE 
   431)      6682.6  Rx     00017BDA  7  01 00 00 0F 03 DA 7B 
   432)      6682.7  Rx     00117BDA  5  01 00 00 DA 7B 
   433)      6687.6  Rx     000199DF  7  01 00 00 0F 03 DF 99 
   434)      6687.7  Rx     001199DF  5  01 00 00 DF 99 
   435)      6692.6  Rx     0001EC2B  7  01 00 00 0F 03 2B EC 
   436)      6692.7  Rx     0011EC2B  5  01 00 00 2B EC 
   437)      6697.6  Rx     000110F0  7  01 00 00 0F 03 F0 10 
   438)      6697.7  Rx     001110F0  5  01 00 00 F0 10 
   439)      6702.6  Rx     0001DA49  7  01 00 00 0F 03 49 DA 
   440)      6702.7  Rx     0011DA49  5  01 00 00 49 DA 
   441)      6707.6  Rx     00016E21  7  01 00 00 0F 03 21 6E 
   442)      6707.7  Rx     00116E21  5  01 00 00 21 6E 
   443)      6712.6  Rx     0001D3A0  7  01 00 00 0F 03 A0 D3 
   444)      6712.7  Rx     0011D3A0  5  01 00 00 A0 D3 
   445)      6717.6  Rx     000127B4  7  01 00 00 0F 03 B4 27 
   446)      6717.7  Rx     001127B4  5  01 00 00 B4 27 
   447)      6722.6  Rx     00010396  7  01 00 00 0F 03 96 03 
   448)      6722.7  Rx     00110396  5  01 00 00 96 03 
   449)      6727.6  Rx     000113E0  7  01 00 00 0F 03 E0 13 
   450)      6727.7  Rx     001113E0  5  01 00 00 E0 13 
   451)      6732.6  Rx     0001E0E4  7  01 00 00 0F 03 E4 E0 
   452)      6732.7  Rx     0011E0E4  5  01 00 00 E4 E0 
   453)      6737.6  Rx     00017CD0  7  01 00 00 0F 03 D0 7C 
   454)      6737.7  Rx     00117CD0  5  01 00 00 D0 7C 
   455)      6742.6  Rx     00016F11  7  01 00 00 0F 03 11 6F 
   456)      6742.7  Rx     00116F11  5  01 00 00 11 6F 
   457)      6747.6  Rx     00015FB0  7  01 00 00 0F 03 B0 5F 
   458)      6747.7  Rx     00115FB0  5  01 00 00 B0 5F 
   459)      6752.6  Rx     0001472B  7  01 00 00 0F 03 2B 47 
   460)      6752.7  Rx     0011472B  5  01 00 00 2B 47 
   461)      6757.6  Rx     00017A28  7  01 00 00 0F 03 28 7A 
   462)      6757.7  Rx     00117A28  5  01 00 00 28 7A 
   463)      6762.6  Rx     00016DAC  7  01 00 00 0F 03 AC 6D 
   464)      6762.7  Rx     00116DAC  5  01 00 00 AC 6D 
   465)      6767.6  Rx     00013732  7  01 00 00 0F 03 32 37 
   466)      6767.7  Rx     00113732  5  01 00 00 32 37 
   467)      6772.6  Rx     00014435  7  01 00 00 0F 03 35 44 
   468)      6772.7  Rx     00114435  5  01 00 00 35 44 
   469)      6777.6  Rx     00016424  7  01 00 00 0F 03 24 64 
   470)      6777.7  Rx     00116424  5  01 00 00 24 64 
   471)      6782.6  Rx     0001787F  7  01 00 00 0F 03 7F 78 
   472)      6782.7  Rx     0011787F  5  01 00 00 7F 78 
   473)      6787.6  Rx     00010C71  7  01 00 00 0F 03 71 0C 
   474)      6787.7  Rx     00110C71  5  01 00 00 71 0C 
   475)      6792.6  Rx     000122B4  7  01 00 00 0F 03 B4 22 
   476)      6792.7  Rx     001122B4  5  01 00 00 B4 22 
   477)      6797.6  Rx     00018265  7  01 00 00 0F 03 65 82 
   478)      6797.7  Rx     00118265  5  01 00 00 65 82 
   479)      6802.6  Rx     00017C0F  7  01 00 00 0F 03 0F 7C 
   480)      6802.7  Rx     00117C0F  5  01 00 00 0F 7C 
   481)      6807.6  Rx     000184EF  7  01 00 00 0F 03 EF 84 
   482)      6807.7  Rx     001184EF  5  01 00 00 EF 84 
   483)      6812.6  Rx     0001D370  7  01 00 00 0F 03 70 D3 
   484)      6812.7  Rx     0011D370  5  01 00 00 70 D3 
   485)      6817.6  Rx     00012634  7  01 00 00 0F 03 34 26 
   486)      6817.7  Rx     00112634  5  01 00 00 34 26 
   487)      6822.6  Rx     0001304D  7  01 00 00 0F 03 4D 30 
   488)      6822.7  Rx     0011304D  5  01 00 00 4D 30 
   489)      6827.6  Rx     0001E07C  7  01 00 00 0F 03 7C E0 
   490)      6827.7  Rx     0011E07C  5  01 00 00 7C E0 
   491)      6832.6  Rx     0001D526  7  01 00 00 0F 03 26 D5 
   492)      6832.7  Rx     0011D526  5  01 00 00 26 D5 
   493)      6837.6  Rx     0001BABE  7  01 00 00 0F 03 BE BA 
   494)      6837.7  Rx     0011BABE  5  01 00 00 BE BA 
   495)      6842.6  Rx     0001615F  7  01 00 00 0F 03 5F 61 
   496)      6842.7  Rx     0011615F  5  01 00 00 5F 61 
   497)      6847.6  Rx     0001BBCD  7  01 00 00 0F 03 CD BB 
   498)      6847.7  Rx     0011BBCD  5  01 00 00 CD BB 
   499)      6852.6  Rx     00011B34  7  01 00 00 0F 03 34 1B 
   500)      6852.7  Rx     00111B34  5  01 00 00 34 1B 
   501)      6857.6  Rx     0001D300  7  01 00 00 0F 03 00 D3 
   502)      6857.7  Rx     0011D300  5  01 00 00 00 D3 
   503)      6862.6  Rx     00014121  7  01 00 00 0F 03 21 41 
   504)      6862.7  Rx     00114121  5  01 00 00 21 41 
   505)      6867.6  Rx     00016AC8  7  01 00 00 0F 03 C8 6A 
   506)      6867.7  Rx     00116AC8  5  01 00 00 C8 6A 
   507)      6872.6  Rx     0001B2F6  7  01 00 00 0F 03 F6 B2 
   508)      6872.7  Rx     0011B2F6  5  01 00 00 F6 B2 
   509)      6877.6  Rx     00014583  7  01 00 00 0F 03 83 45 
   510)      6877.7  Rx     00114583  5  01 00 00 83 45 
   511)      6882.6  Rx     0001C16A  7  01 00 00 0F 03 6A C1 
   512)      6882.7  Rx     0011C16A  5  01 00 00 6A C1 
   513)      6887.6  Rx     0001B69F  7  01 00 00 0F 03 9F B6 
   514)      6887.7  Rx     0011B69F  5  01 00 00 9F B6 
   515)      6892.6  Rx     0001B3ED  7  01 00 00 0F 03 ED B3 
   516)      6892.7  Rx     0011B3ED  5  01 00 00 ED B3 
   517)      6897.6  Rx     00012DC7  7  01 00 00 0F 03 C7 2D 
   518)      6897.7  Rx     00112DC7  5  01 00 00 C7 2D 
   519)      6902.6  Rx     0001CB0E  7  01 00 00 0F 03 0E CB 
   520)      6902.7  Rx     0011CB0E  5  01 00 00 0E CB 
   521)      6907.6  Rx     00015BA3  7  01 00 00 0F 03 A3 5B 
   522)      6907.7  Rx     00115BA3  5  01 00 00 A3 5B 
   523)      6912.6  Rx     000102A4  7  01 00 00 0F 03 A4 02 
   524)      6912.7  Rx     001102A4  5  01 00 00 A4 02 
   525)      6917.6  Rx     0001037F  7  01 00 00 0F 03 7F 03 
   526)      6917.7  Rx     0011037F  5  01 00 00 7F 03 
   527)      6922.6  Rx     0001A9A6  7  01 00 00 0F 03 A6 A9 
   528)      6922.7  Rx     0011A9A6  5  01 00 00 A6 A9 
   529)      6927.6  Rx     00018ED5  7  01 00 00 0F 03 D5 8E 
   530)      6927.7  Rx     00118ED5  5  01 00 00 D5 8E 
   531)      6932.6  Rx     00011A52  7  01 00 00 0F 03 52 1A 
   532)      6932.7  Rx     00111A52  5  01 00 00 52 1A 
   533)      6937.6  Rx     0001A382  7  01 00 00 0F 03 82 A3 
   534)      6937.7  Rx     0011A382  5  01 00 00 82 A3 
   535)      6942.6  Rx     00015011  7  01 00 00 0F 03 11 50 
   536)      6942.7  Rx     00115011  5  01 00 00 11 50 
   537)      6947.6  Rx     0001A33B  7  01 00 00 0F 03 3B A3 
   538)      6947.7  Rx     0011A33B  5  01 00 00 3B A3 
   539)      6952.6  Rx     0001F53E  7  01 00 00 0F 03 3E F5 
   540)      6952.7  Rx     0011F53E  5  01 00 00 3E F5 
   541)      6957.6  Rx     0001727B  7  01 00 00 0F 03 7B 72 
   542)      6957.7  Rx     0011727B  5  01 00 00 7B 72 
   543)      6962.6  Rx     0001A1B8  7  01 00 00 0F 03 B8 A1 
   544)      6962.7  Rx     0011A1B8  5  01 00 00 B8 A1 
   545)      6967.6  Rx     000186F7  7  01 00 00 0F 03 F7 86 
   546)      6967.7  Rx     001186F7  5  01 00 00 F7 86 
   547)      6972.6  Rx     0001BFE5  7  01 00 00 0F 03 E5 BF 
   548)      6972.7  Rx     0011BFE5  5  01 00 00 E5 BF 
   549)      6977.6  Rx     00015566  7  01 00 00 0F 03 66 55 
   550)      6977.7  Rx     00115566  5  01 00 00 66 55 
   551)      6982.6  Rx     0001D094  7  01 00 00 0F 03 94 D0 
   552)      6982.7  Rx     0011D094  5  01 00 00 94 D0 
   553)      6987.6  Rx     00015C18  7  01 00 00 0F 03 18 5C 
   554)      6987.7  Rx     00115C18  5  01 00 00 18 5C 
   555)      6992.6  Rx     0001B6DC  7  01 00 00 0F 03 DC B6 
   556)      6992.7  Rx     0011B6DC  5  01 00 00 DC B6 
   557)      6997.6  Rx     0001D3BA  7  01 00 00 0F 03 BA D3 
   558)      6997.7  Rx     0011D3BA  5  01 00 00 BA D3 
   559)      7002.6  Rx     00019FF0  7  01 00 00 0F 03 F0 9F 
   560)      7002.7  Rx     00119FF0  5  01 00 00 F0 9F 
   561)      7007.6  Rx     0001112E  7  01 00 00 0F 03 2E 11 
   562)      7007.7  Rx     0011112E  5  01 00 00 2E 11 
   563)      7012.6  Rx     0001FF76  7  01 00 00 0F 03 76 FF 
   564)      7012.7  Rx     0011FF76  5  01 00 00 76 FF 
   565)      7017.6  Rx     00011765  7  01 00 00 0F 03 65 17 
   566)      7017.7  Rx     00111765  5  01 00 00 65 17 
   567)      7022.6  Rx     0001B7ED  7  01 00 00 0F 03 ED B7 
   568)      7022.7  Rx     0011B7ED  5  01 00 00 ED B7 
   569)      7027.6  Rx     0001D9A0  7  01 00 00 0F 03 A0 D9 
   570)      7027.7  Rx     0011D9A0  5  01 00 00 A0 D9 
   571)      7032.6  Rx     00015F25  7  01 00 00 0F 03 25 5F 
   572)      7032.7  Rx     00115F25  5  01 00 00 25 5F 
   573)      7037.6  Rx     00010A7B  7  01 00 00 0F 03 7B 0A 
   574)      7037.7  Rx     00110A7B  5  01 00 00 7B 0A 
   575)      7042.6  Rx     0001F9CA  7  01 00 00 0F 03 CA F9 
   576)      7042.7  Rx     0011F9CA  5  01 00 00 CA F9 
   577)      7047.6  Rx     0001D5BC  7  01 00 00 0F 03 BC D5 
   578)      7047.7  Rx     0011D5BC  5  01 00 00 BC D5 
   579)      7052.6  Rx     000121A1  7  01 00 00 0F 03 A1 21 
   580)      7052.7  Rx     001121A1  5  01 00 00 A1 21 
   581)      7057.6  Rx     000166AD  7  01 00 00 0F 03 AD 66 
   582)      7057.7  Rx     001166AD  5  01 00 00 AD 66 
   583)      7062.6  Rx     0001D4E0  7  01 00 00 0F 03 E0 D4 
   584)      7062.7  Rx     0011D4E0  5  01 00 00 E0 D4 
   585)      7067.6  Rx     00019691  7  01 00 00 0F 03 91 96 
   586)      7067.7  Rx     00119691  5  01 00 00 91 96 
   587)      7072.6  Rx     0001EDC9  7  01 00 00 0F 03 C9 ED 
   588)      7072.7  Rx     0011EDC9  5  01 00 00 C9 ED 
   589)      7077.6  Rx     0001B67A  7  01 00 00 0F 03 7A B6 
   590)      7077.7  Rx     0011B67A  5  01 00 00 7A B6 
   591)      7082.6  Rx     0001886E  7  01 00 00 0F 03 6E 88 
   592)      7082.7  Rx     0011886E  5  01 00 00 6E 88 
   593)      7087.6  Rx     0001AD7F  7  01 00 00 0F 03 7F AD 
   594)      7087.7  Rx     0011AD7F  5  01 00 00 7F AD 
   595)      7092.6  Rx     0001714B  7  01 00 00 0F 03 4B 71 
   596)      7092.7  Rx     0011714B  5  01 00 00 4B 71 
   597)      7097.6  Rx     00017027  7  01 00 00 0F 03 27 70 
   598)      7097.7  Rx     00117027  5  01 00 00 27 70 
   599)      7102.6  Rx     00018219  7  01 00 00 0F 03 19 82 
   600)      7102.7  Rx     00118219  5  01 00 00 19 82 
   601)      7107.6  Rx     00013F8A  7  01 00 00 0F 03 8A 3F 
   602)      7107.7  Rx     00113F8A  5  01 00 00 8A 3F 
   603)      7112.6  Rx     00015F05  7  01 00 00 0F 03 05 5F 
   604)      7112.7  Rx     00115F05  5  01 00 00 05 5F 
   605)      7117.6  Rx     0001166F  7  01 00 00 0F 03 6F 16 
   606)      7117.7  Rx     0011166F  5  01 00 00 6F 16 
   607)      7122.6  Rx     00019531  7  01 00 00 0F 03 31 95 
   608)      7122.7  Rx     00119531  5  01 00 00 31 95 
   609)      7127.6  Rx     00019072  7  01 00 00 0F 03 72 90 
   610)      7127.7  Rx     00119072  5  01 00 00 72 90 
   611)      7132.6  Rx     00011829  7  01 00 00 0F 03 29 18 
   612)      7132.7  Rx     00111829  5  01 00 00 29 18 
   613)      7137.6  Rx     00011EFA  7  01 00 00 0F 03 FA 1E 
   614)      7137.7  Rx     00111EFA  5  01 00 00 FA 1E 
   615)      7142.6  Rx     00016EB3  7  01 00 00 0F 03 B3 6E 
   616)      7142.7  Rx     00116EB3  5  01 00 00 B3 6E 
   617)      7147.6  Rx     0001A983  7  01 00 00 0F 03 83 A9 
   618)      7147.7  Rx     0011A983  5  01 00 00 83 A9 
   619)      7152.6  Rx     00019822  7  01 00 00 0F 03 22 98 
   620)      7152.7  Rx     00119822  5  01 00 00 22 98 
   621)      7157.6  Rx     00012A8E  7  01 00 00 0F 03 8E 2A 
   622)      7157.7  Rx     00112A8E  5  01 00 00 8E 2A 
   623)      7162.5  Rx     0001CA12  7  01 00 00 0F 03 12 CA 
   624)      7162.7  Rx     0011CA12  5  01 00 00 12 CA 
   625)      7167.6  Rx     0001C02C  7  01 00 00 0F 03 2C C0 
   626)      7167.7  Rx     0011C02C  5  01 00 00 2C C0 
   627)      7172.6  Rx     00013339  7  01 00 00 0F 03 39 33 
   628)      7172.7  Rx     00113339  5  01 00 00 39 33 
   629)      7177.6  Rx     0001FB06  7  01 00 00 0F 03 06 FB 
   630)      7177.7  Rx     0011FB06  5  01 00 00 06 FB 
   631)      7182.6  Rx     0001CEB5  7  01 00 00 0F 03 B5 CE 
   632)      7182.7  Rx     0011CEB5  5  01 00 00 B5 CE 
   633)      7187.5  Rx     0001E850  7  01 00 00 0F 03 50 E8 
   634)      7187.7  Rx     0011E850  5  01 00 00 50 E8 
   635)      7192.6  Rx     000173F6  7  01 00 00 0F 03 F6 73 
   636)      7192.7  Rx     001173F6  5  01 00 00 F6 73 
   637)      7197.6  Rx     00019705  7  01 00 00 0F 03 05 97 
   638)      7197.7  Rx     00119705  5  01 00 00 05 97 
   639)      7202.6  Rx     00014E3E  7  01 00 00 0F 03 3E 4E 
   640)      7202.7  Rx     00114E3E  5  01 00 00 3E 4E 
   641)      7207.6  Rx     00019A5F  7  01 00 00 0F 03 5F 9A 
   642)      7207.7  Rx     00119A5F  5  01 00 00 5F 9A 
   643)      7212.6  Rx     0001D347  7  01 00 00 0F 03 47 D3 
   644)      7212.7  Rx     0011D347  5  01 00 00 47 D3 
   645)      7217.5  Rx     00014769  7  01 00 00 0F 03 69 47 
   646)      7217.7  Rx     00114769  5  01 00 00 69 47 
   647)      7222.6  Rx     0001338F  7  01 00 00 0F 03 8F 33 
   648)      7222.7  Rx     0011338F  5  01 00 00 8F 33 
   649)      7227.6  Rx     00013923  7  01 00 00 0F 03 23 39 
   650)      7227.7  Rx     00113923  5  01 00 00 23 39 
   651)      7232.6  Rx     0001AF62  7  01 00 00 0F 03 62 AF 
   652)      7232.7  Rx     0011AF62  5  01 00 00 62 AF 
   653)      7237.6  Rx     0001B681  7  01 00 00 0F 03 81 B6 
   654)      7237.7  Rx     0011B681  5  01 00 00 81 B6 
   655)      7242.5  Rx     0001AE8C  7  01 00 00 0F 03 8C AE 
   656)      7242.7  Rx     0011AE8C  5  01 00 00 8C AE 
   657)      7247.5  Rx     0001B359  7  01 00 00 0F 03 59 B3 
   658)      7247.7  Rx     0011B359  5  01 00 00 59 B3 
   659)      7252.6  Rx     0001F169  7  01 00 00 0F 03 69 F1 
   660)      7252.7  Rx     0011F169  5  01 00 00 69 F1 
   661)      7257.6  Rx     0001F4FD  7  01 00 00 0F 03 FD F4 
   662)      7257.7  Rx     0011F4FD  5  01 00 00 FD F4 
   663)      7262.6  Rx     0001A8A1  7  01 00 00 0F 03 A1 A8 
   664)      7262.7  Rx     0011A8A1  5  01 00 00 A1 A8 
   665)      7267.5  Rx     00010507  7  01 00 00 0F 03 07 05 
   666)      7267.7  Rx     00110507  5  01 00 00 07 05 
   667)      7272.5  Rx     000101D2  7  01 00 00 0F 03 D2 01 
   668)      7272.7  Rx     001101D2  5  01 00 00 D2 01 
   669)      7277.6  Rx     00018CA9  7  01 00 00 0F 03 A9 8C 
   670)      7277.7  Rx     00118CA9  5  01 00 00 A9 8C 
   671)      7282.6  Rx     0001F602  7  01 00 00 0F 03 02 F6 
   672)      7282.7  Rx     0011F602  5  01 00 00 02 F6 
   673)      7287.6  Rx     0001CC87  7  01 00 00 0F 03 87 CC 
   674)      7287.7  Rx     0011CC87  5  01 00 00 87 CC 
   675)      7292.5  Rx     00018383  7  01 00 00 0F 03 83 83 
   676)      7292.7  Rx     00118383  5  01 00 00 83 83 
   677)      7297.5  Rx     0001A0D8  7  01 00 00 0F 03 D8 A0 
   678)      7297.7  Rx     0011A0D8  5  01 00 00 D8 A0 
   679)      7302.5  Rx     0001AFB4  7  01 00 00 0F 03 B4 AF 
   680)      7302.7  Rx     0011AFB4  5  01 00 00 B4 AF 
   681)      7307.6  Rx     0001EB65  7  01 00 00 0F 03 65 EB 
   682)      7307.7  Rx     0011EB65  5  01 00 00 65 EB 
   683)      7312.6  Rx     00011DC0  7  01 00 00 0F 03 C0 1D 
   684)      7312.7  Rx     00111DC0  5  01 00 00 C0 1D 
   685)      7317.6  Rx     0001DCA1  7  01 00 00 0F 03 A1 DC 
   686)      7317.7  Rx     0011DCA1  5  01 00 00 A1 DC 
   687)      7322.5  Rx     00018E4E  7  01 00 00 0F 03 4E 8E 
   688)      7322.7  Rx     00118E4E  5  01 00 00 4E 8E 
   689)      7327.5  Rx     0001E6ED  7  01 00 00 0F 03 ED E6 
   690)      7327.7  Rx     0011E6ED  5  01 00 00 ED E6 
   691)      7332.6  Rx     000160C5  7  01 00 00 0F 03 C5 60 
   692)      7332.7  Rx     001160C5  5  01 00 00 C5 60 
   693)      7337.6  Rx     0001A2CB  7  01 00 00 0F 03 CB A2 
   694)      7337.6  Rx     0011A2CB  5  01 00 00 CB A2 
   695)      7342.6  Rx     0001297F  7  01 00 00 0F 03 7F 29 
   696)      7342.7  Rx     0011297F  5  01 00 00 7F 29 
   697)      7347.5  Rx     0001B082  7  01 00 00 0F 03 82 B0 
   698)      7347.7  Rx     0011B082  5  01 00 00 82 B0 
   699)      7352.5  Rx     00018D31  7  01 00 00 0F 03 31 8D 
   700)      7352.7  Rx     00118D31  5  01 00 00 31 8D 
   701)      7357.5  Rx     00010788  7  01 00 00 0F 03 88 07 
   702)      7357.7  Rx     00110788  5  01 00 00 88 07 
   703)      7362.6  Rx     00015C4E  7  01 00 00 0F 03 4E 5C 
   704)      7362.7  Rx     00115C4E  5  01 00 00 4E 5C 
   705)      7367.6  Rx     000119AF  7  01 00 00 0F 03 AF 19 
   706)      7367.6  Rx     001119AF  5  01 00 00 AF 19 
   707)      7372.5  Rx     00015E28  7  01 00 00 0F 03 28 5E 
   708)      7372.7  Rx     00115E28  5  01 00 00 28 5E 
   709)      7377.5  Rx     0001F3E4  7  01 00 00 0F 03 E4 F3 
   710)      7377.7  Rx     0011F3E4  5  01 00 00 E4 F3 
   711)      7382.5  Rx     00017A23  7  01 00 00 0F 03 23 7A 
   712)      7382.7  Rx     00117A23  5  01 00 00 23 7A 
   713)      7387.6  Rx     00015FFF  7  01 00 00 0F 03 FF 5F 
   714)      7387.7  Rx     00115FFF  5  01 00 00 FF 5F 
   715)      7392.6  Rx     0001DE36  7  01 00 00 0F 03 36 DE 
   716)      7392.6  Rx     0011DE36  5  01 00 00 36 DE 
   717)      7397.6  Rx     000122FA  7  01 00 00 0F 03 FA 22 
   718)      7397.7  Rx     001122FA  5  01 00 00 FA 22 
   719)      7402.5  Rx     0001B489  7  01 00 00 0F 03 89 B4 
   720)      7402.7  Rx     0011B489  5  01 00 00 89 B4 
   721)      7407.5  Rx     0001BC8C  7  01 00 00 0F 03 8C BC 
   722)      7407.7  Rx     0011BC8C  5  01 00 00 8C BC 
   723)      7412.5  Rx     000136F4  7  01 00 00 0F 03 F4 36 
   724)      7412.7  Rx     001136F4  5  01 00 00 F4 36 
   725)      7417.6  Rx     000144EC  7  01 00 00 0F 03 EC 44 
   726)      7417.6  Rx     001144EC  5  01 00 00 EC 44 
   727)      7422.6  Rx     000169B0  7  01 00 00 0F 03 B0 69 
   728)      7422.6  Rx     001169B0  5  01 00 00 B0 69 
   729)      7427.5  Rx     00011758  7  01 00 00 0F 03 58 17 
   730)      7427.7  Rx     00111758  5  01 00 00 58 17 
   731)      7432.5  Rx     0001836C  7  01 00 00 0F 03 6C 83 
   732)      7432.7  Rx     0011836C  5  01 00 00 6C 83 
   733)      7437.5  Rx     0001FF90  7  01 00 00 0F 03 90 FF 
   734)      7437.7  Rx     0011FF90  5  01 00 00 90 FF 
   735)      7442.5  Rx     00015FB3  7  01 00 00 0F 03 B3 5F 
   736)      7442.6  Rx     00115FB3  5  01 00 00 B3 5F 
   737)      7447.6  Rx     00015A5D  7  01 00 00 0F 03 5D 5A 
   738)      7447.6  Rx     00115A5D  5  01 00 00 5D 5A 
   739)      7452.5  Rx     0001993D  7  01 00 00 0F 03 3D 99 
   740)      7452.6  Rx     0011993D  5  01 00 00 3D 99 
   741)      7457.5  Rx     0001FCE9  7  01 00 00 0F 03 E9 FC 
   742)      7457.7  Rx     0011FCE9  5  01 00 00 E9 FC 
   743)      7462.5  Rx     00012C9E  7  01 00 00 0F 03 9E 2C 
   744)      7462.7  Rx     00112C9E  5  01 00 00 9E 2C 
   745)      7467.5  Rx     00013865  7  01 00 00 0F 03 65 38 
   746)      7467.7  Rx     00113865  5  01 00 00 65 38 
   747)      7472.6  Rx     0001E07D  7  01 00 00 0F 03 7D E0 
   748)      7472.6  Rx     0011E07D  5  01 00 00 7D E0 
   749)      7477.5  Rx     00010F5B  7  01 00 00 0F 03 5B 0F 
   750)      7477.6  Rx     00110F5B  5  01 00 00 5B 0F 
   751)      7482.5  Rx     0001832D  7  01 00 00 0F 03 2D 83 
   752)      7482.7  Rx     0011832D  5  01 00 00 2D 83 
   753)      7487.5  Rx     0001A39A  7  01 00 00 0F 03 9A A3 
   754)      7487.7  Rx     0011A39A  5  01 00 00 9A A3 
   755)      7492.5  Rx     00012261  7  01 00 00 0F 03 61 22 
   756)      7492.7  Rx     00112261  5  01 00 00 61 22 
   757)      7497.5  Rx     0001279D  7  01 00 00 0F 03 9D 27 
   758)      7497.6  Rx     0011279D  5  01 00 00 9D 27 
   759)      7502.6  Rx     00017054  7  01 00 00 0F 03 54 70 
   760)      7502.6  Rx     00117054  5  01 00 00 54 70 
   761)      7507.5  Rx     000157DD  7  01 00 00 0F 03 DD 57 
   762)      7507.6  Rx     001157DD  5  01 00 00 DD 57 
   763)      7512.5  Rx     0001569D  7  01 00 00 0F 03 9D 56 
   764)      7512.7  Rx     0011569D  5  01 00 00 9D 56 
   765)      7517.5  Rx     0001786D  7  01 00 00 0F 03 6D 78 
   766)      7517.7  Rx     0011786D  5  01 00 00 6D 78 
   767)      7522.5  Rx     0001C983  7  01 00 00 0F 03 83 C9 
   768)      7522.6  Rx     0011C983  5  01 00 00 83 C9 
   769)      7527.5  Rx     000178D6  7  01 00 00 0F 03 D6 78 
   770)      7527.6  Rx     001178D6  5  01 00 00 D6 78 
   771)      7532.5  Rx     0001678B  7  01 00 00 0F 03 8B 67 
   772)      7532.6  Rx     0011678B  5  01 00 00 8B 67 
   773)      7537.5  Rx     00018405  7  01 00 00 0F 03 05 84 
   774)      7537.6  Rx     00118405  5  01 00 00 05 84 
   775)      7542.5  Rx     000157A5  7  01 00 00 0F 03 A5 57 
   776)      7542.7  Rx     001157A5  5  01 00 00 A5 57 
   777)      7547.5  Rx     000127CE  7  01 00 00 0F 03 CE 27 
   778)      7547.6  Rx     001127CE  5  01 00 00 CE 27 
   779)      7552.5  Rx     00011D0E  7  01 00 00 0F 03 0E 1D 
   780)      7552.6  Rx     00111D0E  5  01 00 00 0E 1D 
   781)      7557.5  Rx     00011F50  7  01 00 00 0F 03 50 1F 
   782)      7557.6  Rx     00111F50  5  01 00 00 50 1F 
   783)      7562.5  Rx     000142EC  7  01 00 00 0F 03 EC 42 
   784)      7562.6  Rx     001142EC  5  01 00 00 EC 42 
   785)      7567.5  Rx     0001F13E  7  01 00 00 0F 03 3E F1 
   786)      7567.7  Rx     0011F13E  5  01 00 00 3E F1 
   787)      7572.5  Rx     0001DE34  7  01 00 00 0F 03 34 DE 
   788)      7572.7  Rx     0011DE34  5  01 00 00 34 DE 
   789)      7577.5  Rx     000186DB  7  01 00 00 0F 03 DB 86 
   790)      7577.6  Rx     001186DB  5  01 00 00 DB 86 
   791)      7582.5  Rx     0001634E  7  01 00 00 0F 03 4E 63 
   792)      7582.6  Rx     0011634E  5  01 00 00 4E 63 
   793)      7587.5  Rx     00019226  7  01 00 00 0F 03 26 92 
   794)      7587.6  Rx     00119226  5  01 00 00 26 92 
   795)      7592.5  Rx     0001799C  7  01 00 00 0F 03 9C 79 
   796)      7592.6  Rx     0011799C  5  01 00 00 9C 79 
   797)      7597.5  Rx     0001818C  7  01 00 00 0F 03 8C 81 
   798)      7597.7  Rx     0011818C  5  01 00 00 8C 81 
   799)      7602.5  Rx     000171CD  7  01 00 00 0F 03 CD 71 
   800)      7602.6  Rx     001171CD  5  01 00 00 CD 71 
   801)      7607.5  Rx     0001551E  7  01 00 00 0F 03 1E 55 
   802)      7607.6  Rx     0011551E  5  01 00 00 1E 55 
   803)      7612.5  Rx     0001FC9D  7  01 00 00 0F 03 9D FC 
   804)      7612.6  Rx     0011FC9D  5  01 00 00 9D FC 
   805)      7617.5  Rx     00014D14  7  01 00 00 0F 03 14 4D 
   806)      7617.6  Rx     00114D14  5  01 00 00 14 4D 
   807)      7622.5  Rx     00018A79  7  01 00 00 0F 03 79 8A 
   808)      7622.6  Rx     00118A79  5  01 00 00 79 8A 
   809)      7627.5  Rx     0001BF2D  7  01 00 00 0F 03 2D BF 
   810)      7627.6  Rx     0011BF2D  5  01 00 00 2D BF 
   811)      7632.5  Rx     00018922  7  01 00 00 0F 03 22 89 
   812)      7632.6  Rx     00118922  5  01 00 00 22 89 
   813)      7637.5  Rx     0001D825  7  01 00 00 0F 03 25 D8 
   814)      7637.6  Rx     0011D825  5  01 00 00 25 D8 
   815)      7642.5  Rx     00014F36  7  01 00 00 0F 03 36 4F 
   816)      7642.6  Rx     00114F36  5  01 00 00 36 4F 
   817)      7647.5  Rx     0001145C  7  01 00 00 0F 03 5C 14 
   818)      7647.6  Rx     0011145C  5  01 00 00 5C 14 
   819)      7652.5  Rx     00011E56  7  01 00 00 0F 03 56 1E 
   820)      7652.7  Rx     00111E56  5  01 00 00 56 1E 
   821)      7657.5  Rx     0001AE63  7  01 00 00 0F 03 63 AE 
   822)      7657.6  Rx     0011AE63  5  01 00 00 63 AE 
   823)      7662.5  Rx     0001433D  7  01 00 00 0F 03 3D 43 
   824)      7662.6  Rx     0011433D  5  01 00 00 3D 43 
   825)      7667.5  Rx     0001F008  7  01 00 00 0F 03 08 F0 
   826)      7667.6  Rx     0011F008  5  01 00 00 08 F0 
   827)      7672.5  Rx     00016403  7  01 00 00 0F 03 03 64 
   828)      7672.6  Rx     00116403  5  01 00 00 03 64 
   829)      7677.5  Rx     0001121B  7  01 00 00 0F 03 1B 12 
   830)      7677.6  Rx     0011121B  5  01 00 00 1B 12 
   831)      7682.5  Rx     00013363  7  01 00 00 0F 03 63 33 
   832)      7682.6  Rx     00113363  5  01 00 00 63 33 
   833)      7687.5  Rx     0001D4FA  7  01 00 00 0F 03 FA D4 
   834)      7687.6  Rx     0011D4FA  5  01 00 00 FA D4 
   835)      7692.5  Rx     00018CBA  7  01 00 00 0F 03 BA 8C 
   836)      7692.6  Rx     00118CBA  5  01 00 00 BA 8C 
   837)      7697.5  Rx     000123B4  7  01 00 00 0F 03 B4 23 
   838)      7697.6  Rx     001123B4  5  01 00 00 B4 23 
   839)      7702.5  Rx     0001631C  7  01 00 00 0F 03 1C 63 
   840)      7702.6  Rx     0011631C  5  01 00 00 1C 63 
   841)      7707.5  Rx     0001AD38  7  01 00 00 0F 03 38 AD 
   842)      7707.6  Rx     0011AD38  5  01 00 00 38 AD 
   843)      7712.5  Rx     000112B2  7  01 00 00 0F 03 B2 12 
   844)      7712.6  Rx     001112B2  5  01 00 00 B2 12 
   845)      7717.5  Rx     0001C6E8  7  01 00 00 0F 03 E8 C6 
   846)      7717.6  Rx     0011C6E8  5  01 00 00 E8 C6 
   847)      7722.5  Rx     0001F23D  7  01 00 00 0F 03 3D F2 
   848)      7722.6  Rx     0011F23D  5  01 00 00 3D F2 
   849)      7727.5  Rx     00016D98  7  01 00 00 0F 03 98 6D 
   850)      7727.6  Rx     00116D98  5  01 00 00 98 6D 
   851)      7732.5  Rx     00018F70  7  01 00 00 0F 03 70 8F 
   852)      7732.6  Rx     00118F70  5  01 00 00 70 8F 
   853)      7737.5  Rx     0001D9B2  7  01 00 00 0F 03 B2 D9 
   854)      7737.6  Rx     0011D9B2  5  01 00 00 B2 D9 
   855)      7742.5  Rx     00012F83  7  01 00 00 0F 03 83 2F 
   856)      7742.6  Rx     00112F83  5  01 00 00 83 2F 
   857)      7747.5  Rx     00019919  7  01 00 00 0F 03 19 99 
   858)      7747.6  Rx     00119919  5  01 00 00 19 99 
   859)      7752.5  Rx     00018A2A  7  01 00 00 0F 03 2A 8A 
   860)      7752.6  Rx     00118A2A  5  01 00 00 2A 8A 
   861)      7757.5  Rx     00013506  7  01 00 00 0F 03 06 35 
   862)      7757.6  Rx     00113506  5  01 00 00 06 35 
   863)      7762.5  Rx     0001D7D7  7  01 00 00 0F 03 D7 D7 
   864)      7762.6  Rx     0011D7D7  5  01 00 00 D7 D7 
   865)      7767.5  Rx     0001DFF0  7  01 00 00 0F 03 F0 DF 
   866)      7767.6  Rx     0011DFF0  5  01 00 00 F0 DF 
   867)      7772.5  Rx     00014CEB  7  01 00 00 0F 03 EB 4C 
   868)      7772.6  Rx     00114CEB  5  01 00 00 EB 4C 
   869)      7777.5  Rx     0001BB42  7  01 00 00 0F 03 42 BB 
   870)      7777.6  Rx     0011BB42  5  01 00 00 42 BB 
   871)      7782.5  Rx     00016A4E  7  01 00 00 0F 03 4E 6A 
   872)      7782.6  Rx     00116A4E  5  01 00 00 4E 6A 
   873)      7787.5  Rx     00019664  7  01 00 00 0F 03 64 96 
   874)      7787.6  Rx     00119664  5  01 00 00 64 96 
   875)      7792.5  Rx     0001B076  7  01 00 00 0F 03 76 B0 
   876)      7792.6  Rx     0011B076  5  01 00 00 76 B0 
   877)      7797.5  Rx     00016066  7  01 00 00 0F 03 66 60 
   878)      7797.6  Rx     00116066  5  01 00 00 66 60 
   879)      7802.5  Rx     000188F1  7  01 00 00 0F 03 F1 88 
   880)      7802.6  Rx     001188F1  5  01 00 00 F1 88 
   881)      7807.5  Rx     00015F59  7  01 00 00 0F 03 59 5F 
   882)      7807.6  Rx     00115F59  5  01 00 00 59 5F 
   883)      7812.5  Rx     0001EAEB  7  01 00 00 0F 03 EB EA 
   884)      7812.6  Rx     0011EAEB  5  01 00 00 EB EA 
   885)      7817.5  Rx     00015406  7  01 00 00 0F 03 06 54 
   886)      7817.6  Rx     00115406  5  01 00 00 06 54 
   887)      7822.5  Rx     00013A41  7  01 00 00 0F 03 41 3A 
   888)      7822.6  Rx     00113A41  5  01 00 00 41 3A 
   889)      7827.5  Rx     0001AEAD  7  01 00 00 0F 03 AD AE 
   890)      7827.6  Rx     0011AEAD  5  01 00 00 AD AE 
   891)      7832.5  Rx     00015D2B  7  01 00 00 0F 03 2B 5D 
   892)      7832.6  Rx     00115D2B  5  01 00 00 2B 5D 
   893)      7837.5  Rx     0001F0FA  7  01 00 00 0F 03 FA F0 
   894)      7837.6  Rx     0011F0FA  5  01 00 00 FA F0 
   895)      7842.5  Rx     00013778  7  01 00 00 0F 04 78 37 
   896)      7842.6  Rx     00113778  5  01 00 00 78 37 
   897)      7847.5  Rx     00015345  7  01 00 00 0F 03 45 53 
   898)      7847.6  Rx     00115345  5  01 00 00 45 53 
   899)      7852.5  Rx     000172FB  7  01 00 00 0F 03 FB 72 
   900)      7852.6  Rx     001172FB  5  01 00 00 FB 72 
   901)      7857.5  Rx     0001E6DA  7  01 00 00 0F 03 DA E6 
   902)      7857.6  Rx     0011E6DA  5  01 00 00 DA E6 
   903)      7862.5  Rx     00013B90  7  01 00 00 0F 03 90 3B 
   904)      7862.6  Rx     00113B90  5  01 00 00 90 3B 
   905)      7867.5  Rx     000118E5  7  01 00 00 0F 03 E5 18 
   906)      7867.6  Rx     001118E5  5  01 00 00 E5 18 
   907)      7872.5  Rx     000159E9  7  01 00 00 0F 03 E9 59 
   908)      7872.6  Rx     001159E9  5  01 00 00 E9 59 
   909)      7877.5  Rx     0001392C  7  01 00 00 0F 03 2C 39 
   910)      7877.6  Rx     0011392C  5  01 00 00 2C 39 
   911)      7882.5  Rx     00016704  7  01 00 00 0F 03 04 67 
   912)      7882.6  Rx     00116704  5  01 00 00 04 67 
   913)      7887.5  Rx     00014DC2  7  01 00 00 0F 03 C2 4D 
   914)      7887.6  Rx     00114DC2  5  01 00 00 C2 4D 
   915)      7892.5  Rx     0001E6F1  7  01 00 00 0F 03 F1 E6 
   916)      7892.6  Rx     0011E6F1  5  01 00 00 F1 E6 
   917)      7897.5  Rx     00015C5A  7  01 00 00 0F 03 5A 5C 
   918)      7897.6  Rx     00115C5A  5  01 00 00 5A 5C 
   919)      7902.5  Rx     00017458  7  01 00 00 0F 03 58 74 
   920)      7902.6  Rx     00117458  5  01 00 00 58 74 
   921)      7907.5  Rx     00014FD9  7  01 00 00 0F 03 D9 4F 
   922)      7907.6  Rx     00114FD9  5  01 00 00 D9 4F 
   923)      7912.5  Rx     000156DE  7  01 00 00 0F 03 DE 56 
   924)      7912.6  Rx     001156DE  5  01 00 00 DE 56 
   925)      7917.5  Rx     00014065  7  01 00 00 0F 03 65 40 
   926)      7917.6  Rx     00114065  5  01 00 00 65 40 
   927)      7922.5  Rx     00012159  7  01 00 00 0F 03 59 21 
   928)      7922.6  Rx     00112159  5  01 00 00 59 21 
   929)      7927.5  Rx     000115FD  7  01 00 00 0F 03 FD 15 
   930)      7927.6  Rx     001115FD  5  01 00 00 FD 15 
   931)      7932.5  Rx     00012D71  7  01 00 00 0F 03 71 2D 
   932)      7932.6  Rx     00112D71  5  01 00 00 71 2D 
   933)      7937.5  Rx     0001615A  7  01 00 00 0F 03 5A 61 
   934)      7937.6  Rx     0011615A  5  01 00 00 5A 61 
   935)      7942.5  Rx     00016523  7  01 00 00 0F 03 23 65 
   936)      7942.6  Rx     00116523  5  01 00 00 23 65 
   937)      7947.5  Rx     0001DCB1  7  01 00 00 0F 03 B1 DC 
   938)      7947.6  Rx     0011DCB1  5  01 00 00 B1 DC 
   939)      7952.5  Rx     0001FF43  7  01 00 00 0F 03 43 FF 
   940)      7952.6  Rx     0011FF43  5  01 00 00 43 FF 
   941)      7957.5  Rx     0001C987  7  01 00 00 0F 03 87 C9 
   942)      7957.6  Rx     0011C987  5  01 00 00 87 C9 
   943)      7962.5  Rx     0001DAE6  7  01 00 00 0F 03 E6 DA 
   944)      7962.6  Rx     0011DAE6  5  01 00 00 E6 DA 
   945)      7967.5  Rx     00019EBA  7  01 00 00 0F 03 BA 9E 
   946)      7967.6  Rx     00119EBA  5  01 00 00 BA 9E 
   947)      7972.5  Rx     00012E6A  7  01 00 00 0F 03 6A 2E 
   948)      7972.6  Rx     00112E6A  5  01 00 00 6A 2E 
   949)      7977.5  Rx     00013D6D  7  01 00 00 0F 03 6D 3D 
   950)      7977.6  Rx     00113D6D  5  01 00 00 6D 3D 
   951)      7982.5  Rx     0001F968  7  01 00 00 0F 03 68 F9 
   952)      7982.6  Rx     0011F968  5  01 00 00 68 F9 
   953)      7987.5  Rx     0001A172  7  01 00 00 0F 03 72 A1 
   954)      7987.6  Rx     0011A172  5  01 00 00 72 A1 
   955)      7992.5  Rx     0001E1DC  7  01 00 00 0F 03 DC E1 
   956)      7992.6  Rx     0011E1DC  5  01 00 00 DC E1 
   957)      7997.5  Rx     00013173  7  01 00 00 0F 03 73 31 
   958)      7997.6  Rx     00113173  5  01 00 00 73 31 
   959)      8002.5  Rx     00017349  7  01 00 00 0F 03 49 73 
   960)      8002.6  Rx     00117349  5  01 00 00 49 73 
   961)      8007.5  Rx     00010CDD  7  01 00 00 0F 03 DD 0C 
   962)      8007.6  Rx     00110CDD  5  01 00 00 DD 0C 
   963)      8012.5  Rx     0001B796  7  01 00 00 0F 03 96 B7 
   964)      8012.6  Rx     0011B796  5  01 00 00 96 B7 
   965)      8017.5  Rx     0001F15F  7  01 00 00 0F 03 5F F1 
   966)      8017.6  Rx     0011F15F  5  01 00 00 5F F1 
   967)      8022.5  Rx     00018409  7  01 00 00 0F 03 09 84 
   968)      8022.6  Rx     00118409  5  01 00 00 09 84 
   969)      8027.5  Rx     00018B7D  7  01 00 00 0F 03 7D 8B 
   970)      8027.6  Rx     00118B7D  5  01 00 00 7D 8B 
   971)      8032.5  Rx     0001917C  7  01 00 00 0F 03 7C 91 
   972)      8032.6  Rx     0011917C  5  01 00 00 7C 91 
   973)      8037.5  Rx     00019984  7  01 00 00 0F 03 84 99 
   974)      8037.6  Rx     00119984  5  01 00 00 84 99 
   975)      8042.5  Rx     00013DC9  7  01 00 00 0F 03 C9 3D 
   976)      8042.6  Rx     00113DC9  5  01 00 00 C9 3D 
   977)      8047.5  Rx     0001B5E5  7  01 00 00 0F 03 E5 B5 
   978)      8047.6  Rx     0011B5E5  5  01 00 00 E5 B5 
   979)      8052.5  Rx     00017CFE  7  01 00 00 0F 03 FE 7C 
   980)      8052.6  Rx     00117CFE  5  01 00 00 FE 7C 
   981)      8057.5  Rx     000131BA  7  01 00 00 0F 03 BA 31 
   982)      8057.6  Rx     001131BA  5  01 00 00 BA 31 
   983)      8062.5  Rx     0001D7D3  7  01 00 00 0F 03 D3 D7 
   984)      8062.6  Rx     0011D7D3  5  01 00 00 D3 D7 
   985)      8067.5  Rx     0001CA0E  7  01 00 00 0F 03 0E CA 
   986)      8067.6  Rx     0011CA0E  5  01 00 00 0E CA 
   987)      8072.5  Rx     0001797F  7  01 00 00 0F 03 7F 79 
   988)      8072.6  Rx     0011797F  5  01 00 00 7F 79 
   989)      8077.5  Rx     0001C612  7  01 00 00 0F 03 12 C6 
   990)      8077.6  Rx     0011C612  5  01 00 00 12 C6 
   991)      8082.5  Rx     0001F9DB  7  01 00 00 0F 03 DB F9 
   992)      8082.6  Rx     0011F9DB  5  01 00 00 DB F9 
   993)      8087.5  Rx     00011E6B  7  01 00 00 0F 03 6B 1E 
   994)      8087.6  Rx     00111E6B  5  01 00 00 6B 1E 
   995)      8092.5  Rx     00013975  7  01 00 00 0F 03 75 39 
   996)      8092.6  Rx     00113975  5  01 00 00 75 39 
   997)      8097.5  Rx     00015D45  7  01 00 00 0F 03 45 5D 
   998)      8097.6  Rx     00115D45  5  01 00 00 45 5D 
   999)      8102.5  Rx     00012402  7  01 00 00 0F 03 02 24 
  1000)      8102.6  Rx     00112402  5  01 00 00 02 24 
  1001)      8107.5  Rx     0001BCBD  7  01 00 00 0F 03 BD BC 
  1002)      8107.6  Rx     0011BCBD  5  01 00 00 BD BC 
  1003)      8112.5  Rx     00010A4F  7  01 00 00 0F 03 4F 0A 
  1004)      8112.6  Rx     00110A4F  5  01 00 00 4F 0A 
  1005)      8117.5  Rx     00012CF0  7  01 00 00 0F 03 F0 2C 
  1006)      8117.6  Rx     00112CF0  5  01 00 00 F0 2C 
  1007)      8122.5  Rx     0001E39E  7  01 00 00 0F 03 9E E3 
  1008)      8122.6  Rx     0011E39E  5  01 00 00 9E E3 
  1009)      8127.5  Rx     0001F4A7  7  01 00 00 0F 03 A7 F4 
  1010)      8127.6  Rx     0011F4A7  5  01 00 00 A7 F4 
  1011)      8132.5  Rx     00018B18  7  01 00 00 0F 03 18 8B 
  1012)      8132.6  Rx     00118B18  5  01 00 00 18 8B 
  1013)      8137.5  Rx     00018780  7  01 00 00 0F 03 80 87 
  1014)      8137.6  Rx     00118780  5  01 00 00 80 87 
  1015)      8142.5  Rx     00011CBA  7  01 00 00 0F 03 BA 1C 
  1016)      8142.6  Rx     00111CBA  5  01 00 00 BA 1C 
  1017)      8147.5  Rx     0001EE00  7  01 00 00 0F 03 00 EE 
  1018)      8147.6  Rx     0011EE00  5  01 00 00 00 EE 
  1019)      8152.5  Rx     000191DF  7  01 00 00 0F 03 DF 91 
  1020)      8152.6  Rx     001191DF  5  01 00 00 DF 91 
  1021)      8157.5  Rx     0001FBEE  7  01 00 00 0F 03 EE FB 
  1022)      8157.6  Rx     0011FBEE  5  01 00 00 EE FB 
  1023)      8162.5  Rx     00018C5E  7  01 00 00 0F 03 5E 8C 
  1024)      8162.6  Rx     00118C5E  5  01 00 00 5E 8C 
  1025)      8167.5  Rx     00012AEB  7  01 00 00 0F 03 EB 2A 
  1026)      8167.6  Rx     00112AEB  5  01 00 00 EB 2A 
  1027)      8172.4  Rx     0001F7D5  7  01 00 00 0F 03 D5 F7 
  1028)      8172.6  Rx     0011F7D5  5  01 00 00 D5 F7 
  1029)      8177.5  Rx     00016B2A  7  01 00 00 0F 03 2A 6B 
  1030)      8177.6  Rx     00116B2A  5  01 00 00 2A 6B 
  1031)      8182.5  Rx     0001DF8F  7  01 00 00 0F 03 8F DF 
  1032)      8182.6  Rx     0011DF8F  5  01 00 00 8F DF 
  1033)      8187.5  Rx     00011DA8  7  01 00 00 0F 03 A8 1D 
  1034)      8187.6  Rx     00111DA8  5  01 00 00 A8 1D 
  1035)      8192.5  Rx     00015833  7  01 00 00 0F 03 33 58 
  1036)      8192.6  Rx     00115833  5  01 00 00 33 58 
  1037)      8197.5  Rx     00010757  7  01 00 00 0F 03 57 07 
  1038)      8197.6  Rx     00110757  5  01 00 00 57 07 
  1039)      8202.4  Rx     00011715  7  01 00 00 0F 03 15 17 
  1040)      8202.6  Rx     00111715  5  01 00 00 15 17 
  1041)      8207.5  Rx     0001C627  7  01 00 00 0F 03 27 C6 
  1042)      8207.6  Rx     0011C627  5  01 00 00 27 C6 
  1043)      8212.5  Rx     000101E1  7  01 00 00 0F 03 E1 01 
  1044)      8212.6  Rx     001101E1  5  01 00 00 E1 01 
  1045)      8217.5  Rx     000174BB  7  01 00 00 0F 03 BB 74 
  1046)      8217.6  Rx     001174BB  5  01 00 00 BB 74 
  1047)      8222.5  Rx     0001EBFE  7  01 00 00 0F 03 FE EB 
  1048)      8222.6  Rx     0011EBFE  5  01 00 00 FE EB 
  1049)      8227.4  Rx     00013360  7  01 00 00 0F 03 60 33 
  1050)      8227.6  Rx     00113360  5  01 00 00 60 33 
  1051)      8232.5  Rx     00019BD6  7  01 00 00 0F 03 D6 9B 
  1052)      8232.6  Rx     00119BD6  5  01 00 00 D6 9B 
  1053)      8237.5  Rx     0001D874  7  01 00 00 0F 03 74 D8 
  1054)      8237.6  Rx     0011D874  5  01 00 00 74 D8 
  1055)      8242.5  Rx     0001FCE5  7  01 00 00 0F 03 E5 FC 
  1056)      8242.6  Rx     0011FCE5  5  01 00 00 E5 FC 
  1057)      8247.5  Rx     00011063  7  01 00 00 0F 03 63 10 
  1058)      8247.6  Rx     00111063  5  01 00 00 63 10 
  1059)      8252.4  Rx     0001143F  7  01 00 00 0F 03 3F 14 
  1060)      8252.6  Rx     0011143F  5  01 00 00 3F 14 
  1061)      8257.4  Rx     0001D4EA  7  01 00 00 0F 03 EA D4 
  1062)      8257.6  Rx     0011D4EA  5  01 00 00 EA D4 
  1063)      8262.5  Rx     000143F2  7  01 00 00 0F 03 F2 43 
  1064)      8262.6  Rx     001143F2  5  01 00 00 F2 43 
  1065)      8267.5  Rx     00014D31  7  01 00 00 0F 03 31 4D 
  1066)      8267.6  Rx     00114D31  5  01 00 00 31 4D 
  1067)      8272.5  Rx     00017662  7  01 00 00 0F 03 62 76 
  1068)      8272.6  Rx     00117662  5  01 00 00 62 76 
  1069)      8277.5  Rx     0001A807  7  01 00 00 0F 03 07 A8 
  1070)      8277.6  Rx     0011A807  5  01 00 00 07 A8 
  1071)      8282.4  Rx     0001399F  7  01 00 00 0F 03 9F 39 
  1072)      8282.6  Rx     0011399F  5  01 00 00 9F 39 
  1073)      8287.5  Rx     00018748  7  01 00 00 0F 03 48 87 
  1074)      8287.6  Rx     00118748  5  01 00 00 48 87 
  1075)      8292.5  Rx     00019B40  7  01 00 00 0F 03 40 9B 
  1076)      8292.6  Rx     00119B40  5  01 00 00 40 9B 
  1077)      8297.5  Rx     00014F28  7  01 00 00 0F 03 28 4F 
  1078)      8297.6  Rx     00114F28  5  01 00 00 28 4F 
  1079)      8302.5  Rx     00014C40  7  01 00 00 0F 03 40 4C 
  1080)      8302.6  Rx     00114C40  5  01 00 00 40 4C 
  1081)      8307.4  Rx     0001B600  7  01 00 00 0F 03 00 B6 
  1082)      8307.6  Rx     0011B600  5  01 00 00 00 B6 
  1083)      8312.4  Rx     000108FC  7  01 00 00 0F 03 FC 08 
  1084)      8312.6  Rx     001108FC  5  01 00 00 FC 08 
  1085)      8317.5  Rx     000164D1  7  01 00 00 0F 03 D1 64 
  1086)      8317.6  Rx     001164D1  5  01 00 00 D1 64 
  1087)      8322.5  Rx     00012440  7  01 00 00 0F 03 40 24 
  1088)      8322.6  Rx     00112440  5  01 00 00 40 24 
  1089)      8327.5  Rx     0001C298  7  01 00 00 0F 03 98 C2 
  1090)      8327.6  Rx     0011C298  5  01 00 00 98 C2 
  1091)      8332.4  Rx     0001D0FE  7  01 00 00 0F 03 FE D0 
  1092)      8332.6  Rx     0011D0FE  5  01 00 00 FE D0 
  1093)      8337.4  Rx     00016423  7  01 00 00 0F 03 23 64 
  1094)      8337.6  Rx     00116423  5  01 00 00 23 64 
  1095)      8342.4  Rx     0001E52B  7  01 00 00 0F 03 2B E5 
  1096)      8342.6  Rx     0011E52B  5  01 00 00 2B E5 
  1097)      8347.5  Rx     0001F00D  7  01 00 00 0F 03 0D F0 
  1098)      8347.6  Rx     0011F00D  5  01 00 00 0D F0 
  1099)      8352.5  Rx     000154D5  7  01 00 00 0F 03 D5 54 
  1100)      8352.5  Rx     001154D5  5  01 00 00 D5 54 
  1101)      8357.4  Rx     0001A20D  7  01 00 00 0F 03 0D A2 
  1102)      8357.6  Rx     0011A20D  5  01 00 00 0D A2 
  1103)      8362.4  Rx     0001976E  7  01 00 00 0F 03 6E 97 
  1104)      8362.6  Rx     0011976E  5  01 00 00 6E 97 
  1105)      8367.4  Rx     00019AB1  7  01 00 00 0F 03 B1 9A 
  1106)      8367.6  Rx     00119AB1  5  01 00 00 B1 9A 
  1107)      8372.5  Rx     000105E0  7  01 00 00 0F 03 E0 05 
  1108)      8372.6  Rx     001105E0  5  01 00 00 E0 05 
  1109)      8377.5  Rx     00014C44  7  01 00 00 0F 03 44 4C 
  1110)      8377.5  Rx     00114C44  5  01 00 00 44 4C 
  1111)      8382.5  Rx     00015AE0  7  01 00 00 0F 03 E0 5A 
  1112)      8382.6  Rx     00115AE0  5  01 00 00 E0 5A 
  1113)      8387.4  Rx     0001A776  7  01 00 00 0F 03 76 A7 
  1114)      8387.6  Rx     0011A776  5  01 00 00 76 A7 
  1115)      8392.4  Rx     000153AB  7  01 00 00 0F 03 AB 53 
  1116)      8392.6  Rx     001153AB  5  01 00 00 AB 53 
  1117)      8397.4  Rx     0001A1F3  7  01 00 00 0F 03 F3 A1 
  1118)      8397.6  Rx     0011A1F3  5  01 00 00 F3 A1 
  1119)      8402.5  Rx     0001D200  7  01 00 00 0F 03 00 D2 
  1120)      8402.5  Rx     0011D200  5  01 00 00 00 D2 
  1121)      8407.5  Rx     0001170E  7  01 00 00 0F 03 0E 17 
  1122)      8407.5  Rx     0011170E  5  01 00 00 0E 17 
  1123)      8412.4  Rx     00015D19  7  01 00 00 0F 03 19 5D 
  1124)      8412.6  Rx     00115D19  5  01 00 00 19 5D 
  1125)      8417.4  Rx     0001E232  7  01 00 00 0F 03 32 E2 
  1126)      8417.6  Rx     0011E232  5  01 00 00 32 E2 
  1127)      8422.4  Rx     00015DFB  7  01 00 00 0F 03 FB 5D 
  1128)      8422.6  Rx     00115DFB  5  01 00 00 FB 5D 
  1129)      8427.4  Rx     0001ACB3  7  01 00 00 0F 03 B3 AC 
  1130)      8427.5  Rx     0011ACB3  5  01 00 00 B3 AC 
  1131)      8432.5  Rx     0001E445  7  01 00 00 0F 03 45 E4 
  1132)      8432.5  Rx     0011E445  5  01 00 00 45 E4 
  1133)      8437.4  Rx     00016836  7  01 00 00 0F 03 36 68 
  1134)      8437.6  Rx     00116836  5  01 00 00 36 68 
  1135)      8442.4  Rx     00018773  7  01 00 00 0F 03 73 87 
  1136)      8442.6  Rx     00118773  5  01 00 00 73 87 
  1137)      8447.4  Rx     000168C5  7  01 00 00 0F 03 C5 68 
  1138)      8447.6  Rx     001168C5  5  01 00 00 C5 68 
  1139)      8452.4  Rx     0001FD28  7  01 00 00 0F 03 28 FD 
  1140)      8452.6  Rx     0011FD28  5  01 00 00 28 FD 
  1141)      8457.5  Rx     0001B94D  7  01 00 00 0F 03 4D B9 
  1142)      8457.5  Rx     0011B94D  5  01 00 00 4D B9 
  1143)      8462.5  Rx     00012000  7  01 00 00 0F 03 00 20 
  1144)      8462.6  Rx     00112000  5  01 00 00 00 20 
  1145)      8467.4  Rx     00011B18  7  01 00 00 0F 04 18 1B 
  1146)      8467.6  Rx     00111B18  5  01 00 00 18 1B 
  1147)      8472.4  Rx     0001EAFB  7  01 00 00 0F 03 FB EA 
  1148)      8472.6  Rx     0011EAFB  5  01 00 00 FB EA 
  1149)      8477.4  Rx     00019487  7  01 00 00 0F 03 87 94 
  1150)      8477.6  Rx     00119487  5  01 00 00 87 94 
  1151)      8482.4  Rx     0001D475  7  01 00 00 0F 03 75 D4 
  1152)      8482.5  Rx     0011D475  5  01 00 00 75 D4 
  1153)      8487.5  Rx     0001F90A  7  01 00 00 0F 03 0A F9 
  1154)      8487.5  Rx     0011F90A  5  01 00 00 0A F9 
  1155)      8492.4  Rx     0001EC5A  7  01 00 00 0F 03 5A EC 
  1156)      8492.6  Rx     0011EC5A  5  01 00 00 5A EC 
  1157)      8497.4  Rx     00010C33  7  01 00 00 0F 03 33 0C 
  1158)      8497.6  Rx     00110C33  5  01 00 00 33 0C 
  1159)      8502.4  Rx     000143E3  7  01 00 00 0F 03 E3 43 
  1160)      8502.6  Rx     001143E3  5  01 00 00 E3 43 
  1161)      8507.4  Rx     00012B56  7  01 00 00 0F 03 56 2B 
  1162)      8507.5  Rx     00112B56  5  01 00 00 56 2B 
  1163)      8512.5  Rx     0001222C  7  01 00 00 0F 03 2C 22 
  1164)      8512.5  Rx     0011222C  5  01 00 00 2C 22 
  1165)      8517.4  Rx     0001850F  7  01 00 00 0F 03 0F 85 
  1166)      8517.5  Rx     0011850F  5  01 00 00 0F 85 
  1167)      8522.4  Rx     00015B5E  7  01 00 00 0F 03 5E 5B 
  1168)      8522.6  Rx     00115B5E  5  01 00 00 5E 5B 
  1169)      8527.4  Rx     000157AB  7  01 00 00 0F 03 AB 57 
  1170)      8527.6  Rx     001157AB  5  01 00 00 AB 57 
  1171)      8532.4  Rx     00013143  7  01 00 00 0F 03 43 31 
  1172)      8532.6  Rx     00113143  5  01 00 00 43 31 
  1173)      8537.4  Rx     0001D73E  7  01 00 00 0F 03 3E D7 
  1174)      8537.5  Rx     0011D73E  5  01 00 00 3E D7 
  1175)      8542.4  Rx     0001BE81  7  01 00 00 0F 03 81 BE 
  1176)      8542.5  Rx     0011BE81  5  01 00 00 81 BE 
  1177)      8547.4  Rx     000141FA  7  01 00 00 0F 03 FA 41 
  1178)      8547.6  Rx     001141FA  5  01 00 00 FA 41 
  1179)      8552.4  Rx     000146C5  7  01 00 00 0F 03 C5 46 
  1180)      8552.6  Rx     001146C5  5  01 00 00 C5 46 
  1181)      8557.4  Rx     000140F8  7  01 00 00 0F 03 F8 40 
  1182)      8557.6  Rx     001140F8  5  01 00 00 F8 40 
  1183)      8562.4  Rx     00010CB2  7  01 00 00 0F 03 B2 0C 
  1184)      8562.5  Rx     00110CB2  5  01 00 00 B2 0C 
  1185)      8567.5  Rx     00014992  7  01 00 00 0F 03 92 49 
  1186)      8567.5  Rx     00114992  5  01 00 00 92 49 
  1187)      8572.4  Rx     0001B749  7  01 00 00 0F 03 49 B7 
  1188)      8572.5  Rx     0011B749  5  01 00 00 49 B7 
  1189)      8577.4  Rx     0001AB04  7  01 00 00 0F 03 04 AB 
  1190)      8577.6  Rx     0011AB04  5  01 00 00 04 AB 
  1191)      8582.4  Rx     00011F25  7  01 00 00 0F 03 25 1F 
  1192)      8582.6  Rx     00111F25  5  01 00 00 25 1F 
  1193)      8587.4  Rx     000101EC  7  01 00 00 0F 03 EC 01 
  1194)      8587.5  Rx     001101EC  5  01 00 00 EC 01 
  1195)      8592.4  Rx     0001F8C0  7  01 00 00 0F 03 C0 F8 
  1196)      8592.5  Rx     0011F8C0  5  01 00 00 C0 F8 
  1197)      8597.4  Rx     000182E5  7  01 00 00 0F 03 E5 82 
  1198)      8597.5  Rx     001182E5  5  01 00 00 E5 82 
  1199)      8602.4  Rx     000167A1  7  01 00 00 0F 03 A1 67 
  1200)      8602.5  Rx     001167A1  5  01 00 00 A1 67 
  1201)      8607.4  Rx     0001C746  7  01 00 00 0F 03 46 C7 
  1202)      8607.6  Rx     0011C746  5  01 00 00 46 C7 
  1203)      8612.4  Rx     00015B1A  7  01 00 00 0F 03 1A 5B 
  1204)      8612.5  Rx     00115B1A  5  01 00 00 1A 5B 
  1205)      8617.4  Rx     0001E6D5  7  01 00 00 0F 03 D5 E6 
  1206)      8617.5  Rx     0011E6D5  5  01 00 00 D5 E6 
  1207)      8622.4  Rx     00014004  7  01 00 00 0F 03 04 40 
  1208)      8622.5  Rx     00114004  5  01 00 00 04 40 
  1209)      8627.4  Rx     00013AF1  7  01 00 00 0F 03 F1 3A 
  1210)      8627.5  Rx     00113AF1  5  01 00 00 F1 3A 
  1211)      8632.4  Rx     0001D7A3  7  01 00 00 0F 03 A3 D7 
  1212)      8632.5  Rx     0011D7A3  5  01 00 00 A3 D7 
  1213)      8637.4  Rx     0001AF75  7  01 00 00 0F 03 75 AF 
  1214)      8637.6  Rx     0011AF75  5  01 00 00 75 AF 
  1215)      8642.4  Rx     00014687  7  01 00 00 0F 03 87 46 
  1216)      8642.5  Rx     00114687  5  01 00 00 87 46 
  1217)      8647.4  Rx     0001EF6A  7  01 00 00 0F 03 6A EF 
  1218)      8647.5  Rx     0011EF6A  5  01 00 00 6A EF 
  1219)      8652.4  Rx     0001EB30  7  01 00 00 0F 03 30 EB 
  1220)      8652.5  Rx     0011EB30  5  01 00 00 30 EB 
  1221)      8657.4  Rx     00017F41  7  01 00 00 0F 03 41 7F 
  1222)      8657.5  Rx     00117F41  5  01 00 00 41 7F 
  1223)      8662.4  Rx     00018AC1  7  01 00 00 0F 03 C1 8A 
  1224)      8662.6  Rx     00118AC1  5  01 00 00 C1 8A 
  1225)      8667.4  Rx     0001E02A  7  01 00 00 0F 03 2A E0 
  1226)      8667.5  Rx     0011E02A  5  01 00 00 2A E0 
  1227)      8672.4  Rx     000162FD  7  01 00 00 0F 03 FD 62 
  1228)      8672.5  Rx     001162FD  5  01 00 00 FD 62 
  1229)      8677.4  Rx     0001DBC5  7  01 00 00 0F 03 C5 DB 
  1230)      8677.5  Rx     0011DBC5  5  01 00 00 C5 DB 
  1231)      8682.4  Rx     0001FF6C  7  01 00 00 0F 03 6C FF 
  1232)      8682.5  Rx     0011FF6C  5  01 00 00 6C FF 
  1233)      8687.4  Rx     0001193C  7  01 00 00 0F 03 3C 19 
  1234)      8687.5  Rx     0011193C  5  01 00 00 3C 19 
  1235)      8692.4  Rx     00012454  7  01 00 00 0F 03 54 24 
  1236)      8692.5  Rx     00112454  5  01 00 00 54 24 
  1237)      8697.4  Rx     00012890  7  01 00 00 0F 03 90 28 
  1238)      8697.5  Rx     00112890  5  01 00 00 90 28 
  1239)      8702.4  Rx     0001BCEA  7  01 00 00 0F 03 EA BC 
  1240)      8702.5  Rx     0011BCEA  5  01 00 00 EA BC 
  1241)      8707.4  Rx     00012A93  7  01 00 00 0F 03 93 2A 
  1242)      8707.5  Rx     00112A93  5  01 00 00 93 2A 
  1243)      8712.4  Rx     000112ED  7  01 00 00 0F 03 ED 12 
  1244)      8712.5  Rx     001112ED  5  01 00 00 ED 12 
  1245)      8717.4  Rx     0001D7EB  7  01 00 00 0F 03 EB D7 
  1246)      8717.6  Rx     0011D7EB  5  01 00 00 EB D7 
  1247)      8722.4  Rx     00015485  7  01 00 00 0F 03 85 54 
  1248)      8722.5  Rx     00115485  5  01 00 00 85 54 
  1249)      8727.4  Rx     0001CB18  7  01 00 00 0F 03 18 CB 
  1250)      8727.5  Rx     0011CB18  5  01 00 00 18 CB 
  1251)      8732.4  Rx     0001BA18  7  01 00 00 0F 03 18 BA 
  1252)      8732.5  Rx     0011BA18  5  01 00 00 18 BA 
  1253)      8737.4  Rx     00014D48  7  01 00 00 0F 03 48 4D 
  1254)      8737.5  Rx     00114D48  5  01 00 00 48 4D 
  1255)      8742.4  Rx     00011879  7  01 00 00 0F 03 79 18 
  1256)      8742.5  Rx     00111879  5  01 00 00 79 18 
  1257)      8747.4  Rx     00016B84  7  01 00 00 0F 03 84 6B 
  1258)      8747.5  Rx     00116B84  5  01 00 00 84 6B 
  1259)      8752.4  Rx     00014C9B  7  01 00 00 0F 03 9B 4C 
  1260)      8752.5  Rx     00114C9B  5  01 00 00 9B 4C 
  1261)      8757.4  Rx     0001157B  7  01 00 00 0F 03 7B 15 
  1262)      8757.5  Rx     0011157B  5  01 00 00 7B 15 
  1263)      8762.4  Rx     000178B1  7  01 00 00 0F 03 B1 78 
  1264)      8762.5  Rx     001178B1  5  01 00 00 B1 78 
  1265)      8767.4  Rx     0001B4F3  7  01 00 00 0F 03 F3 B4 
  1266)      8767.5  Rx     0011B4F3  5  01 00 00 F3 B4 
  1267)      8772.4  Rx     00014B5B  7  01 00 00 0F 03 5B 4B 
  1268)      8772.5  Rx     00114B5B  5  01 00 00 5B 4B 
  1269)      8777.4  Rx     0001ECAB  7  01 00 00 0F 03 AB EC 
  1270)      8777.5  Rx     0011ECAB  5  01 00 00 AB EC 
  1271)      8782.4  Rx     00014453  7  01 00 00 0F 03 53 44 
  1272)      8782.5  Rx     00114453  5  01 00 00 53 44 
  1273)      8787.4  Rx     00013333  7  01 00 00 0F 03 33 33 
  1274)      8787.5  Rx     00113333  5  01 00 00 33 33 
  1275)      8792.4  Rx     00016ABD  7  01 00 00 0F 03 BD 6A 
  1276)      8792.5  Rx     00116ABD  5  01 00 00 BD 6A 
  1277)      8797.4  Rx     0001C605  7  01 00 00 0F 03 05 C6 
  1278)      8797.5  Rx     0011C605  5  01 00 00 05 C6 
  1279)      8802.4  Rx     00010FFD  7  01 00 00 0F 03 FD 0F 
  1280)      8802.5  Rx     00110FFD  5  01 00 00 FD 0F 
  1281)      8807.4  Rx     0001C2E0  7  01 00 00 0F 03 E0 C2 
  1282)      8807.5  Rx     0011C2E0  5  01 00 00 E0 C2 
  1283)      8812.4  Rx     000162C9  7  01 00 00 0F 03 C9 62 
  1284)      8812.5  Rx     001162C9  5  01 00 00 C9 62 
  1285)      8817.4  Rx     0001D536  7  01 00 00 0F 03 36 D5 
  1286)      8817.5  Rx     0011D536  5  01 00 00 36 D5 
  1287)      8822.4  Rx     000160CC  7  01 00 00 0F 03 CC 60 
  1288)      8822.5  Rx     001160CC  5  01 00 00 CC 60 
  1289)      8827.4  Rx     00013F30  7  01 00 00 0F 03 30 3F 
  1290)      8827.5  Rx     00113F30  5  01 00 00 30 3F 
  1291)      8832.4  Rx     0001B213  7  01 00 00 0F 03 13 B2 
  1292)      8832.5  Rx     0011B213  5  01 00 00 13 B2 
  1293)      8837.4  Rx     0001B995  7  01 00 00 0F 03 95 B9 
  1294)      8837.5  Rx     0011B995  5  01 00 00 95 B9 
  1295)      8842.4  Rx     00012821  7  01 00 00 0F 03 21 28 
  1296)      8842.5  Rx     00112821  5  01 00 00 21 28 
  1297)      8847.4  Rx     0001038E  7  01 00 00 0F 03 8E 03 
  1298)      8847.5  Rx     0011038E  5  01 00 00 8E 03 
  1299)      8852.4  Rx     00017F59  7  01 00 00 0F 03 59 7F 
  1300)      8852.5  Rx     00117F59  5  01 00 00 59 7F 
  1301)      8857.4  Rx     00017722  7  01 00 00 0F 03 22 77 
  1302)      8857.5  Rx     00117722  5  01 00 00 22 77 
  1303)      8862.4  Rx     0001F021  7  01 00 00 0F 03 21 F0 
  1304)      8862.5  Rx     0011F021  5  01 00 00 21 F0 
  1305)      8867.4  Rx     00017CE8  7  01 00 00 0F 03 E8 7C 
  1306)      8867.5  Rx     00117CE8  5  01 00 00 E8 7C 
  1307)      8872.4  Rx     000155EB  7  01 00 00 0F 03 EB 55 
  1308)      8872.5  Rx     001155EB  5  01 00 00 EB 55 
  1309)      8877.4  Rx     00017D33  7  01 00 00 0F 03 33 7D 
  1310)      8877.5  Rx     00117D33  5  01 00 00 33 7D 
  1311)      8882.4  Rx     00014900  7  01 00 00 0F 03 00 49 
  1312)      8882.5  Rx     00114900  5  01 00 00 00 49 
  1313)      8887.4  Rx     0001BAC8  7  01 00 00 0F 03 C8 BA 
  1314)      8887.5  Rx     0011BAC8  5  01 00 00 C8 BA 
  1315)      8892.4  Rx     00010CCD  7  01 00 00 0F 03 CD 0C 
  1316)      8892.5  Rx     00110CCD  5  01 00 00 CD 0C 
  1317)      8897.4  Rx     0001E6E7  7  01 00 00 0F 03 E7 E6 
  1318)      8897.5  Rx     0011E6E7  5  01 00 00 E7 E6 
  1319)      8902.4  Rx     0001F6FD  7  01 00 00 0F 03 FD F6 
  1320)      8902.5  Rx     0011F6FD  5  01 00 00 FD F6 
  1321)      8907.4  Rx     00010423  7  01 00 00 0F 03 23 04 
  1322)      8907.5  Rx     00110423  5  01 00 00 23 04 
  1323)      8912.4  Rx     0001809E  7  01 00 00 0F 03 9E 80 
  1324)      8912.5  Rx     0011809E  5  01 00 00 9E 80 
  1325)      8917.4  Rx     00014961  7  01 00 00 0F 03 61 49 
  1326)      8917.5  Rx     00114961  5  01 00 00 61 49 
  1327)      8922.4  Rx     0001612C  7  01 00 00 0F 03 2C 61 
  1328)      8922.5  Rx     0011612C  5  01 00 00 2C 61 
  1329)      8927.4  Rx     000163F4  7  01 00 00 0F 03 F4 63 
  1330)      8927.5  Rx     001163F4  5  01 00 00 F4 63 
  1331)      8932.4  Rx     00017036  7  01 00 00 0F 03 36 70 
  1332)      8932.5  Rx     00117036  5  01 00 00 36 70 
  1333)      8937.4  Rx     0001FFB4  7  01 00 00 0F 03 B4 FF 
  1334)      8937.5  Rx     0011FFB4  5  01 00 00 B4 FF 
  1335)      8942.4  Rx     0001D4F5  7  01 00 00 0F 04 F5 D4 
  1336)      8942.5  Rx     0011D4F5  5  01 00 00 F5 D4 
  1337)      8947.4  Rx     00012586  7  01 00 00 0F 03 86 25 
  1338)      8947.5  Rx     00112586  5  01 00 00 86 25 
  1339)      8952.4  Rx     00014810  7  01 00 00 0F 03 10 48 
  1340)      8952.5  Rx     00114810  5  01 00 00 10 48 
  1341)      8957.4  Rx     0001049F  7  01 00 00 0F 03 9F 04 
  1342)      8957.5  Rx     0011049F  5  01 00 00 9F 04 
  1343)      8962.4  Rx     0001D65F  7  01 00 00 0F 03 5F D6 
  1344)      8962.5  Rx     0011D65F  5  01 00 00 5F D6 
  1345)      8967.4  Rx     00019494  7  01 00 00 0F 03 94 94 
  1346)      8967.5  Rx     00119494  5  01 00 00 94 94 
  1347)      8972.4  Rx     0001F46D  7  01 00 00 0F 03 6D F4 
  1348)      8972.5  Rx     0011F46D  5  01 00 00 6D F4 
  1349)      8977.4  Rx     000139F9  7  01 00 00 0F 03 F9 39 
  1350)      8977.5  Rx     001139F9  5  01 00 00 F9 39 
  1351)      8982.4  Rx     0001690C  7  01 00 00 0F 03 0C 69 
  1352)      8982.5  Rx     0011690C  5  01 00 00 0C 69 
  1353)      8987.4  Rx     00015D12  7  01 00 00 0F 03 12 5D 
  1354)      8987.5  Rx     00115D12  5  01 00 00 12 5D 
  1355)      8992.4  Rx     0001B234  7  01 00 00 0F 03 34 B2 
  1356)      8992.5  Rx     0011B234  5  01 00 00 34 B2 
  1357)      8997.4  Rx     000149EA  7  01 00 00 0F 03 EA 49 
  1358)      8997.5  Rx     001149EA  5  01 00 00 EA 49 
  1359)      9002.4  Rx     00017603  7  01 00 00 0F 03 03 76 
  1360)      9002.5  Rx     00117603  5  01 00 00 03 76 
  1361)      9007.4  Rx     000132C8  7  01 00 00 0F 03 C8 32 
  1362)      9007.5  Rx     001132C8  5  01 00 00 C8 32 
  1363)      9012.4  Rx     0001DA9B  7  01 00 00 0F 03 9B DA 
  1364)      9012.5  Rx     0011DA9B  5  01 00 00 9B DA 
  1365)      9017.4  Rx     0001CDDD  7  01 00 00 0F 03 DD CD 
  1366)      9017.5  Rx     0011CDDD  5  01 00 00 DD CD 
  1367)      9022.4  Rx     00010230  7  01 00 00 0F 03 30 02 
  1368)      9022.5  Rx     00110230  5  01 00 00 30 02 
  1369)      9027.4  Rx     000158A3  7  01 00 00 0F 03 A3 58 
  1370)      9027.5  Rx     001158A3  5  01 00 00 A3 58 
  1371)      9032.4  Rx     0001B586  7  01 00 00 0F 03 86 B5 
  1372)      9032.5  Rx     0011B586  5  01 00 00 86 B5 
  1373)      9037.4  Rx     00015F38  7  01 00 00 0F 03 38 5F 
  1374)      9037.5  Rx     00115F38  5  01 00 00 38 5F 
  1375)      9042.4  Rx     000185AB  7  01 00 00 0F 03 AB 85 
  1376)      9042.5  Rx     001185AB  5  01 00 00 AB 85 
  1377)      9047.4  Rx     00013BCA  7  01 00 00 0F 03 CA 3B 
  1378)      9047.5  Rx     00113BCA  5  01 00 00 CA 3B 
  1379)      9052.4  Rx     00014EB1  7  01 00 00 0F 03 B1 4E 
  1380)      9052.5  Rx     00114EB1  5  01 00 00 B1 4E 
  1381)      9057.4  Rx     000195C8  7  01 00 00 0F 03 C8 95 
  1382)      9057.5  Rx     001195C8  5  01 00 00 C8 95 
  1383)      9062.4  Rx     000153BB  7  01 00 00 0F 03 BB 53 
  1384)      9062.5  Rx     001153BB  5  01 00 00 BB 53 
  1385)      9067.4  Rx     0001F271  7  01 00 00 0F 03 71 F2 
  1386)      9067.5  Rx     0011F271  5  01 00 00 71 F2 
  1387)      9072.4  Rx     00013990  7  01 00 00 0F 03 90 39 
  1388)      9072.5  Rx     00113990  5  01 00 00 90 39 
  1389)      9077.4  Rx     00013BFD  7  01 00 00 0F 03 FD 3B 
  1390)      9077.5  Rx     00113BFD  5  01 00 00 FD 3B 
  1391)      9082.4  Rx     0001BF98  7  01 00 00 0F 03 98 BF 
  1392)      9082.5  Rx     0011BF98  5  01 00 00 98 BF 
  1393)      9087.4  Rx     0001E270  7  01 00 00 0F 03 70 E2 
  1394)      9087.5  Rx     0011E270  5  01 00 00 70 E2 
  1395)      9092.4  Rx     00016FF1  7  01 00 00 0F 03 F1 6F 
  1396)      9092.5  Rx     00116FF1  5  01 00 00 F1 6F 
  1397)      9097.4  Rx     000128DB  7  01 00 00 0F 03 DB 28 
  1398)      9097.5  Rx     001128DB  5  01 00 00 DB 28 
  1399)      9102.4  Rx     000189F3  7  01 00 00 0F 03 F3 89 
  1400)      9102.5  Rx     001189F3  5  01 00 00 F3 89 
  1401)      9107.4  Rx     00013792  7  01 00 00 0F 03 92 37 
  1402)      9107.5  Rx     00113792  5  01 00 00 92 37 
  1403)      9112.4  Rx     00011366  7  01 00 00 0F 03 66 13 
  1404)      9112.5  Rx     00111366  5  01 00 00 66 13 
  1405)      9117.4  Rx     00018BAA  7  01 00 00 0F 03 AA 8B 
  1406)      9117.5  Rx     00118BAA  5  01 00 00 AA 8B 
  1407)      9122.4  Rx     00013736  7  01 00 00 0F 03 36 37 
  1408)      9122.5  Rx     00113736  5  01 00 00 36 37 
  1409)      9127.4  Rx     000189AE  7  01 00 00 0F 03 AE 89 
  1410)      9127.5  Rx     001189AE  5  01 00 00 AE 89 
  1411)      9132.4  Rx     00014964  7  01 00 00 0F 03 64 49 
  1412)      9132.5  Rx     00114964  5  01 00 00 64 49 
  1413)      9137.4  Rx     0001C172  7  01 00 00 0F 03 72 C1 
  1414)      9137.5  Rx     0011C172  5  01 00 00 72 C1 
  1415)      9142.4  Rx     0001428A  7  01 00 00 0F 03 8A 42 
  1416)      9142.5  Rx     0011428A  5  01 00 00 8A 42 
  1417)      9147.4  Rx     00016276  7  01 00 00 0F 03 76 62 
  1418)      9147.5  Rx     00116276  5  01 00 00 76 62 
  1419)      9152.4  Rx     00010629  7  01 00 00 0F 03 29 06 
  1420)      9152.5  Rx     00110629  5  01 00 00 29 06 
  1421)      9157.4  Rx     0001A029  7  01 00 00 0F 03 29 A0 
  1422)      9157.5  Rx     0011A029  5  01 00 00 29 A0 
  1423)      9162.4  Rx     0001859C  7  01 00 00 0F 03 9C 85 
  1424)      9162.5  Rx     0011859C  5  01 00 00 9C 85 
  1425)      9167.4  Rx     0001CB12  7  01 00 00 0F 03 12 CB 
  1426)      9167.5  Rx     0011CB12  5  01 00 00 12 CB 
  1427)      9172.4  Rx     0001DE61  7  01 00 00 0F 03 61 DE 
  1428)      9172.5  Rx     0011DE61  5  01 00 00 61 DE 
  1429)      9177.4  Rx     000157A9  7  01 00 00 0F 03 A9 57 
  1430)      9177.5  Rx     001157A9  5  01 00 00 A9 57 
  1431)      9182.3  Rx     0001851E  7  01 00 00 0F 03 1E 85 
  1432)      9182.5  Rx     0011851E  5  01 00 00 1E 85 
  1433)      9187.4  Rx     0001E16A  7  01 00 00 0F 03 6A E1 
  1434)      9187.5  Rx     0011E16A  5  01 00 00 6A E1 
  1435)      9192.4  Rx     0001CF87  7  01 00 00 0F 03 87 CF 
  1436)      9192.5  Rx     0011CF87  5  01 00 00 87 CF 
  1437)      9197.4  Rx     00018C63  7  01 00 00 0F 03 63 8C 
  1438)      9197.5  Rx     00118C63  5  01 00 00 63 8C 
  1439)      9202.4  Rx     0001B20F  7  01 00 00 0F 03 0F B2 
  1440)      9202.5  Rx     0011B20F  5  01 00 00 0F B2 
  1441)      9207.4  Rx     00016946  7  01 00 00 0F 03 46 69 
  1442)      9207.5  Rx     00116946  5  01 00 00 46 69 
  1443)      9212.3  Rx     00011B0C  7  01 00 00 0F 03 0C 1B 
  1444)      9212.5  Rx     00111B0C  5  01 00 00 0C 1B 
  1445)      9217.4  Rx     000183D4  7  01 00 00 0F 03 D4 83 
  1446)      9217.5  Rx     001183D4  5  01 00 00 D4 83 
  1447)      9222.4  Rx     0001CFBA  7  01 00 00 0F 03 BA CF 
  1448)      9222.5  Rx     0011CFBA  5  01 00 00 BA CF 
  1449)      9227.4  Rx     00015116  7  01 00 00 0F 03 16 51 
  1450)      9227.5  Rx     00115116  5  01 00 00 16 51 
  1451)      9232.4  Rx     00011039  7  01 00 00 0F 03 39 10 
  1452)      9232.5  Rx     00111039  5  01 00 00 39 10 
  1453)      9237.3  Rx     000106BA  7  01 00 00 0F 03 BA 06 
  1454)      9237.5  Rx     001106BA  5  01 00 00 BA 06 
  1455)      9242.4  Rx     00012A7F  7  01 00 00 0F 03 7F 2A 
  1456)      9242.5  Rx     00112A7F  5  01 00 00 7F 2A 
  1457)      9247.4  Rx     00015691  7  01 00 00 0F 03 91 56 
  1458)      9247.5  Rx     00115691  5  01 00 00 91 56 
  1459)      9252.4  Rx     0001DCD4  7  01 00 00 0F 03 D4 DC 
  1460)      9252.5  Rx     0011DCD4  5  01 00 00 D4 DC 
  1461)      9257.4  Rx     00019505  7  01 00 00 0F 03 05 95 
  1462)      9257.5  Rx     00119505  5  01 00 00 05 95 
  1463)      9262.3  Rx     00010753  7  01 00 00 0F 03 53 07 
  1464)      9262.5  Rx     00110753  5  01 00 00 53 07 
  1465)      9267.3  Rx     000182FF  7  01 00 00 0F 03 FF 82 
  1466)      9267.5  Rx     001182FF  5  01 00 00 FF 82 
  1467)      9272.4  Rx     00016084  7  01 00 00 0F 03 84 60 
  1468)      9272.5  Rx     00116084  5  01 00 00 84 60 
  1469)      9277.4  Rx     0001738E  7  01 00 00 0F 03 8E 73 
  1470)      9277.5  Rx     0011738E  5  01 00 00 8E 73 
  1471)      9282.4  Rx     0001D008  7  01 00 00 0F 03 08 D0 
  1472)      9282.5  Rx     0011D008  5  01 00 00 08 D0 
  1473)      9287.4  Rx     0001BB56  7  01 00 00 0F 03 56 BB 
  1474)      9287.5  Rx     0011BB56  5  01 00 00 56 BB 
  1475)      9292.3  Rx     0001FAF5  7  01 00 00 0F 03 F5 FA 
  1476)      9292.5  Rx     0011FAF5  5  01 00 00 F5 FA 
  1477)      9297.3  Rx     0001978A  7  01 00 00 0F 03 8A 97 
  1478)      9297.5  Rx     0011978A  5  01 00 00 8A 97 
  1479)      9302.4  Rx     0001884D  7  01 00 00 0F 03 4D 88 
  1480)      9302.5  Rx     0011884D  5  01 00 00 4D 88 
  1481)      9307.4  Rx     00016406  7  01 00 00 0F 03 06 64 
  1482)      9307.5  Rx     00116406  5  01 00 00 06 64 
  1483)      9312.4  Rx     00014CBA  7  01 00 00 0F 03 BA 4C 
  1484)      9312.5  Rx     00114CBA  5  01 00 00 BA 4C 
  1485)      9317.3  Rx     0001EBBC  7  01 00 00 0F 03 BC EB 
  1486)      9317.5  Rx     0011EBBC  5  01 00 00 BC EB 
  1487)      9322.3  Rx     0001FF73  7  01 00 00 0F 03 73 FF 
  1488)      9322.5  Rx     0011FF73  5  01 00 00 73 FF 
  1489)      9327.4  Rx     0001E893  7  01 00 00 0F 03 93 E8 
  1490)      9327.5  Rx     0011E893  5  01 00 00 93 E8 
  1491)      9332.4  Rx     000126F4  7  01 00 00 0F 03 F4 26 
  1492)      9332.4  Rx     001126F4  5  01 00 00 F4 26 
  1493)      9337.4  Rx     0001336D  7  01 00 00 0F 03 6D 33 
  1494)      9337.5  Rx     0011336D  5  01 00 00 6D 33 
  1495)      9342.3  Rx     000122F3  7  01 00 00 0F 03 F3 22 
  1496)      9342.5  Rx     001122F3  5  01 00 00 F3 22 
  1497)      9347.3  Rx     000136E7  7  01 00 00 0F 03 E7 36 
  1498)      9347.5  Rx     001136E7  5  01 00 00 E7 36 
  1499)      9352.3  Rx     000141B6  7  01 00 00 0F 03 B6 41 
  1500)      9352.5  Rx     001141B6  5  01 00 00 B6 41 
  1501)      9357.4  Rx     0001371B  7  01 00 00 0F 03 1B 37 
  1502)      9357.5  Rx     0011371B  5  01 00 00 1B 37 
  1503)      9362.4  Rx     000169B3  7  01 00 00 0F 03 B3 69 
  1504)      9362.4  Rx     001169B3  5  01 00 00 B3 69 
  1505)      9367.3  Rx     00016663  7  01 00 00 0F 03 63 66 
  1506)      9367.5  Rx     00116663  5  01 00 00 63 66 
  1507)      9372.3  Rx     00011526  7  01 00 00 0F 03 26 15 
  1508)      9372.5  Rx     00111526  5  01 00 00 26 15 
  1509)      9377.3  Rx     0001C6F2  7  01 00 00 0F 03 F2 C6 
  1510)      9377.5  Rx     0011C6F2  5  01 00 00 F2 C6 
  1511)      9382.4  Rx     00010802  7  01 00 00 0F 03 02 08 
  1512)      9382.5  Rx     00110802  5  01 00 00 02 08 
  1513)      9387.4  Rx     000146BA  7  01 00 00 0F 03 BA 46 
  1514)      9387.4  Rx     001146BA  5  01 00 00 BA 46 
  1515)      9392.4  Rx     0001A963  7  01 00 00 0F 03 63 A9 
  1516)      9392.4  Rx     0011A963  5  01 00 00 63 A9 
  1517)      9397.3  Rx     0001CEFE  7  01 00 00 0F 03 FE CE 
  1518)      9397.5  Rx     0011CEFE  5  01 00 00 FE CE 
  1519)      9402.3  Rx     00014C68  7  01 00 00 0F 03 68 4C 
  1520)      9402.5  Rx     00114C68  5  01 00 00 68 4C 
  1521)      9407.3  Rx     0001E67D  7  01 00 00 0F 03 7D E6 
  1522)      9407.5  Rx     0011E67D  5  01 00 00 7D E6 
  1523)      9412.4  Rx     00016529  7  01 00 00 0F 03 29 65 
  1524)      9412.4  Rx     00116529  5  01 00 00 29 65 
  1525)      9417.4  Rx     0001651C  7  01 00 00 0F 03 1C 65 
  1526)      9417.4  Rx     0011651C  5  01 00 00 1C 65 
  1527)      9422.3  Rx     0001E91F  7  01 00 00 0F 03 1F E9 
  1528)      9422.5  Rx     0011E91F  5  01 00 00 1F E9 
  1529)      9427.3  Rx     00012575  7  01 00 00 0F 03 75 25 
  1530)      9427.5  Rx     00112575  5  01 00 00 75 25 
  1531)      9432.3  Rx     0001DF35  7  01 00 00 0F 03 35 DF 
  1532)      9432.5  Rx     0011DF35  5  01 00 00 35 DF 
  1533)      9437.3  Rx     0001DCB4  7  01 00 00 0F 03 B4 DC 
  1534)      9437.4  Rx     0011DCB4  5  01 00 00 B4 DC 
  1535)      9442.4  Rx     00014A5F  7  01 00 00 0F 03 5F 4A 
  1536)      9442.4  Rx     00114A5F  5  01 00 00 5F 4A 
  1537)      9447.3  Rx     00014AB4  7  01 00 00 0F 03 B4 4A 
  1538)      9447.4  Rx     00114AB4  5  01 00 00 B4 4A 
  1539)      9452.3  Rx     0001A669  7  01 00 00 0F 03 69 A6 
  1540)      9452.5  Rx     0011A669  5  01 00 00 69 A6 
  1541)      9457.3  Rx     0001D029  7  01 00 00 0F 03 29 D0 
  1542)      9457.5  Rx     0011D029  5  01 00 00 29 D0 
  1543)      9462.3  Rx     0001E15C  7  01 00 00 0F 03 5C E1 
  1544)      9462.5  Rx     0011E15C  5  01 00 00 5C E1 
  1545)      9467.4  Rx     00018E68  7  01 00 00 0F 03 68 8E 
  1546)      9467.4  Rx     00118E68  5  01 00 00 68 8E 
  1547)      9472.3  Rx     000120AE  7  01 00 00 0F 03 AE 20 
  1548)      9472.4  Rx     001120AE  5  01 00 00 AE 20 
  1549)      9477.3  Rx     00013C0B  7  01 00 00 0F 03 0B 3C 
  1550)      9477.5  Rx     00113C0B  5  01 00 00 0B 3C 
  1551)      9482.3  Rx     00017410  7  01 00 00 0F 03 10 74 
  1552)      9482.5  Rx     00117410  5  01 00 00 10 74 
  1553)      9487.3  Rx     0001AF75  7  01 00 00 0F 03 75 AF 
  1554)      9487.5  Rx     0011AF75  5  01 00 00 75 AF 
  1555)      9492.3  Rx     0001549C  7  01 00 00 0F 03 9C 54 
  1556)      9492.4  Rx     0011549C  5  01 00 00 9C 54 
  1557)      9497.4  Rx     00017C11  7  01 00 00 0F 03 11 7C 
  1558)      9497.4  Rx     00117C11  5  01 00 00 11 7C 
  1559)      9502.3  Rx     000175B8  7  01 00 00 0F 03 B8 75 
  1560)      9502.4  Rx     001175B8  5  01 00 00 B8 75 
  1561)      9507.3  Rx     000170C0  7  01 00 00 0F 03 C0 70 
  1562)      9507.5  Rx     001170C0  5  01 00 00 C0 70 
  1563)      9512.3  Rx     0001ADDA  7  01 00 00 0F 03 DA AD 
  1564)      9512.5  Rx     0011ADDA  5  01 00 00 DA AD 
  1565)      9517.3  Rx     000171C8  7  01 00 00 0F 03 C8 71 
  1566)      9517.4  Rx     001171C8  5  01 00 00 C8 71 
  1567)      9522.4  Rx     00014C1E  7  01 00 00 0F 03 1E 4C 
  1568)      9522.4  Rx     00114C1E  5  01 00 00 1E 4C 
  1569)      9527.3  Rx     0001524B  7  01 00 00 0F 03 4B 52 
  1570)      9527.4  Rx     0011524B  5  01 00 00 4B 52 
  1571)      9532.3  Rx     0001DC46  7  01 00 00 0F 03 46 DC 
  1572)      9532.4  Rx     0011DC46  5  01 00 00 46 DC 
  1573)      9537.3  Rx     0001810B  7  01 00 00 0F 03 0B 81 
  1574)      9537.5  Rx     0011810B  5  01 00 00 0B 81 
  1575)      9542.3  Rx     0001A59C  7  01 00 00 0F 03 9C A5 
  1576)      9542.5  Rx     0011A59C  5  01 00 00 9C A5 
  1577)      9547.3  Rx     0001EA05  7  01 00 00 0F 03 05 EA 
  1578)      9547.4  Rx     0011EA05  5  01 00 00 05 EA 
  1579)      9552.3  Rx     0001A5D4  7  01 00 00 0F 03 D4 A5 
  1580)      9552.4  Rx     0011A5D4  5  01 00 00 D4 A5 
  1581)      9557.3  Rx     0001B631  7  01 00 00 0F 03 31 B6 
  1582)      9557.4  Rx     0011B631  5  01 00 00 31 B6 
  1583)      9562.3  Rx     0001C7DB  7  01 00 00 0F 03 DB C7 
  1584)      9562.5  Rx     0011C7DB  5  01 00 00 DB C7 
  1585)      9567.3  Rx     0001A85E  7  01 00 00 0F 03 5E A8 
  1586)      9567.5  Rx     0011A85E  5  01 00 00 5E A8 
  1587)      9572.3  Rx     0001A736  7  01 00 00 0F 03 36 A7 
  1588)      9572.4  Rx     0011A736  5  01 00 00 36 A7 
  1589)      9577.3  Rx     0001B608  7  01 00 00 0F 03 08 B6 
  1590)      9577.4  Rx     0011B608  5  01 00 00 08 B6 
  1591)      9582.3  Rx     0001D75E  7  01 00 00 0F 03 5E D7 
  1592)      9582.4  Rx     0011D75E  5  01 00 00 5E D7 
  1593)      9587.3  Rx     0001409C  7  01 00 00 0F 03 9C 40 
  1594)      9587.5  Rx     0011409C  5  01 00 00 9C 40 
  1595)      9592.3  Rx     0001273F  7  01 00 00 0F 03 3F 27 
  1596)      9592.5  Rx     0011273F  5  01 00 00 3F 27 
  1597)      9597.3  Rx     0001F384  7  01 00 00 0F 03 84 F3 
  1598)      9597.4  Rx     0011F384  5  01 00 00 84 F3 
  1599)      9602.3  Rx     000143C2  7  01 00 00 0F 03 C2 43 
  1600)      9602.4  Rx     001143C2  5  01 00 00 C2 43 
  1601)      9607.3  Rx     000158EF  7  01 00 00 0F 03 EF 58 
  1602)      9607.4  Rx     001158EF  5  01 00 00 EF 58 
  1603)      9612.3  Rx     0001F107  7  01 00 00 0F 03 07 F1 
  1604)      9612.4  Rx     0011F107  5  01 00 00 07 F1 
  1605)      9617.3  Rx     00019735  7  01 00 00 0F 03 35 97 
  1606)      9617.4  Rx     00119735  5  01 00 00 35 97 
  1607)      9622.3  Rx     0001E8C1  7  01 00 00 0F 03 C1 E8 
  1608)      9622.4  Rx     0011E8C1  5  01 00 00 C1 E8 
  1609)      9627.3  Rx     0001FA46  7  01 00 00 0F 03 46 FA 
  1610)      9627.4  Rx     0011FA46  5  01 00 00 46 FA 
  1611)      9632.3  Rx     00012CCE  7  01 00 00 0F 03 CE 2C 
  1612)      9632.4  Rx     00112CCE  5  01 00 00 CE 2C 
  1613)      9637.3  Rx     0001BC7D  7  01 00 00 0F 03 7D BC 
  1614)      9637.4  Rx     0011BC7D  5  01 00 00 7D BC 
  1615)      9642.3  Rx     000193FB  7  01 00 00 0F 03 FB 93 
  1616)      9642.4  Rx     001193FB  5  01 00 00 FB 93 
  1617)      9647.3  Rx     00013BDE  7  01 00 00 0F 03 DE 3B 
  1618)      9647.5  Rx     00113BDE  5  01 00 00 DE 3B 
  1619)      9652.3  Rx     00010BA0  7  01 00 00 0F 03 A0 0B 
  1620)      9652.4  Rx     00110BA0  5  01 00 00 A0 0B 
  1621)      9657.3  Rx     0001587D  7  01 00 00 0F 03 7D 58 
  1622)      9657.4  Rx     0011587D  5  01 00 00 7D 58 
  1623)      9662.3  Rx     00012373  7  01 00 00 0F 03 73 23 
  1624)      9662.4  Rx     00112373  5  01 00 00 73 23 
  1625)      9667.3  Rx     0001BA9E  7  01 00 00 0F 03 9E BA 
  1626)      9667.4  Rx     0011BA9E  5  01 00 00 9E BA 
  1627)      9672.3  Rx     0001B5BD  7  01 00 00 0F 03 BD B5 
  1628)      9672.4  Rx     0011B5BD  5  01 00 00 BD B5 
  1629)      9677.3  Rx     000162D3  7  01 00 00 0F 03 D3 62 
  1630)      9677.4  Rx     001162D3  5  01 00 00 D3 62 
  1631)      9682.3  Rx     0001F8DA  7  01 00 00 0F 03 DA F8 
