;$FILEVERSION=1.1
;$STARTTIME=46290.6858440625
;
;   Start time: 25/09/2026 16:27:36.927.0
;   Generated by PCAN-View v5.3.3.958
;
;   Message Number
;   |         Time Offset (ms)
;   |         |        Type
;   |         |        |        ID (hex)
;   |         |        |        |     Data Length
;   |         |        |        |     |   Data Bytes (hex) ...
;   |         |        |        |     |   |
;---+--   ----+----  --+--  ----+---  +  -+ -- -- -- -- -- -- --
     1)      6209.1  Rx     0001154B  7  01 00 00 0F 00 4B 15 
     2)      6209.2  Rx     0011154B  5  01 00 00 4B 15 
     3)      6214.1  Rx     00012928  7  01 00 00 0F 03 28 29 
     4)      6214.2  Rx     00112928  5  01 00 00 28 29 
     5)      6219.1  Rx     000130E6  7  01 00 00 0F 03 E6 30 
     6)      6219.2  Rx     001130E6  5  01 00 00 E6 30 
     7)      6224.1  Rx     0001EED0  7  01 00 00 0F 03 D0 EE 
     8)      6224.2  Rx     0011EED0  5  01 00 00 D0 EE 
     9)      6229.1  Rx     000176BC  7  01 00 00 0F 03 BC 76 
    10)      6229.2  Rx     001176BC  5  01 00 00 BC 76 
    11)      6234.1  Rx     0001D270  7  01 00 00 0F 03 70 D2 
    12)      6234.2  Rx     0011D270  5  01 00 00 70 D2 
    13)      6239.1  Rx     0001AEEE  7  01 00 00 0F 03 EE AE 
    14)      6239.2  Rx     0011AEEE  5  01 00 00 EE AE 
    15)      6244.1  Rx     00018300  7  01 00 00 0F 03 00 83 
    16)      6244.2  Rx     00118300  5  01 00 00 00 83 
    17)      6249.1  Rx     00011CCE  7  01 00 00 0F 03 CE 1C 
    18)      6249.2  Rx     00111CCE  5  01 00 00 CE 1C 
    19)      6254.1  Rx     0001E217  7  01 00 00 0F 03 17 E2 
    20)      6254.2  Rx     0011E217  5  01 00 00 17 E2 
    21)      6259.1  Rx     00011B7E  7  01 00 00 0F 03 7E 1B 
    22)      6259.2  Rx     00111B7E  5  01 00 00 7E 1B 
    23)      6264.1  Rx     000163AB  7  01 00 00 0F 03 AB 63 
    24)      6264.2  Rx     001163AB  5  01 00 00 AB 63 
    25)      6269.1  Rx     00010887  7  01 00 00 0F 03 87 08 
    26)      6269.2  Rx     00110887  5  01 00 00 87 08 
    27)      6274.1  Rx     0001A6AA  7  01 00 00 0F 03 AA A6 
    28)      6274.2  Rx     0011A6AA  5  01 00 00 AA A6 
    29)      6279.1  Rx     000120C8  7  01 00 00 0F 03 C8 20 
    30)      6279.2  Rx     001120C8  5  01 00 00 C8 20 
    31)      6284.1  Rx     0001DBE3  7  01 00 00 0F 03 E3 DB 
    32)      6284.2  Rx     0011DBE3  5  01 00 00 E3 DB 
    33)      6289.1  Rx     0001BCE8  7  01 00 00 0F 03 E8 BC 
    34)      6289.2  Rx     0011BCE8  5  01 00 00 E8 BC 
    35)      6294.1  Rx     00018C93  7  01 00 00 0F 03 93 8C 
    36)      6294.2  Rx     00118C93  5  01 00 00 93 8C 
    37)      6299.0  Rx     00019933  7  01 00 00 0F 03 33 99 
    38)      6299.2  Rx     00119933  5  01 00 00 33 99 
    39)      6304.1  Rx     00017798  7  01 00 00 0F 03 98 77 
    40)      6304.2  Rx     00117798  5  01 00 00 98 77 
    41)      6309.1  Rx     00011D8C  7  01 00 00 0F 03 8C 1D 
    42)      6309.2  Rx     00111D8C  5  01 00 00 8C 1D 
    43)      6314.1  Rx     00012411  7  01 00 00 0F 03 11 24 
    44)      6314.2  Rx     00112411  5  01 00 00 11 24 
    45)      6319.1  Rx     0001ACD9  7  01 00 00 0F 03 D9 AC 
    46)      6319.2  Rx     0011ACD9  5  01 00 00 D9 AC 
    47)      6324.0  Rx     00019DF4  7  01 00 00 0F 03 F4 9D 
    48)      6324.2  Rx     00119DF4  5  01 00 00 F4 9D 
    49)      6329.1  Rx     00014010  7  01 00 00 0F 03 10 40 
    50)      6329.2  Rx     00114010  5  01 00 00 10 40 
    51)      6334.1  Rx     000148EA  7  01 00 00 0F 03 EA 48 
    52)      6334.2  Rx     001148EA  5  01 00 00 EA 48 
    53)      6339.1  Rx     000153D2  7  01 00 00 0F 03 D2 53 
    54)      6339.2  Rx     001153D2  5  01 00 00 D2 53 
    55)      6344.1  Rx     00011769  7  01 00 00 0F 03 69 17 
    56)      6344.2  Rx     00111769  5  01 00 00 69 17 
    57)      6349.1  Rx     00014036  7  01 00 00 0F 03 36 40 
    58)      6349.2  Rx     00114036  5  01 00 00 36 40 
    59)      6354.0  Rx     000113E2  7  01 00 00 0F 03 E2 13 
    60)      6354.2  Rx     001113E2  5  01 00 00 E2 13 
    61)      6359.1  Rx     00017132  7  01 00 00 0F 03 32 71 
    62)      6359.2  Rx     00117132  5  01 00 00 32 71 
    63)      6364.1  Rx     00019386  7  01 00 00 0F 03 86 93 
    64)      6364.2  Rx     00119386  5  01 00 00 86 93 
    65)      6369.1  Rx     0001FAC7  7  01 00 00 0F 03 C7 FA 
    66)      6369.2  Rx     0011FAC7  5  01 00 00 C7 FA 
    67)      6374.1  Rx     0001F5EA  7  01 00 00 0F 03 EA F5 
    68)      6374.2  Rx     0011F5EA  5  01 00 00 EA F5 
    69)      6379.0  Rx     000156D2  7  01 00 00 0F 03 D2 56 
    70)      6379.2  Rx     001156D2  5  01 00 00 D2 56 
    71)      6384.0  Rx     00014E8D  7  01 00 00 0F 03 8D 4E 
    72)      6384.2  Rx     00114E8D  5  01 00 00 8D 4E 
    73)      6389.1  Rx     0001F33B  7  01 00 00 0F 03 3B F3 
    74)      6389.2  Rx     0011F33B  5  01 00 00 3B F3 
    75)      6394.1  Rx     0001D917  7  01 00 00 0F 03 17 D9 
    76)      6394.1  Rx     0011D917  5  01 00 00 17 D9 
    77)      6399.0  Rx     0001F1D1  7  01 00 00 0F 03 D1 F1 
    78)      6399.1  Rx     0011F1D1  5  01 00 00 D1 F1 
    79)      6404.0  Rx     00019AC5  7  01 00 00 0F 03 C5 9A 
    80)      6404.1  Rx     00119AC5  5  01 00 00 C5 9A 
    81)      6409.0  Rx     00011819  7  01 00 00 0F 03 19 18 
    82)      6409.1  Rx     00111819  5  01 00 00 19 18 
    83)      6414.0  Rx     00011B58  7  01 00 00 0F 03 58 1B 
    84)      6414.1  Rx     00111B58  5  01 00 00 58 1B 
    85)      6419.0  Rx     000127D9  7  01 00 00 0F 03 D9 27 
    86)      6419.1  Rx     001127D9  5  01 00 00 D9 27 
    87)      6424.0  Rx     0001658E  7  01 00 00 0F 03 8E 65 
    88)      6424.1  Rx     0011658E  5  01 00 00 8E 65 
    89)      6429.0  Rx     00019E1E  7  01 00 00 0F 03 1E 9E 
    90)      6429.1  Rx     00119E1E  5  01 00 00 1E 9E 
    91)      6434.0  Rx     0001A2E6  7  01 00 00 0F 03 E6 A2 
    92)      6434.1  Rx     0011A2E6  5  01 00 00 E6 A2 
    93)      6439.0  Rx     00012921  7  01 00 00 0F 03 21 29 
    94)      6439.1  Rx     00112921  5  01 00 00 21 29 
    95)      6444.0  Rx     0001D838  7  01 00 00 0F 03 38 D8 
    96)      6444.1  Rx     0011D838  5  01 00 00 38 D8 
    97)      6449.0  Rx     0001C620  7  01 00 00 0F 03 20 C6 
    98)      6449.1  Rx     0011C620  5  01 00 00 20 C6 
    99)      6454.0  Rx     0001EC79  7  01 00 00 0F 03 79 EC 
   100)      6454.1  Rx     0011EC79  5  01 00 00 79 EC 
   101)      6459.0  Rx     0001BB35  7  01 00 00 0F 03 35 BB 
   102)      6459.1  Rx     0011BB35  5  01 00 00 35 BB 
   103)      6464.0  Rx     0001D494  7  01 00 00 0F 03 94 D4 
   104)      6464.1  Rx     0011D494  5  01 00 00 94 D4 
   105)      6469.0  Rx     0001A5B0  7  01 00 00 0F 03 B0 A5 
   106)      6469.1  Rx     0011A5B0  5  01 00 00 B0 A5 
   107)      6474.0  Rx     0001333F  7  01 00 00 0F 03 3F 33 
   108)      6474.1  Rx     0011333F  5  01 00 00 3F 33 
   109)      6479.0  Rx     00018477  7  01 00 00 0F 03 77 84 
   110)      6479.1  Rx     00118477  5  01 00 00 77 84 
   111)      6484.0  Rx     00019946  7  01 00 00 0F 03 46 99 
   112)      6484.1  Rx     00119946  5  01 00 00 46 99 
   113)      6489.0  Rx     00011681  7  01 00 00 0F 03 81 16 
   114)      6489.1  Rx     00111681  5  01 00 00 81 16 
   115)      6494.0  Rx     00015A8D  7  01 00 00 0F 03 8D 5A 
   116)      6494.1  Rx     00115A8D  5  01 00 00 8D 5A 
   117)      6499.0  Rx     00017064  7  01 00 00 0F 03 64 70 
   118)      6499.1  Rx     00117064  5  01 00 00 64 70 
   119)      6504.0  Rx     00013DE0  7  01 00 00 0F 03 E0 3D 
   120)      6504.1  Rx     00113DE0  5  01 00 00 E0 3D 
   121)      6509.0  Rx     0001588B  7  01 00 00 0F 03 8B 58 
   122)      6509.1  Rx     0011588B  5  01 00 00 8B 58 
   123)      6514.0  Rx     00011152  7  01 00 00 0F 03 52 11 
   124)      6514.1  Rx     00111152  5  01 00 00 52 11 
   125)      6519.0  Rx     0001E096  7  01 00 00 0F 03 96 E0 
   126)      6519.1  Rx     0011E096  5  01 00 00 96 E0 
   127)      6524.0  Rx     000156AE  7  01 00 00 0F 03 AE 56 
   128)      6524.1  Rx     001156AE  5  01 00 00 AE 56 
   129)      6529.0  Rx     00010EEE  7  01 00 00 0F 03 EE 0E 
   130)      6529.1  Rx     00110EEE  5  01 00 00 EE 0E 
   131)      6534.0  Rx     0001F34E  7  01 00 00 0F 03 4E F3 
   132)      6534.1  Rx     0011F34E  5  01 00 00 4E F3 
   133)      6539.0  Rx     00011E8C  7  01 00 00 0F 03 8C 1E 
   134)      6539.1  Rx     00111E8C  5  01 00 00 8C 1E 
   135)      6544.0  Rx     00017451  7  01 00 00 0F 03 51 74 
   136)      6544.1  Rx     00117451  5  01 00 00 51 74 
   137)      6549.0  Rx     0001F396  7  01 00 00 0F 03 96 F3 
   138)      6549.1  Rx     0011F396  5  01 00 00 96 F3 
   139)      6554.0  Rx     00017007  7  01 00 00 0F 03 07 70 
   140)      6554.1  Rx     00117007  5  01 00 00 07 70 
   141)      6559.0  Rx     00018A2C  7  01 00 00 0F 03 2C 8A 
   142)      6559.1  Rx     00118A2C  5  01 00 00 2C 8A 
   143)      6564.0  Rx     0001BF0E  7  01 00 00 0F 03 0E BF 
   144)      6564.1  Rx     0011BF0E  5  01 00 00 0E BF 
   145)      6569.0  Rx     0001A9A2  7  01 00 00 0F 03 A2 A9 
   146)      6569.1  Rx     0011A9A2  5  01 00 00 A2 A9 
   147)      6574.0  Rx     00010776  7  01 00 00 0F 03 76 07 
   148)      6574.1  Rx     00110776  5  01 00 00 76 07 
   149)      6579.0  Rx     00010104  7  01 00 00 0F 03 04 01 
   150)      6579.1  Rx     00110104  5  01 00 00 04 01 
   151)      6584.0  Rx     00017DE3  7  01 00 00 0F 03 E3 7D 
   152)      6584.1  Rx     00117DE3  5  01 00 00 E3 7D 
   153)      6589.0  Rx     0001A284  7  01 00 00 0F 03 84 A2 
   154)      6589.1  Rx     0011A284  5  01 00 00 84 A2 
   155)      6594.0  Rx     00013084  7  01 00 00 0F 03 84 30 
   156)      6594.1  Rx     00113084  5  01 00 00 84 30 
   157)      6599.0  Rx     00013252  7  01 00 00 0F 03 52 32 
   158)      6599.1  Rx     00113252  5  01 00 00 52 32 
   159)      6604.0  Rx     0001AD5D  7  01 00 00 0F 03 5D AD 
   160)      6604.1  Rx     0011AD5D  5  01 00 00 5D AD 
   161)      6609.0  Rx     0001CDE8  7  01 00 00 0F 03 E8 CD 
   162)      6609.1  Rx     0011CDE8  5  01 00 00 E8 CD 
   163)      6614.0  Rx     00018D37  7  01 00 00 0F 03 37 8D 
   164)      6614.1  Rx     00118D37  5  01 00 00 37 8D 
   165)      6619.0  Rx     0001D3C9  7  01 00 00 0F 03 C9 D3 
   166)      6619.1  Rx     0011D3C9  5  01 00 00 C9 D3 
   167)      6624.0  Rx     00018E2B  7  01 00 00 0F 03 2B 8E 
   168)      6624.1  Rx     00118E2B  5  01 00 00 2B 8E 
   169)      6629.0  Rx     00018455  7  01 00 00 0F 03 55 84 
   170)      6629.1  Rx     00118455  5  01 00 00 55 84 
   171)      6634.0  Rx     0001DCAA  7  01 00 00 0F 03 AA DC 
   172)      6634.1  Rx     0011DCAA  5  01 00 00 AA DC 
   173)      6639.0  Rx     00010710  7  01 00 00 0F 03 10 07 
   174)      6639.1  Rx     00110710  5  01 00 00 10 07 
   175)      6644.0  Rx     00012F71  7  01 00 00 0F 03 71 2F 
   176)      6644.1  Rx     00112F71  5  01 00 00 71 2F 
   177)      6649.0  Rx     00014C94  7  01 00 00 0F 03 94 4C 
   178)      6649.1  Rx     00114C94  5  01 00 00 94 4C 
   179)      6654.0  Rx     00012AC1  7  01 00 00 0F 03 C1 2A 
   180)      6654.1  Rx     00112AC1  5  01 00 00 C1 2A 
   181)      6659.0  Rx     0001AC0A  7  01 00 00 0F 03 0A AC 
   182)      6659.1  Rx     0011AC0A  5  01 00 00 0A AC 
   183)      6663.9  Rx     000108DD  7  01 00 00 0F 03 DD 08 
   184)      6664.1  Rx     001108DD  5  01 00 00 DD 08 
   185)      6669.0  Rx     0001AFD3  7  01 00 00 0F 03 D3 AF 
   186)      6669.1  Rx     0011AFD3  5  01 00 00 D3 AF 
   187)      6674.0  Rx     0001BD98  7  01 00 00 0F 03 98 BD 
   188)      6674.1  Rx     0011BD98  5  01 00 00 98 BD 
   189)      6679.0  Rx     0001A7D7  7  01 00 00 0F 03 D7 A7 
   190)      6679.1  Rx     0011A7D7  5  01 00 00 D7 A7 
   191)      6684.0  Rx     0001807A  7  01 00 00 0F 03 7A 80 
   192)      6684.1  Rx     0011807A  5  01 00 00 7A 80 
   193)      6689.0  Rx     0001F488  7  01 00 00 0F 03 88 F4 
   194)      6689.1  Rx     0011F488  5  01 00 00 88 F4 
   195)      6693.9  Rx     00013CBF  7  01 00 00 0F 03 BF 3C 
   196)      6694.1  Rx     00113CBF  5  01 00 00 BF 3C 
   197)      6699.0  Rx     0001289D  7  01 00 00 0F 03 9D 28 
   198)      6699.1  Rx     0011289D  5  01 00 00 9D 28 
   199)      6704.0  Rx     00018046  7  01 00 00 0F 03 46 80 
   200)      6704.1  Rx     00118046  5  01 00 00 46 80 
   201)      6709.0  Rx     00011816  7  01 00 00 0F 03 16 18 
   202)      6709.1  Rx     00111816  5  01 00 00 16 18 
   203)      6714.0  Rx     0001BA27  7  01 00 00 0F 03 27 BA 
   204)      6714.1  Rx     0011BA27  5  01 00 00 27 BA 
   205)      6718.9  Rx     00011A05  7  01 00 00 0F 03 05 1A 
   206)      6719.1  Rx     00111A05  5  01 00 00 05 1A 
   207)      6724.0  Rx     00010F84  7  01 00 00 0F 03 84 0F 
   208)      6724.1  Rx     00110F84  5  01 00 00 84 0F 
   209)      6729.0  Rx     00017731  7  01 00 00 0F 03 31 77 
   210)      6729.1  Rx     00117731  5  01 00 00 31 77 
   211)      6734.0  Rx     0001C8D9  7  01 00 00 0F 03 D9 C8 
   212)      6734.0  Rx     0011C8D9  5  01 00 00 D9 C8 
   213)      6739.0  Rx     00014A87  7  01 00 00 0F 03 87 4A 
   214)      6739.1  Rx     00114A87  5  01 00 00 87 4A 
   215)      6743.9  Rx     0001C3D2  7  01 00 00 0F 03 D2 C3 
   216)      6744.1  Rx     0011C3D2  5  01 00 00 D2 C3 
   217)      6748.9  Rx     0001B101  7  01 00 00 0F 03 01 B1 
   218)      6749.1  Rx     0011B101  5  01 00 00 01 B1 
   219)      6754.0  Rx     0001796C  7  01 00 00 0F 03 6C 79 
   220)      6754.1  Rx     0011796C  5  01 00 00 6C 79 
   221)      6759.0  Rx     0001D565  7  01 00 00 0F 03 65 D5 
   222)      6759.1  Rx     0011D565  5  01 00 00 65 D5 
   223)      6764.0  Rx     000175F9  7  01 00 00 0F 03 F9 75 
   224)      6764.1  Rx     001175F9  5  01 00 00 F9 75 
   225)      6769.0  Rx     00017908  7  01 00 00 0F 03 08 79 
   226)      6769.1  Rx     00117908  5  01 00 00 08 79 
   227)      6773.9  Rx     00018434  7  01 00 00 0F 03 34 84 
   228)      6774.1  Rx     00118434  5  01 00 00 34 84 
   229)      6778.9  Rx     00017978  7  01 00 00 0F 03 78 79 
   230)      6779.1  Rx     00117978  5  01 00 00 78 79 
   231)      6784.0  Rx     0001BA87  7  01 00 00 0F 03 87 BA 
   232)      6784.1  Rx     0011BA87  5  01 00 00 87 BA 
   233)      6789.0  Rx     00015BC3  7  01 00 00 0F 03 C3 5B 
   234)      6789.0  Rx     00115BC3  5  01 00 00 C3 5B 
   235)      6794.0  Rx     00014D3A  7  01 00 00 0F 03 3A 4D 
   236)      6794.1  Rx     00114D3A  5  01 00 00 3A 4D 
   237)      6798.9  Rx     0001CCAD  7  01 00 00 0F 03 AD CC 
   238)      6799.1  Rx     0011CCAD  5  01 00 00 AD CC 
   239)      6803.9  Rx     0001821D  7  01 00 00 0F 03 1D 82 
   240)      6804.1  Rx     0011821D  5  01 00 00 1D 82 
   241)      6809.0  Rx     00019611  7  01 00 00 0F 03 11 96 
   242)      6809.1  Rx     00119611  5  01 00 00 11 96 
   243)      6814.0  Rx     0001E1EE  7  01 00 00 0F 03 EE E1 
   244)      6814.0  Rx     0011E1EE  5  01 00 00 EE E1 
   245)      6819.0  Rx     0001A44C  7  01 00 00 0F 03 4C A4 
   246)      6819.1  Rx     0011A44C  5  01 00 00 4C A4 
   247)      6823.9  Rx     00019187  7  01 00 00 0F 03 87 91 
   248)      6824.1  Rx     00119187  5  01 00 00 87 91 
   249)      6828.9  Rx     0001E356  7  01 00 00 0F 03 56 E3 
   250)      6829.1  Rx     0011E356  5  01 00 00 56 E3 
   251)      6833.9  Rx     00012C9D  7  01 00 00 0F 03 9D 2C 
   252)      6834.1  Rx     00112C9D  5  01 00 00 9D 2C 
   253)      6839.0  Rx     000159FE  7  01 00 00 0F 03 FE 59 
   254)      6839.1  Rx     001159FE  5  01 00 00 FE 59 
   255)      6844.0  Rx     00012D90  7  01 00 00 0F 03 90 2D 
   256)      6844.1  Rx     00112D90  5  01 00 00 90 2D 
   257)      6848.9  Rx     00014E5F  7  01 00 00 0F 03 5F 4E 
   258)      6849.1  Rx     00114E5F  5  01 00 00 5F 4E 
   259)      6853.9  Rx     0001F1A3  7  01 00 00 0F 03 A3 F1 
   260)      6854.1  Rx     0011F1A3  5  01 00 00 A3 F1 
   261)      6858.9  Rx     0001198B  7  01 00 00 0F 03 8B 19 
   262)      6859.1  Rx     0011198B  5  01 00 00 8B 19 
   263)      6864.0  Rx     00019A92  7  01 00 00 0F 03 92 9A 
   264)      6864.1  Rx     00119A92  5  01 00 00 92 9A 
   265)      6869.0  Rx     00010503  7  01 00 00 0F 03 03 05 
   266)      6869.1  Rx     00110503  5  01 00 00 03 05 
   267)      6874.0  Rx     0001D65F  7  01 00 00 0F 03 5F D6 
   268)      6874.1  Rx     0011D65F  5  01 00 00 5F D6 
   269)      6878.9  Rx     00014366  7  01 00 00 0F 03 66 43 
   270)      6879.1  Rx     00114366  5  01 00 00 66 43 
   271)      6883.9  Rx     0001ABCF  7  01 00 00 0F 03 CF AB 
   272)      6884.1  Rx     0011ABCF  5  01 00 00 CF AB 
   273)      6888.9  Rx     00011E8D  7  01 00 00 0F 03 8D 1E 
   274)      6889.1  Rx     00111E8D  5  01 00 00 8D 1E 
   275)      6894.0  Rx     00017DEA  7  01 00 00 0F 03 EA 7D 
   276)      6894.0  Rx     00117DEA  5  01 00 00 EA 7D 
   277)      6899.0  Rx     00019BEA  7  01 00 00 0F 03 EA 9B 
   278)      6899.0  Rx     00119BEA  5  01 00 00 EA 9B 
   279)      6903.9  Rx     00015682  7  01 00 00 0F 03 82 56 
   280)      6904.1  Rx     00115682  5  01 00 00 82 56 
   281)      6908.9  Rx     000170DC  7  01 00 00 0F 03 DC 70 
   282)      6909.1  Rx     001170DC  5  01 00 00 DC 70 
   283)      6913.9  Rx     00019F87  7  01 00 00 0F 03 87 9F 
   284)      6914.1  Rx     00119F87  5  01 00 00 87 9F 
   285)      6918.9  Rx     0001BF61  7  01 00 00 0F 03 61 BF 
   286)      6919.0  Rx     0011BF61  5  01 00 00 61 BF 
   287)      6924.0  Rx     00014CB4  7  01 00 00 0F 03 B4 4C 
   288)      6924.0  Rx     00114CB4  5  01 00 00 B4 4C 
   289)      6928.9  Rx     00016447  7  01 00 00 0F 03 47 64 
   290)      6929.0  Rx     00116447  5  01 00 00 47 64 
   291)      6933.9  Rx     0001FED8  7  01 00 00 0F 03 D8 FE 
   292)      6934.1  Rx     0011FED8  5  01 00 00 D8 FE 
   293)      6938.9  Rx     00015AC9  7  01 00 00 0F 03 C9 5A 
   294)      6939.1  Rx     00115AC9  5  01 00 00 C9 5A 
   295)      6943.9  Rx     00017FCE  7  01 00 00 0F 03 CE 7F 
   296)      6944.1  Rx     00117FCE  5  01 00 00 CE 7F 
   297)      6949.0  Rx     0001C641  7  01 00 00 0F 03 41 C6 
   298)      6949.0  Rx     0011C641  5  01 00 00 41 C6 
   299)      6954.0  Rx     000199D5  7  01 00 00 0F 03 D5 99 
   300)      6954.0  Rx     001199D5  5  01 00 00 D5 99 
   301)      6958.9  Rx     00017D54  7  01 00 00 0F 03 54 7D 
   302)      6959.1  Rx     00117D54  5  01 00 00 54 7D 
   303)      6963.9  Rx     0001AAF1  7  01 00 00 0F 03 F1 AA 
   304)      6964.1  Rx     0011AAF1  5  01 00 00 F1 AA 
   305)      6968.9  Rx     000182BF  7  01 00 00 0F 03 BF 82 
   306)      6969.1  Rx     001182BF  5  01 00 00 BF 82 
   307)      6973.9  Rx     00019C7C  7  01 00 00 0F 03 7C 9C 
   308)      6974.0  Rx     00119C7C  5  01 00 00 7C 9C 
   309)      6979.0  Rx     0001FAB2  7  01 00 00 0F 03 B2 FA 
   310)      6979.0  Rx     0011FAB2  5  01 00 00 B2 FA 
   311)      6983.9  Rx     0001F508  7  01 00 00 0F 03 08 F5 
   312)      6984.1  Rx     0011F508  5  01 00 00 08 F5 
   313)      6988.9  Rx     0001905C  7  01 00 00 0F 03 5C 90 
   314)      6989.1  Rx     0011905C  5  01 00 00 5C 90 
   315)      6993.9  Rx     00018A48  7  01 00 00 0F 03 48 8A 
   316)      6994.1  Rx     00118A48  5  01 00 00 48 8A 
   317)      6998.9  Rx     00019A11  7  01 00 00 0F 03 11 9A 
   318)      6999.0  Rx     00119A11  5  01 00 00 11 9A 
   319)      7004.0  Rx     00017E99  7  01 00 00 0F 03 99 7E 
   320)      7004.0  Rx     00117E99  5  01 00 00 99 7E 
   321)      7008.9  Rx     0001BB39  7  01 00 00 0F 03 39 BB 
   322)      7009.0  Rx     0011BB39  5  01 00 00 39 BB 
   323)      7013.9  Rx     00013562  7  01 00 00 0F 03 62 35 
   324)      7014.1  Rx     00113562  5  01 00 00 62 35 
   325)      7018.9  Rx     00018DE0  7  01 00 00 0F 03 E0 8D 
   326)      7019.1  Rx     00118DE0  5  01 00 00 E0 8D 
   327)      7023.9  Rx     0001D75E  7  01 00 00 0F 03 5E D7 
   328)      7024.1  Rx     0011D75E  5  01 00 00 5E D7 
   329)      7028.9  Rx     000156A5  7  01 00 00 0F 03 A5 56 
   330)      7029.0  Rx     001156A5  5  01 00 00 A5 56 
   331)      7033.9  Rx     0001DF98  7  01 00 00 0F 03 98 DF 
   332)      7034.0  Rx     0011DF98  5  01 00 00 98 DF 
   333)      7038.9  Rx     00019C57  7  01 00 00 0F 03 57 9C 
   334)      7039.0  Rx     00119C57  5  01 00 00 57 9C 
   335)      7043.9  Rx     0001AF97  7  01 00 00 0F 03 97 AF 
   336)      7044.1  Rx     0011AF97  5  01 00 00 97 AF 
   337)      7048.9  Rx     00013D80  7  01 00 00 0F 03 80 3D 
   338)      7049.1  Rx     00113D80  5  01 00 00 80 3D 
   339)      7053.9  Rx     00014911  7  01 00 00 0F 03 11 49 
   340)      7054.0  Rx     00114911  5  01 00 00 11 49 
   341)      7058.9  Rx     000198B6  7  01 00 00 0F 03 B6 98 
   342)      7059.0  Rx     001198B6  5  01 00 00 B6 98 
   343)      7063.9  Rx     0001591D  7  01 00 00 0F 03 1D 59 
   344)      7064.0  Rx     0011591D  5  01 00 00 1D 59 
   345)      7068.9  Rx     00017D5E  7  01 00 00 0F 03 5E 7D 
   346)      7069.1  Rx     00117D5E  5  01 00 00 5E 7D 
   347)      7073.9  Rx     0001B8BC  7  01 00 00 0F 03 BC B8 
   348)      7074.1  Rx     0011B8BC  5  01 00 00 BC B8 
   349)      7078.9  Rx     0001854E  7  01 00 00 0F 03 4E 85 
   350)      7079.0  Rx     0011854E  5  01 00 00 4E 85 
   351)      7083.9  Rx     00015835  7  01 00 00 0F 03 35 58 
   352)      7084.0  Rx     00115835  5  01 00 00 35 58 
   353)      7088.9  Rx     0001346E  7  01 00 00 0F 03 6E 34 
   354)      7089.0  Rx     0011346E  5  01 00 00 6E 34 
   355)      7093.9  Rx     0001168C  7  01 00 00 0F 03 8C 16 
   356)      7094.0  Rx     0011168C  5  01 00 00 8C 16 
   357)      7098.9  Rx     00010A43  7  01 00 00 0F 03 43 0A 
   358)      7099.0  Rx     00110A43  5  01 00 00 43 0A 
   359)      7103.9  Rx     0001F829  7  01 00 00 0F 03 29 F8 
   360)      7104.0  Rx     0011F829  5  01 00 00 29 F8 
   361)      7108.9  Rx     00016618  7  01 00 00 0F 03 18 66 
   362)      7109.0  Rx     00116618  5  01 00 00 18 66 
   363)      7113.9  Rx     0001EB65  7  01 00 00 0F 03 65 EB 
   364)      7114.0  Rx     0011EB65  5  01 00 00 65 EB 
   365)      7118.9  Rx     0001B50F  7  01 00 00 0F 03 0F B5 
   366)      7119.0  Rx     0011B50F  5  01 00 00 0F B5 
   367)      7123.9  Rx     0001D397  7  01 00 00 0F 03 97 D3 
   368)      7124.0  Rx     0011D397  5  01 00 00 97 D3 
   369)      7128.9  Rx     0001BE67  7  01 00 00 0F 03 67 BE 
   370)      7129.1  Rx     0011BE67  5  01 00 00 67 BE 
   371)      7133.9  Rx     00017ED4  7  01 00 00 0F 03 D4 7E 
   372)      7134.0  Rx     00117ED4  5  01 00 00 D4 7E 
   373)      7138.9  Rx     000148C5  7  01 00 00 0F 03 C5 48 
   374)      7139.0  Rx     001148C5  5  01 00 00 C5 48 
   375)      7143.9  Rx     00015C86  7  01 00 00 0F 03 86 5C 
   376)      7144.0  Rx     00115C86  5  01 00 00 86 5C 
   377)      7148.9  Rx     0001602C  7  01 00 00 0F 03 2C 60 
   378)      7149.0  Rx     0011602C  5  01 00 00 2C 60 
   379)      7153.9  Rx     0001EE81  7  01 00 00 0F 03 81 EE 
   380)      7154.1  Rx     0011EE81  5  01 00 00 81 EE 
   381)      7158.9  Rx     00010F1A  7  01 00 00 0F 03 1A 0F 
   382)      7159.0  Rx     00110F1A  5  01 00 00 1A 0F 
   383)      7163.9  Rx     00018C3D  7  01 00 00 0F 03 3D 8C 
   384)      7164.0  Rx     00118C3D  5  01 00 00 3D 8C 
   385)      7168.9  Rx     0001D5DE  7  01 00 00 0F 03 DE D5 
   386)      7169.0  Rx     0011D5DE  5  01 00 00 DE D5 
   387)      7173.9  Rx     00012365  7  01 00 00 0F 03 65 23 
   388)      7174.0  Rx     00112365  5  01 00 00 65 23 
   389)      7178.9  Rx     00012623  7  01 00 00 0F 03 23 26 
   390)      7179.0  Rx     00112623  5  01 00 00 23 26 
   391)      7183.9  Rx     000156D3  7  01 00 00 0F 03 D3 56 
   392)      7184.0  Rx     001156D3  5  01 00 00 D3 56 
   393)      7188.9  Rx     0001AD43  7  01 00 00 0F 03 43 AD 
   394)      7189.0  Rx     0011AD43  5  01 00 00 43 AD 
   395)      7193.9  Rx     0001F8BA  7  01 00 00 0F 03 BA F8 
   396)      7194.0  Rx     0011F8BA  5  01 00 00 BA F8 
   397)      7198.9  Rx     0001D6DE  7  01 00 00 0F 03 DE D6 
   398)      7199.0  Rx     0011D6DE  5  01 00 00 DE D6 
   399)      7203.9  Rx     00013E84  7  01 00 00 0F 03 84 3E 
   400)      7204.0  Rx     00113E84  5  01 00 00 84 3E 
   401)      7208.9  Rx     000175D0  7  01 00 00 0F 03 D0 75 
   402)      7209.0  Rx     001175D0  5  01 00 00 D0 75 
   403)      7213.9  Rx     000144B4  7  01 00 00 0F 03 B4 44 
   404)      7214.0  Rx     001144B4  5  01 00 00 B4 44 
   405)      7218.9  Rx     0001E072  7  01 00 00 0F 03 72 E0 
   406)      7219.0  Rx     0011E072  5  01 00 00 72 E0 
   407)      7223.9  Rx     0001EAC9  7  01 00 00 0F 03 C9 EA 
   408)      7224.0  Rx     0011EAC9  5  01 00 00 C9 EA 
   409)      7228.9  Rx     000175CF  7  01 00 00 0F 03 CF 75 
   410)      7229.0  Rx     001175CF  5  01 00 00 CF 75 
   411)      7233.9  Rx     0001EEF4  7  01 00 00 0F 03 F4 EE 
   412)      7234.0  Rx     0011EEF4  5  01 00 00 F4 EE 
   413)      7238.9  Rx     0001C835  7  01 00 00 0F 03 35 C8 
   414)      7239.0  Rx     0011C835  5  01 00 00 35 C8 
   415)      7243.9  Rx     0001BB26  7  01 00 00 0F 03 26 BB 
   416)      7244.0  Rx     0011BB26  5  01 00 00 26 BB 
   417)      7248.9  Rx     00018644  7  01 00 00 0F 03 44 86 
   418)      7249.0  Rx     00118644  5  01 00 00 44 86 
   419)      7253.9  Rx     0001E4B8  7  01 00 00 0F 03 B8 E4 
   420)      7254.0  Rx     0011E4B8  5  01 00 00 B8 E4 
   421)      7258.9  Rx     00013270  7  01 00 00 0F 03 70 32 
   422)      7259.0  Rx     00113270  5  01 00 00 70 32 
   423)      7263.9  Rx     00014DC0  7  01 00 00 0F 03 C0 4D 
   424)      7264.0  Rx     00114DC0  5  01 00 00 C0 4D 
   425)      7268.9  Rx     0001DD8F  7  01 00 00 0F 03 8F DD 
   426)      7269.0  Rx     0011DD8F  5  01 00 00 8F DD 
   427)      7273.9  Rx     000156D2  7  01 00 00 0F 03 D2 56 
   428)      7274.0  Rx     001156D2  5  01 00 00 D2 56 
   429)      7278.9  Rx     000117E5  7  01 00 00 0F 03 E5 17 
   430)      7279.0  Rx     001117E5  5  01 00 00 E5 17 
   431)      7283.9  Rx     000111B5  7  01 00 00 0F 03 B5 11 
   432)      7284.0  Rx     001111B5  5  01 00 00 B5 11 
   433)      7288.9  Rx     0001DCD1  7  01 00 00 0F 03 D1 DC 
   434)      7289.0  Rx     0011DCD1  5  01 00 00 D1 DC 
   435)      7293.9  Rx     0001A55E  7  01 00 00 0F 03 5E A5 
   436)      7294.0  Rx     0011A55E  5  01 00 00 5E A5 
   437)      7298.9  Rx     0001340C  7  01 00 00 0F 03 0C 34 
   438)      7299.0  Rx     0011340C  5  01 00 00 0C 34 
   439)      7303.9  Rx     0001E12B  7  01 00 00 0F 03 2B E1 
   440)      7304.0  Rx     0011E12B  5  01 00 00 2B E1 
   441)      7308.9  Rx     0001EC0F  7  01 00 00 0F 03 0F EC 
   442)      7309.0  Rx     0011EC0F  5  01 00 00 0F EC 
   443)      7313.9  Rx     00017931  7  01 00 00 0F 03 31 79 
   444)      7314.0  Rx     00117931  5  01 00 00 31 79 
   445)      7318.9  Rx     00015020  7  01 00 00 0F 03 20 50 
   446)      7319.0  Rx     00115020  5  01 00 00 20 50 
   447)      7323.9  Rx     00018324  7  01 00 00 0F 03 24 83 
   448)      7324.0  Rx     00118324  5  01 00 00 24 83 
   449)      7328.9  Rx     00014118  7  01 00 00 0F 03 18 41 
   450)      7329.0  Rx     00114118  5  01 00 00 18 41 
   451)      7333.9  Rx     0001DF13  7  01 00 00 0F 03 13 DF 
   452)      7334.0  Rx     0011DF13  5  01 00 00 13 DF 
   453)      7338.9  Rx     000182DC  7  01 00 00 0F 03 DC 82 
   454)      7339.0  Rx     001182DC  5  01 00 00 DC 82 
   455)      7343.9  Rx     00013D17  7  01 00 00 0F 03 17 3D 
   456)      7344.0  Rx     00113D17  5  01 00 00 17 3D 
   457)      7348.9  Rx     0001A926  7  01 00 00 0F 03 26 A9 
   458)      7349.0  Rx     0011A926  5  01 00 00 26 A9 
   459)      7353.9  Rx     000144AC  7  01 00 00 0F 03 AC 44 
   460)      7354.0  Rx     001144AC  5  01 00 00 AC 44 
   461)      7358.9  Rx     00018504  7  01 00 00 0F 03 04 85 
   462)      7359.0  Rx     00118504  5  01 00 00 04 85 
   463)      7363.9  Rx     0001743E  7  01 00 00 0F 03 3E 74 
   464)      7364.0  Rx     0011743E  5  01 00 00 3E 74 
   465)      7368.9  Rx     00016945  7  01 00 00 0F 03 45 69 
   466)      7369.0  Rx     00116945  5  01 00 00 45 69 
   467)      7373.9  Rx     00019F3E  7  01 00 00 0F 03 3E 9F 
   468)      7374.0  Rx     00119F3E  5  01 00 00 3E 9F 
   469)      7378.9  Rx     000116A5  7  01 00 00 0F 03 A5 16 
   470)      7379.0  Rx     001116A5  5  01 00 00 A5 16 
   471)      7383.9  Rx     00012AB0  7  01 00 00 0F 03 B0 2A 
   472)      7384.0  Rx     00112AB0  5  01 00 00 B0 2A 
   473)      7388.9  Rx     0001FD76  7  01 00 00 0F 03 76 FD 
   474)      7389.0  Rx     0011FD76  5  01 00 00 76 FD 
   475)      7393.9  Rx     00015816  7  01 00 00 0F 03 16 58 
   476)      7394.0  Rx     00115816  5  01 00 00 16 58 
   477)      7398.9  Rx     0001311C  7  01 00 00 0F 03 1C 31 
   478)      7399.0  Rx     0011311C  5  01 00 00 1C 31 
   479)      7403.9  Rx     00018C2D  7  01 00 00 0F 03 2D 8C 
   480)      7404.0  Rx     00118C2D  5  01 00 00 2D 8C 
   481)      7408.9  Rx     0001FA92  7  01 00 00 0F 03 92 FA 
   482)      7409.0  Rx     0011FA92  5  01 00 00 92 FA 
   483)      7413.9  Rx     000192C3  7  01 00 00 0F 03 C3 92 
   484)      7414.0  Rx     001192C3  5  01 00 00 C3 92 
   485)      7418.9  Rx     000169D8  7  01 00 00 0F 03 D8 69 
   486)      7419.0  Rx     001169D8  5  01 00 00 D8 69 
   487)      7423.9  Rx     000196BB  7  01 00 00 0F 03 BB 96 
   488)      7424.0  Rx     001196BB  5  01 00 00 BB 96 
   489)      7428.9  Rx     0001CAF0  7  01 00 00 0F 03 F0 CA 
   490)      7429.0  Rx     0011CAF0  5  01 00 00 F0 CA 
   491)      7433.9  Rx     00010903  7  01 00 00 0F 03 03 09 
   492)      7434.0  Rx     00110903  5  01 00 00 03 09 
   493)      7438.9  Rx     00013DDE  7  01 00 00 0F 03 DE 3D 
   494)      7439.0  Rx     00113DDE  5  01 00 00 DE 3D 
   495)      7443.9  Rx     00018EF5  7  01 00 00 0F 03 F5 8E 
   496)      7444.0  Rx     00118EF5  5  01 00 00 F5 8E 
   497)      7448.9  Rx     000189C5  7  01 00 00 0F 03 C5 89 
   498)      7449.0  Rx     001189C5  5  01 00 00 C5 89 
   499)      7453.9  Rx     00012C81  7  01 00 00 0F 03 81 2C 
   500)      7454.0  Rx     00112C81  5  01 00 00 81 2C 
   501)      7458.9  Rx     00015A0F  7  01 00 00 0F 03 0F 5A 
   502)      7459.0  Rx     00115A0F  5  01 00 00 0F 5A 
   503)      7463.9  Rx     0001A41D  7  01 00 00 0F 03 1D A4 
   504)      7464.1  Rx     0011A41D  5  01 00 00 1D A4 
   505)      7468.9  Rx     0001D94D  7  01 00 00 0F 03 4D D9 
   506)      7469.0  Rx     0011D94D  5  01 00 00 4D D9 
   507)      7473.9  Rx     00014E40  7  01 00 00 0F 03 40 4E 
   508)      7474.0  Rx     00114E40  5  01 00 00 40 4E 
   509)      7478.9  Rx     0001002B  7  01 00 00 0F 03 2B 00 
   510)      7479.0  Rx     0011002B  5  01 00 00 2B 00 
   511)      7483.9  Rx     00017BF6  7  01 00 00 0F 03 F6 7B 
   512)      7484.0  Rx     00117BF6  5  01 00 00 F6 7B 
   513)      7488.9  Rx     0001A3AD  7  01 00 00 0F 03 AD A3 
   514)      7489.0  Rx     0011A3AD  5  01 00 00 AD A3 
   515)      7493.9  Rx     000187D4  7  01 00 00 0F 03 D4 87 
   516)      7494.0  Rx     001187D4  5  01 00 00 D4 87 
   517)      7498.9  Rx     00013C94  7  01 00 00 0F 03 94 3C 
   518)      7499.0  Rx     00113C94  5  01 00 00 94 3C 
   519)      7503.9  Rx     0001AE53  7  01 00 00 0F 03 53 AE 
   520)      7504.0  Rx     0011AE53  5  01 00 00 53 AE 
   521)      7508.9  Rx     0001EE95  7  01 00 00 0F 03 95 EE 
   522)      7509.0  Rx     0011EE95  5  01 00 00 95 EE 
   523)      7513.9  Rx     0001E256  7  01 00 00 0F 03 56 E2 
   524)      7514.0  Rx     0011E256  5  01 00 00 56 E2 
   525)      7518.9  Rx     00014CD2  7  01 00 00 0F 03 D2 4C 
   526)      7519.0  Rx     00114CD2  5  01 00 00 D2 4C 
   527)      7523.9  Rx     00017C6D  7  01 00 00 0F 03 6D 7C 
   528)      7524.0  Rx     00117C6D  5  01 00 00 6D 7C 
   529)      7528.9  Rx     0001B5A8  7  01 00 00 0F 03 A8 B5 
   530)      7529.0  Rx     0011B5A8  5  01 00 00 A8 B5 
   531)      7533.9  Rx     00016714  7  01 00 00 0F 03 14 67 
   532)      7534.0  Rx     00116714  5  01 00 00 14 67 
   533)      7538.9  Rx     0001D6DA  7  01 00 00 0F 03 DA D6 
   534)      7539.0  Rx     0011D6DA  5  01 00 00 DA D6 
   535)      7543.9  Rx     00013BF8  7  01 00 00 0F 03 F8 3B 
   536)      7544.1  Rx     00113BF8  5  01 00 00 F8 3B 
   537)      7548.9  Rx     0001B79C  7  01 00 00 0F 03 9C B7 
   538)      7549.0  Rx     0011B79C  5  01 00 00 9C B7 
   539)      7553.9  Rx     00011E0B  7  01 00 00 0F 03 0B 1E 
   540)      7554.0  Rx     00111E0B  5  01 00 00 0B 1E 
   541)      7558.9  Rx     0001550D  7  01 00 00 0F 03 0D 55 
   542)      7559.0  Rx     0011550D  5  01 00 00 0D 55 
   543)      7563.9  Rx     0001F1F3  7  01 00 00 0F 03 F3 F1 
   544)      7564.0  Rx     0011F1F3  5  01 00 00 F3 F1 
   545)      7568.9  Rx     00012E20  7  01 00 00 0F 03 20 2E 
   546)      7569.0  Rx     00112E20  5  01 00 00 20 2E 
   547)      7573.9  Rx     00013E15  7  01 00 00 0F 03 15 3E 
   548)      7574.0  Rx     00113E15  5  01 00 00 15 3E 
   549)      7578.9  Rx     00015701  7  01 00 00 0F 03 01 57 
   550)      7579.0  Rx     00115701  5  01 00 00 01 57 
   551)      7583.9  Rx     0001F542  7  01 00 00 0F 03 42 F5 
   552)      7584.0  Rx     0011F542  5  01 00 00 42 F5 
   553)      7588.9  Rx     0001C881  7  01 00 00 0F 03 81 C8 
   554)      7589.0  Rx     0011C881  5  01 00 00 81 C8 
   555)      7593.9  Rx     00011AE1  7  01 00 00 0F 03 E1 1A 
   556)      7594.0  Rx     00111AE1  5  01 00 00 E1 1A 
   557)      7598.9  Rx     0001CB02  7  01 00 00 0F 03 02 CB 
   558)      7599.0  Rx     0011CB02  5  01 00 00 02 CB 
   559)      7603.9  Rx     000164FD  7  01 00 00 0F 03 FD 64 
   560)      7604.0  Rx     001164FD  5  01 00 00 FD 64 
   561)      7608.9  Rx     0001610A  7  01 00 00 0F 03 0A 61 
   562)      7609.0  Rx     0011610A  5  01 00 00 0A 61 
   563)      7613.9  Rx     00013CA5  7  01 00 00 0F 03 A5 3C 
   564)      7614.0  Rx     00113CA5  5  01 00 00 A5 3C 
   565)      7618.9  Rx     00015C56  7  01 00 00 0F 03 56 5C 
   566)      7619.0  Rx     00115C56  5  01 00 00 56 5C 
   567)      7623.9  Rx     0001C685  7  01 00 00 0F 03 85 C6 
   568)      7624.0  Rx     0011C685  5  01 00 00 85 C6 
   569)      7628.9  Rx     0001C12D  7  01 00 00 0F 03 2D C1 
   570)      7629.0  Rx     0011C12D  5  01 00 00 2D C1 
   571)      7633.9  Rx     00018D95  7  01 00 00 0F 03 95 8D 
   572)      7634.0  Rx     00118D95  5  01 00 00 95 8D 
   573)      7638.9  Rx     0001C243  7  01 00 00 0F 03 43 C2 
   574)      7639.0  Rx     0011C243  5  01 00 00 43 C2 
   575)      7643.9  Rx     0001975B  7  01 00 00 0F 03 5B 97 
   576)      7644.0  Rx     0011975B  5  01 00 00 5B 97 
   577)      7648.9  Rx     00019066  7  01 00 00 0F 03 66 90 
   578)      7649.0  Rx     00119066  5  01 00 00 66 90 
   579)      7653.9  Rx     00013D11  7  01 00 00 0F 03 11 3D 
   580)      7654.0  Rx     00113D11  5  01 00 00 11 3D 
   581)      7658.9  Rx     000103D1  7  01 00 00 0F 03 D1 03 
   582)      7659.0  Rx     001103D1  5  01 00 00 D1 03 
   583)      7663.9  Rx     0001C6AF  7  01 00 00 0F 03 AF C6 
   584)      7664.0  Rx     0011C6AF  5  01 00 00 AF C6 
   585)      7668.9  Rx     000115DA  7  01 00 00 0F 03 DA 15 
   586)      7669.0  Rx     001115DA  5  01 00 00 DA 15 
   587)      7673.9  Rx     0001ECA1  7  01 00 00 0F 03 A1 EC 
   588)      7674.0  Rx     0011ECA1  5  01 00 00 A1 EC 
   589)      7678.9  Rx     0001C84F  7  01 00 00 0F 03 4F C8 
   590)      7679.0  Rx     0011C84F  5  01 00 00 4F C8 
   591)      7683.9  Rx     00016AB9  7  01 00 00 0F 03 B9 6A 
   592)      7684.0  Rx     00116AB9  5  01 00 00 B9 6A 
   593)      7688.9  Rx     0001FCC1  7  01 00 00 0F 03 C1 FC 
   594)      7689.0  Rx     0011FCC1  5  01 00 00 C1 FC 
   595)      7693.9  Rx     0001C2A0  7  01 00 00 0F 03 A0 C2 
   596)      7694.0  Rx     0011C2A0  5  01 00 00 A0 C2 
   597)      7698.9  Rx     0001C496  7  01 00 00 0F 03 96 C4 
   598)      7699.0  Rx     0011C496  5  01 00 00 96 C4 
   599)      7703.9  Rx     000135CA  7  01 00 00 0F 03 CA 35 
   600)      7704.0  Rx     001135CA  5  01 00 00 CA 35 
   601)      7708.9  Rx     00013789  7  01 00 00 0F 03 89 37 
   602)      7709.0  Rx     00113789  5  01 00 00 89 37 
   603)      7713.9  Rx     00015EBA  7  01 00 00 0F 03 BA 5E 
   604)      7714.0  Rx     00115EBA  5  01 00 00 BA 5E 
   605)      7718.9  Rx     0001DD0F  7  01 00 00 0F 03 0F DD 
   606)      7719.0  Rx     0011DD0F  5  01 00 00 0F DD 
   607)      7723.9  Rx     00010B21  7  01 00 00 0F 03 21 0B 
   608)      7724.0  Rx     00110B21  5  01 00 00 21 0B 
   609)      7728.9  Rx     0001C5B6  7  01 00 00 0F 03 B6 C5 
   610)      7729.0  Rx     0011C5B6  5  01 00 00 B6 C5 
   611)      7733.9  Rx     00010417  7  01 00 00 0F 03 17 04 
   612)      7734.0  Rx     00110417  5  01 00 00 17 04 
   613)      7738.9  Rx     00019475  7  01 00 00 0F 03 75 94 
   614)      7739.0  Rx     00119475  5  01 00 00 75 94 
   615)      7743.9  Rx     00018B7D  7  01 00 00 0F 03 7D 8B 
   616)      7744.0  Rx     00118B7D  5  01 00 00 7D 8B 
   617)      7748.9  Rx     0001808A  7  01 00 00 0F 03 8A 80 
   618)      7749.0  Rx     0011808A  5  01 00 00 8A 80 
   619)      7753.9  Rx     0001A953  7  01 00 00 0F 03 53 A9 
   620)      7754.0  Rx     0011A953  5  01 00 00 53 A9 
   621)      7758.9  Rx     00016359  7  01 00 00 0F 03 59 63 
   622)      7759.0  Rx     00116359  5  01 00 00 59 63 
   623)      7763.9  Rx     0001B576  7  01 00 00 0F 03 76 B5 
   624)      7764.0  Rx     0011B576  5  01 00 00 76 B5 
   625)      7768.9  Rx     00010269  7  01 00 00 0F 03 69 02 
   626)      7769.0  Rx     00110269  5  01 00 00 69 02 
   627)      7773.9  Rx     0001F233  7  01 00 00 0F 03 33 F2 
   628)      7774.0  Rx     0011F233  5  01 00 00 33 F2 
   629)      7778.9  Rx     0001DC6A  7  01 00 00 0F 03 6A DC 
   630)      7779.0  Rx     0011DC6A  5  01 00 00 6A DC 
   631)      7783.9  Rx     0001698C  7  01 00 00 0F 03 8C 69 
   632)      7784.0  Rx     0011698C  5  01 00 00 8C 69 
   633)      7788.9  Rx     000148F8  7  01 00 00 0F 03 F8 48 
   634)      7789.0  Rx     001148F8  5  01 00 00 F8 48 
   635)      7793.9  Rx     00015718  7  01 00 00 0F 03 18 57 
   636)      7794.0  Rx     00115718  5  01 00 00 18 57 
   637)      7798.9  Rx     00013571  7  01 00 00 0F 03 71 35 
   638)      7799.0  Rx     00113571  5  01 00 00 71 35 
   639)      7803.9  Rx     0001F1FB  7  01 00 00 0F 03 FB F1 
   640)      7804.0  Rx     0011F1FB  5  01 00 00 FB F1 
   641)      7808.9  Rx     0001B60A  7  01 00 00 0F 03 0A B6 
   642)      7809.0  Rx     0011B60A  5  01 00 00 0A B6 
   643)      7813.9  Rx     00011E32  7  01 00 00 0F 03 32 1E 
   644)      7814.0  Rx     00111E32  5  01 00 00 32 1E 
   645)      7818.9  Rx     0001691D  7  01 00 00 0F 03 1D 69 
   646)      7819.0  Rx     0011691D  5  01 00 00 1D 69 
   647)      7823.9  Rx     0001A253  7  01 00 00 0F 03 53 A2 
   648)      7824.0  Rx     0011A253  5  01 00 00 53 A2 
   649)      7828.9  Rx     0001C73B  7  01 00 00 0F 03 3B C7 
   650)      7829.0  Rx     0011C73B  5  01 00 00 3B C7 
   651)      7833.9  Rx     00018E74  7  01 00 00 0F 03 74 8E 
   652)      7834.0  Rx     00118E74  5  01 00 00 74 8E 
   653)      7838.9  Rx     0001A183  7  01 00 00 0F 03 83 A1 
   654)      7839.0  Rx     0011A183  5  01 00 00 83 A1 
   655)      7843.9  Rx     000166CA  7  01 00 00 0F 03 CA 66 
   656)      7844.0  Rx     001166CA  5  01 00 00 CA 66 
   657)      7848.9  Rx     0001DC58  7  01 00 00 0F 03 58 DC 
   658)      7849.0  Rx     0011DC58  5  01 00 00 58 DC 
   659)      7853.9  Rx     0001D44A  7  01 00 00 0F 03 4A D4 
   660)      7854.0  Rx     0011D44A  5  01 00 00 4A D4 
   661)      7858.9  Rx     00017F62  7  01 00 00 0F 03 62 7F 
   662)      7859.0  Rx     00117F62  5  01 00 00 62 7F 
   663)      7863.9  Rx     0001434E  7  01 00 00 0F 03 4E 43 
   664)      7864.0  Rx     0011434E  5  01 00 00 4E 43 
   665)      7868.9  Rx     00012884  7  01 00 00 0F 03 84 28 
   666)      7869.0  Rx     00112884  5  01 00 00 84 28 
   667)      7873.9  Rx     0001340C  7  01 00 00 0F 03 0C 34 
   668)      7874.0  Rx     0011340C  5  01 00 00 0C 34 
   669)      7878.9  Rx     0001622A  7  01 00 00 0F 03 2A 62 
   670)      7879.0  Rx     0011622A  5  01 00 00 2A 62 
   671)      7883.9  Rx     0001F25D  7  01 00 00 0F 03 5D F2 
   672)      7884.0  Rx     0011F25D  5  01 00 00 5D F2 
   673)      7888.9  Rx     00015E1B  7  01 00 00 0F 03 1B 5E 
   674)      7889.0  Rx     00115E1B  5  01 00 00 1B 5E 
   675)      7893.9  Rx     00010A30  7  01 00 00 0F 03 30 0A 
   676)      7894.0  Rx     00110A30  5  01 00 00 30 0A 
   677)      7898.9  Rx     0001C8BB  7  01 00 00 0F 03 BB C8 
   678)      7899.0  Rx     0011C8BB  5  01 00 00 BB C8 
   679)      7903.9  Rx     00017794  7  01 00 00 0F 03 94 77 
   680)      7904.0  Rx     00117794  5  01 00 00 94 77 
   681)      7908.9  Rx     00019155  7  01 00 00 0F 03 55 91 
   682)      7909.0  Rx     00119155  5  01 00 00 55 91 
   683)      7913.9  Rx     0001DD41  7  01 00 00 0F 03 41 DD 
   684)      7914.0  Rx     0011DD41  5  01 00 00 41 DD 
   685)      7918.9  Rx     00019EEC  7  01 00 00 0F 03 EC 9E 
   686)      7919.0  Rx     00119EEC  5  01 00 00 EC 9E 
   687)      7923.9  Rx     0001A209  7  01 00 00 0F 03 09 A2 
   688)      7924.0  Rx     0011A209  5  01 00 00 09 A2 
   689)      7928.9  Rx     000109A9  7  01 00 00 0F 03 A9 09 
   690)      7929.0  Rx     001109A9  5  01 00 00 A9 09 
   691)      7933.9  Rx     00016992  7  01 00 00 0F 03 92 69 
   692)      7934.0  Rx     00116992  5  01 00 00 92 69 
   693)      7938.9  Rx     000177D1  7  01 00 00 0F 03 D1 77 
   694)      7939.0  Rx     001177D1  5  01 00 00 D1 77 
   695)      7943.9  Rx     0001A658  7  01 00 00 0F 03 58 A6 
   696)      7944.0  Rx     0011A658  5  01 00 00 58 A6 
   697)      7948.9  Rx     00010DF6  7  01 00 00 0F 03 F6 0D 
   698)      7949.0  Rx     00110DF6  5  01 00 00 F6 0D 
   699)      7953.9  Rx     0001C6B2  7  01 00 00 0F 03 B2 C6 
   700)      7954.0  Rx     0011C6B2  5  01 00 00 B2 C6 
   701)      7958.9  Rx     0001F4BB  7  01 00 00 0F 03 BB F4 
   702)      7959.0  Rx     0011F4BB  5  01 00 00 BB F4 
   703)      7963.9  Rx     0001B07D  7  01 00 00 0F 03 7D B0 
   704)      7964.0  Rx     0011B07D  5  01 00 00 7D B0 
   705)      7968.9  Rx     0001AB62  7  01 00 00 0F 03 62 AB 
   706)      7969.0  Rx     0011AB62  5  01 00 00 62 AB 
   707)      7973.9  Rx     00014E9E  7  01 00 00 0F 03 9E 4E 
   708)      7974.0  Rx     00114E9E  5  01 00 00 9E 4E 
   709)      7978.9  Rx     000110FF  7  01 00 00 0F 03 FF 10 
   710)      7979.0  Rx     001110FF  5  01 00 00 FF 10 
   711)      7983.9  Rx     00016967  7  01 00 00 0F 03 67 69 
   712)      7984.0  Rx     00116967  5  01 00 00 67 69 
   713)      7988.9  Rx     00019B00  7  01 00 00 0F 03 00 9B 
   714)      7989.0  Rx     00119B00  5  01 00 00 00 9B 
   715)      7993.9  Rx     0001DEB7  7  01 00 00 0F 03 B7 DE 
   716)      7994.0  Rx     0011DEB7  5  01 00 00 B7 DE 
   717)      7998.9  Rx     00016E76  7  01 00 00 0F 03 76 6E 
   718)      7999.0  Rx     00116E76  5  01 00 00 76 6E 
   719)      8003.9  Rx     00018848  7  01 00 00 0F 03 48 88 
   720)      8004.0  Rx     00118848  5  01 00 00 48 88 
   721)      8008.9  Rx     0001FA34  7  01 00 00 0F 03 34 FA 
   722)      8009.0  Rx     0011FA34  5  01 00 00 34 FA 
   723)      8013.8  Rx     0001BA79  7  01 00 00 0F 03 79 BA 
   724)      8014.0  Rx     0011BA79  5  01 00 00 79 BA 
   725)      8018.9  Rx     0001A2C7  7  01 00 00 0F 03 C7 A2 
   726)      8019.0  Rx     0011A2C7  5  01 00 00 C7 A2 
   727)      8023.9  Rx     00017FAD  7  01 00 00 0F 03 AD 7F 
   728)      8024.0  Rx     00117FAD  5  01 00 00 AD 7F 
   729)      8028.9  Rx     000125D7  7  01 00 00 0F 03 D7 25 
   730)      8029.0  Rx     001125D7  5  01 00 00 D7 25 
   731)      8033.9  Rx     0001C7E8  7  01 00 00 0F 03 E8 C7 
   732)      8034.0  Rx     0011C7E8  5  01 00 00 E8 C7 
   733)      8038.8  Rx     00018566  7  01 00 00 0F 03 66 85 
   734)      8039.0  Rx     00118566  5  01 00 00 66 85 
   735)      8043.9  Rx     0001CE50  7  01 00 00 0F 03 50 CE 
   736)      8044.0  Rx     0011CE50  5  01 00 00 50 CE 
   737)      8048.9  Rx     00019418  7  01 00 00 0F 03 18 94 
   738)      8049.0  Rx     00119418  5  01 00 00 18 94 
   739)      8053.9  Rx     00016DC8  7  01 00 00 0F 03 C8 6D 
   740)      8054.0  Rx     00116DC8  5  01 00 00 C8 6D 
   741)      8058.9  Rx     0001925B  7  01 00 00 0F 03 5B 92 
   742)      8059.0  Rx     0011925B  5  01 00 00 5B 92 
   743)      8063.9  Rx     0001DBAF  7  01 00 00 0F 03 AF DB 
   744)      8064.0  Rx     0011DBAF  5  01 00 00 AF DB 
   745)      8068.8  Rx     00019528  7  01 00 00 0F 03 28 95 
   746)      8069.0  Rx     00119528  5  01 00 00 28 95 
   747)      8073.9  Rx     0001CF94  7  01 00 00 0F 03 94 CF 
   748)      8074.0  Rx     0011CF94  5  01 00 00 94 CF 
   749)      8078.9  Rx     000125C2  7  01 00 00 0F 03 C2 25 
   750)      8079.0  Rx     001125C2  5  01 00 00 C2 25 
   751)      8083.9  Rx     0001485C  7  01 00 00 0F 03 5C 48 
   752)      8084.0  Rx     0011485C  5  01 00 00 5C 48 
   753)      8088.9  Rx     00011E93  7  01 00 00 0F 03 93 1E 
   754)      8089.0  Rx     00111E93  5  01 00 00 93 1E 
   755)      8093.8  Rx     0001CB2B  7  01 00 00 0F 03 2B CB 
   756)      8094.0  Rx     0011CB2B  5  01 00 00 2B CB 
   757)      8098.9  Rx     0001CC15  7  01 00 00 0F 03 15 CC 
   758)      8099.0  Rx     0011CC15  5  01 00 00 15 CC 
   759)      8103.9  Rx     0001A612  7  01 00 00 0F 03 12 A6 
   760)      8104.0  Rx     0011A612  5  01 00 00 12 A6 
   761)      8108.9  Rx     0001AD6F  7  01 00 00 0F 03 6F AD 
   762)      8109.0  Rx     0011AD6F  5  01 00 00 6F AD 
   763)      8113.9  Rx     0001FC4A  7  01 00 00 0F 03 4A FC 
   764)      8114.0  Rx     0011FC4A  5  01 00 00 4A FC 
   765)      8118.8  Rx     0001A72B  7  01 00 00 0F 03 2B A7 
   766)      8119.0  Rx     0011A72B  5  01 00 00 2B A7 
   767)      8123.8  Rx     0001F38B  7  01 00 00 0F 03 8B F3 
   768)      8124.0  Rx     0011F38B  5  01 00 00 8B F3 
   769)      8128.9  Rx     00011336  7  01 00 00 0F 03 36 13 
   770)      8129.0  Rx     00111336  5  01 00 00 36 13 
   771)      8133.9  Rx     0001E9BD  7  01 00 00 0F 03 BD E9 
   772)      8134.0  Rx     0011E9BD  5  01 00 00 BD E9 
   773)      8138.9  Rx     0001A3FF  7  01 00 00 0F 03 FF A3 
   774)      8139.0  Rx     0011A3FF  5  01 00 00 FF A3 
   775)      8143.8  Rx     00013013  7  01 00 00 0F 03 13 30 
   776)      8144.0  Rx     00113013  5  01 00 00 13 30 
   777)      8148.8  Rx     00013173  7  01 00 00 0F 03 73 31 
   778)      8149.0  Rx     00113173  5  01 00 00 73 31 
   779)      8153.8  Rx     0001F853  7  01 00 00 0F 03 53 F8 
   780)      8154.0  Rx     0011F853  5  01 00 00 53 F8 
   781)      8158.9  Rx     0001D531  7  01 00 00 0F 03 31 D5 
   782)      8159.0  Rx     0011D531  5  01 00 00 31 D5 
   783)      8163.9  Rx     0001FADA  7  01 00 00 0F 03 DA FA 
   784)      8164.0  Rx     0011FADA  5  01 00 00 DA FA 
   785)      8168.9  Rx     0001EC1E  7  01 00 00 0F 03 1E EC 
   786)      8169.0  Rx     0011EC1E  5  01 00 00 1E EC 
   787)      8173.8  Rx     00019795  7  01 00 00 0F 03 95 97 
   788)      8174.0  Rx     00119795  5  01 00 00 95 97 
   789)      8178.8  Rx     0001D24C  7  01 00 00 0F 03 4C D2 
   790)      8179.0  Rx     0011D24C  5  01 00 00 4C D2 
   791)      8183.9  Rx     0001060D  7  01 00 00 0F 03 0D 06 
   792)      8184.0  Rx     0011060D  5  01 00 00 0D 06 
   793)      8188.9  Rx     0001D6C7  7  01 00 00 0F 03 C7 D6 
   794)      8188.9  Rx     0011D6C7  5  01 00 00 C7 D6 
   795)      8193.9  Rx     00012C36  7  01 00 00 0F 03 36 2C 
   796)      8194.0  Rx     00112C36  5  01 00 00 36 2C 
   797)      8198.8  Rx     0001EBCC  7  01 00 00 0F 03 CC EB 
   798)      8199.0  Rx     0011EBCC  5  01 00 00 CC EB 
   799)      8203.8  Rx     0001BDA2  7  01 00 00 0F 03 A2 BD 
   800)      8204.0  Rx     0011BDA2  5  01 00 00 A2 BD 
   801)      8208.8  Rx     00011075  7  01 00 00 0F 03 75 10 
   802)      8209.0  Rx     00111075  5  01 00 00 75 10 
   803)      8213.9  Rx     00014848  7  01 00 00 0F 03 48 48 
   804)      8214.0  Rx     00114848  5  01 00 00 48 48 
   805)      8218.9  Rx     00018FDD  7  01 00 00 0F 03 DD 8F 
   806)      8218.9  Rx     00118FDD  5  01 00 00 DD 8F 
   807)      8223.8  Rx     0001D5F6  7  01 00 00 0F 03 F6 D5 
   808)      8224.0  Rx     0011D5F6  5  01 00 00 F6 D5 
   809)      8228.8  Rx     00012E4B  7  01 00 00 0F 03 4B 2E 
   810)      8229.0  Rx     00112E4B  5  01 00 00 4B 2E 
   811)      8233.8  Rx     0001A133  7  01 00 00 0F 03 33 A1 
   812)      8234.0  Rx     0011A133  5  01 00 00 33 A1 
   813)      8238.9  Rx     000193E3  7  01 00 00 0F 03 E3 93 
   814)      8239.0  Rx     001193E3  5  01 00 00 E3 93 
   815)      8243.9  Rx     0001CA18  7  01 00 00 0F 03 18 CA 
   816)      8243.9  Rx     0011CA18  5  01 00 00 18 CA 
   817)      8248.9  Rx     0001D8EF  7  01 00 00 0F 03 EF D8 
   818)      8249.0  Rx     0011D8EF  5  01 00 00 EF D8 
   819)      8253.8  Rx     00012B65  7  01 00 00 0F 03 65 2B 
   820)      8254.0  Rx     00112B65  5  01 00 00 65 2B 
   821)      8258.8  Rx     00017EBD  7  01 00 00 0F 03 BD 7E 
   822)      8259.0  Rx     00117EBD  5  01 00 00 BD 7E 
   823)      8263.8  Rx     000181E2  7  01 00 00 0F 03 E2 81 
   824)      8264.0  Rx     001181E2  5  01 00 00 E2 81 
   825)      8268.9  Rx     0001CCAA  7  01 00 00 0F 03 AA CC 
   826)      8268.9  Rx     0011CCAA  5  01 00 00 AA CC 
   827)      8273.9  Rx     00011FC9  7  01 00 00 0F 03 C9 1F 
   828)      8273.9  Rx     00111FC9  5  01 00 00 C9 1F 
   829)      8278.8  Rx     0001E7C8  7  01 00 00 0F 03 C8 E7 
   830)      8279.0  Rx     0011E7C8  5  01 00 00 C8 E7 
   831)      8283.8  Rx     0001DBCC  7  01 00 00 0F 03 CC DB 
   832)      8284.0  Rx     0011DBCC  5  01 00 00 CC DB 
   833)      8288.8  Rx     0001884E  7  01 00 00 0F 03 4E 88 
   834)      8289.0  Rx     0011884E  5  01 00 00 4E 88 
   835)      8293.9  Rx     000112F8  7  01 00 00 0F 03 F8 12 
   836)      8293.9  Rx     001112F8  5  01 00 00 F8 12 
   837)      8298.9  Rx     0001B2A5  7  01 00 00 0F 03 A5 B2 
   838)      8298.9  Rx     0011B2A5  5  01 00 00 A5 B2 
   839)      8303.8  Rx     0001267F  7  01 00 00 0F 03 7F 26 
   840)      8304.0  Rx     0011267F  5  01 00 00 7F 26 
   841)      8308.8  Rx     000132DA  7  01 00 00 0F 03 DA 32 
   842)      8309.0  Rx     001132DA  5  01 00 00 DA 32 
   843)      8313.8  Rx     00010A30  7  01 00 00 0F 03 30 0A 
   844)      8314.0  Rx     00110A30  5  01 00 00 30 0A 
   845)      8318.8  Rx     000173BA  7  01 00 00 0F 03 BA 73 
   846)      8319.0  Rx     001173BA  5  01 00 00 BA 73 
   847)      8323.9  Rx     0001D62A  7  01 00 00 0F 03 2A D6 
   848)      8323.9  Rx     0011D62A  5  01 00 00 2A D6 
   849)      8328.8  Rx     00015BDE  7  01 00 00 0F 03 DE 5B 
   850)      8328.9  Rx     00115BDE  5  01 00 00 DE 5B 
   851)      8333.8  Rx     00018607  7  01 00 00 0F 03 07 86 
   852)      8334.0  Rx     00118607  5  01 00 00 07 86 
   853)      8338.8  Rx     0001AD79  7  01 00 00 0F 03 79 AD 
   854)      8339.0  Rx     0011AD79  5  01 00 00 79 AD 
   855)      8343.8  Rx     0001FD97  7  01 00 00 0F 03 97 FD 
   856)      8344.0  Rx     0011FD97  5  01 00 00 97 FD 
   857)      8348.8  Rx     0001CE9F  7  01 00 00 0F 03 9F CE 
   858)      8348.9  Rx     0011CE9F  5  01 00 00 9F CE 
   859)      8353.9  Rx     00018EDF  7  01 00 00 0F 03 DF 8E 
   860)      8353.9  Rx     00118EDF  5  01 00 00 DF 8E 
   861)      8358.8  Rx     00012E62  7  01 00 00 0F 03 62 2E 
   862)      8358.9  Rx     00112E62  5  01 00 00 62 2E 
   863)      8363.8  Rx     0001E2FB  7  01 00 00 0F 03 FB E2 
   864)      8364.0  Rx     0011E2FB  5  01 00 00 FB E2 
   865)      8368.8  Rx     00016FF9  7  01 00 00 0F 03 F9 6F 
   866)      8369.0  Rx     00116FF9  5  01 00 00 F9 6F 
   867)      8373.8  Rx     0001C718  7  01 00 00 0F 03 18 C7 
   868)      8373.9  Rx     0011C718  5  01 00 00 18 C7 
   869)      8378.8  Rx     00015FC9  7  01 00 00 0F 03 C9 5F 
   870)      8378.9  Rx     00115FC9  5  01 00 00 C9 5F 
   871)      8383.8  Rx     00018491  7  01 00 00 0F 03 91 84 
   872)      8383.9  Rx     00118491  5  01 00 00 91 84 
   873)      8388.8  Rx     0001FB08  7  01 00 00 0F 03 08 FB 
   874)      8389.0  Rx     0011FB08  5  01 00 00 08 FB 
   875)      8393.8  Rx     00017B07  7  01 00 00 0F 03 07 7B 
   876)      8394.0  Rx     00117B07  5  01 00 00 07 7B 
   877)      8398.8  Rx     00018957  7  01 00 00 0F 03 57 89 
   878)      8398.9  Rx     00118957  5  01 00 00 57 89 
   879)      8403.8  Rx     000144E5  7  01 00 00 0F 03 E5 44 
   880)      8403.9  Rx     001144E5  5  01 00 00 E5 44 
   881)      8408.8  Rx     0001E085  7  01 00 00 0F 03 85 E0 
   882)      8408.9  Rx     0011E085  5  01 00 00 85 E0 
   883)      8413.8  Rx     0001B2A9  7  01 00 00 0F 03 A9 B2 
   884)      8413.9  Rx     0011B2A9  5  01 00 00 A9 B2 
   885)      8418.8  Rx     00012D51  7  01 00 00 0F 03 51 2D 
   886)      8419.0  Rx     00112D51  5  01 00 00 51 2D 
   887)      8423.8  Rx     00015EF0  7  01 00 00 0F 03 F0 5E 
   888)      8424.0  Rx     00115EF0  5  01 00 00 F0 5E 
   889)      8428.8  Rx     000108F0  7  01 00 00 0F 03 F0 08 
   890)      8428.9  Rx     001108F0  5  01 00 00 F0 08 
   891)      8433.8  Rx     00014516  7  01 00 00 0F 03 16 45 
   892)      8433.9  Rx     00114516  5  01 00 00 16 45 
   893)      8438.8  Rx     0001559B  7  01 00 00 0F 03 9B 55 
   894)      8438.9  Rx     0011559B  5  01 00 00 9B 55 
   895)      8443.8  Rx     000181E7  7  01 00 00 0F 03 E7 81 
   896)      8444.0  Rx     001181E7  5  01 00 00 E7 81 
   897)      8448.8  Rx     0001B571  7  01 00 00 0F 03 71 B5 
   898)      8449.0  Rx     0011B571  5  01 00 00 71 B5 
   899)      8453.8  Rx     0001E5B6  7  01 00 00 0F 03 B6 E5 
   900)      8453.9  Rx     0011E5B6  5  01 00 00 B6 E5 
   901)      8458.8  Rx     0001E97A  7  01 00 00 0F 03 7A E9 
   902)      8458.9  Rx     0011E97A  5  01 00 00 7A E9 
   903)      8463.8  Rx     00015CD2  7  01 00 00 0F 03 D2 5C 
   904)      8463.9  Rx     00115CD2  5  01 00 00 D2 5C 
   905)      8468.8  Rx     00013B7E  7  01 00 00 0F 03 7E 3B 
   906)      8468.9  Rx     00113B7E  5  01 00 00 7E 3B 
   907)      8473.8  Rx     00012F35  7  01 00 00 0F 03 35 2F 
   908)      8473.9  Rx     00112F35  5  01 00 00 35 2F 
   909)      8478.8  Rx     0001E41B  7  01 00 00 0F 03 1B E4 
   910)      8478.9  Rx     0011E41B  5  01 00 00 1B E4 
   911)      8483.8  Rx     00013DDE  7  01 00 00 0F 03 DE 3D 
   912)      8483.9  Rx     00113DDE  5  01 00 00 DE 3D 
   913)      8488.8  Rx     0001E33B  7  01 00 00 0F 03 3B E3 
   914)      8488.9  Rx     0011E33B  5  01 00 00 3B E3 
   915)      8493.8  Rx     0001AC37  7  01 00 00 0F 03 37 AC 
   916)      8493.9  Rx     0011AC37  5  01 00 00 37 AC 
   917)      8498.8  Rx     0001D7D6  7  01 00 00 0F 03 D6 D7 
   918)      8498.9  Rx     0011D7D6  5  01 00 00 D6 D7 
   919)      8503.8  Rx     00018573  7  01 00 00 0F 03 73 85 
   920)      8503.9  Rx     00118573  5  01 00 00 73 85 
   921)      8508.8  Rx     0001B4A5  7  01 00 00 0F 03 A5 B4 
   922)      8508.9  Rx     0011B4A5  5  01 00 00 A5 B4 
   923)      8513.7  Rx     000109CA  7  01 00 00 0F 03 CA 09 
   924)      8513.9  Rx     001109CA  5  01 00 00 CA 09 
   925)      8518.7  Rx     0001F232  7  01 00 00 0F 03 32 F2 
   926)      8518.9  Rx     0011F232  5  01 00 00 32 F2 
   927)      8523.8  Rx     00015503  7  01 00 00 0F 03 03 55 
   928)      8523.9  Rx     00115503  5  01 00 00 03 55 
   929)      8528.8  Rx     00014F6D  7  01 00 00 0F 03 6D 4F 
   930)      8528.8  Rx     00114F6D  5  01 00 00 6D 4F 
   931)      8533.8  Rx     0001FF9F  7  01 00 00 0F 03 9F FF 
   932)      8533.9  Rx     0011FF9F  5  01 00 00 9F FF 
   933)      8538.7  Rx     0001A0A8  7  01 00 00 0F 03 A8 A0 
   934)      8538.9  Rx     0011A0A8  5  01 00 00 A8 A0 
   935)      8543.7  Rx     00010DA8  7  01 00 00 0F 03 A8 0D 
   936)      8543.9  Rx     00110DA8  5  01 00 00 A8 0D 
   937)      8548.7  Rx     0001A1A5  7  01 00 00 0F 03 A5 A1 
   938)      8548.9  Rx     0011A1A5  5  01 00 00 A5 A1 
   939)      8553.8  Rx     00016DF7  7  01 00 00 0F 03 F7 6D 
   940)      8553.8  Rx     00116DF7  5  01 00 00 F7 6D 
   941)      8558.8  Rx     0001A627  7  01 00 00 0F 03 27 A6 
   942)      8558.8  Rx     0011A627  5  01 00 00 27 A6 
   943)      8563.7  Rx     0001DE6B  7  01 00 00 0F 03 6B DE 
   944)      8563.9  Rx     0011DE6B  5  01 00 00 6B DE 
   945)      8568.7  Rx     0001D11C  7  01 00 00 0F 03 1C D1 
   946)      8568.9  Rx     0011D11C  5  01 00 00 1C D1 
   947)      8573.7  Rx     00017D5E  7  01 00 00 0F 03 5E 7D 
   948)      8573.9  Rx     00117D5E  5  01 00 00 5E 7D 
   949)      8578.8  Rx     0001755A  7  01 00 00 0F 03 5A 75 
   950)      8578.9  Rx     0011755A  5  01 00 00 5A 75 
   951)      8583.8  Rx     00015A64  7  01 00 00 0F 03 64 5A 
   952)      8583.8  Rx     00115A64  5  01 00 00 64 5A 
   953)      8588.8  Rx     00010788  7  01 00 00 0F 03 88 07 
   954)      8588.9  Rx     00110788  5  01 00 00 88 07 
   955)      8593.7  Rx     00019819  7  01 00 00 0F 03 19 98 
   956)      8593.9  Rx     00119819  5  01 00 00 19 98 
   957)      8598.7  Rx     000197AA  7  01 00 00 0F 03 AA 97 
   958)      8598.9  Rx     001197AA  5  01 00 00 AA 97 
   959)      8603.8  Rx     00010A86  7  01 00 00 0F 03 86 0A 
   960)      8603.9  Rx     00110A86  5  01 00 00 86 0A 
   961)      8608.8  Rx     00013168  7  01 00 00 0F 03 68 31 
   962)      8608.8  Rx     00113168  5  01 00 00 68 31 
   963)      8613.8  Rx     0001895F  7  01 00 00 0F 03 5F 89 
   964)      8613.9  Rx     0011895F  5  01 00 00 5F 89 
   965)      8618.7  Rx     0001E104  7  01 00 00 0F 03 04 E1 
   966)      8618.9  Rx     0011E104  5  01 00 00 04 E1 
   967)      8623.7  Rx     0001FF36  7  01 00 00 0F 03 36 FF 
   968)      8623.9  Rx     0011FF36  5  01 00 00 36 FF 
   969)      8628.7  Rx     0001E7A6  7  01 00 00 0F 03 A6 E7 
   970)      8628.9  Rx     0011E7A6  5  01 00 00 A6 E7 
   971)      8633.8  Rx     00017E4A  7  01 00 00 0F 03 4A 7E 
   972)      8633.8  Rx     00117E4A  5  01 00 00 4A 7E 
   973)      8638.8  Rx     0001D45B  7  01 00 00 0F 03 5B D4 
   974)      8638.8  Rx     0011D45B  5  01 00 00 5B D4 
   975)      8643.7  Rx     00014DA0  7  01 00 00 0F 03 A0 4D 
   976)      8643.9  Rx     00114DA0  5  01 00 00 A0 4D 
   977)      8648.7  Rx     000123FF  7  01 00 00 0F 03 FF 23 
   978)      8648.9  Rx     001123FF  5  01 00 00 FF 23 
   979)      8653.7  Rx     0001248B  7  01 00 00 0F 03 8B 24 
   980)      8653.9  Rx     0011248B  5  01 00 00 8B 24 
   981)      8658.7  Rx     0001E4EC  7  01 00 00 0F 03 EC E4 
   982)      8658.9  Rx     0011E4EC  5  01 00 00 EC E4 
   983)      8663.8  Rx     0001B8C8  7  01 00 00 0F 03 C8 B8 
   984)      8663.8  Rx     0011B8C8  5  01 00 00 C8 B8 
   985)      8668.7  Rx     00012C22  7  01 00 00 0F 03 22 2C 
   986)      8668.8  Rx     00112C22  5  01 00 00 22 2C 
   987)      8673.7  Rx     0001BEE0  7  01 00 00 0F 03 E0 BE 
   988)      8673.9  Rx     0011BEE0  5  01 00 00 E0 BE 
   989)      8678.7  Rx     0001D443  7  01 00 00 0F 03 43 D4 
   990)      8678.9  Rx     0011D443  5  01 00 00 43 D4 
   991)      8683.7  Rx     00013E62  7  01 00 00 0F 03 62 3E 
   992)      8683.9  Rx     00113E62  5  01 00 00 62 3E 
   993)      8688.8  Rx     00014F99  7  01 00 00 0F 03 99 4F 
   994)      8688.8  Rx     00114F99  5  01 00 00 99 4F 
   995)      8693.8  Rx     00011345  7  01 00 00 0F 03 45 13 
   996)      8693.8  Rx     00111345  5  01 00 00 45 13 
   997)      8698.7  Rx     0001F900  7  01 00 00 0F 03 00 F9 
   998)      8698.9  Rx     0011F900  5  01 00 00 00 F9 
   999)      8703.7  Rx     00018F62  7  01 00 00 0F 03 62 8F 
  1000)      8703.9  Rx     00118F62  5  01 00 00 62 8F 
  1001)      8708.7  Rx     0001B86B  7  01 00 00 0F 03 6B B8 
  1002)      8708.9  Rx     0011B86B  5  01 00 00 6B B8 
  1003)      8713.7  Rx     0001A2EC  7  01 00 00 0F 03 EC A2 
  1004)      8713.8  Rx     0011A2EC  5  01 00 00 EC A2 
  1005)      8718.8  Rx     00018A59  7  01 00 00 0F 03 59 8A 
  1006)      8718.8  Rx     00118A59  5  01 00 00 59 8A 
  1007)      8723.7  Rx     0001AC52  7  01 00 00 0F 03 52 AC 
  1008)      8723.8  Rx     0011AC52  5  01 00 00 52 AC 
  1009)      8728.7  Rx     00014A7D  7  01 00 00 0F 03 7D 4A 
  1010)      8728.9  Rx     00114A7D  5  01 00 00 7D 4A 
  1011)      8733.7  Rx     0001AFEC  7  01 00 00 0F 03 EC AF 
  1012)      8733.9  Rx     0011AFEC  5  01 00 00 EC AF 
  1013)      8738.7  Rx     0001F85E  7  01 00 00 0F 03 5E F8 
  1014)      8738.8  Rx     0011F85E  5  01 00 00 5E F8 
  1015)      8743.7  Rx     00019166  7  01 00 00 0F 03 66 91 
  1016)      8743.8  Rx     00119166  5  01 00 00 66 91 
  1017)      8748.7  Rx     00015DBB  7  01 00 00 0F 03 BB 5D 
  1018)      8748.8  Rx     00115DBB  5  01 00 00 BB 5D 
  1019)      8753.7  Rx     000134BB  7  01 00 00 0F 03 BB 34 
  1020)      8753.8  Rx     001134BB  5  01 00 00 BB 34 
  1021)      8758.7  Rx     000144FF  7  01 00 00 0F 03 FF 44 
  1022)      8758.9  Rx     001144FF  5  01 00 00 FF 44 
  1023)      8763.7  Rx     0001964F  7  01 00 00 0F 03 4F 96 
  1024)      8763.9  Rx     0011964F  5  01 00 00 4F 96 
  1025)      8768.7  Rx     00019EFA  7  01 00 00 0F 03 FA 9E 
  1026)      8768.8  Rx     00119EFA  5  01 00 00 FA 9E 
  1027)      8773.8  Rx     0001155C  7  01 00 00 0F 03 5C 15 
  1028)      8773.8  Rx     0011155C  5  01 00 00 5C 15 
  1029)      8778.7  Rx     00013DCD  7  01 00 00 0F 03 CD 3D 
  1030)      8778.8  Rx     00113DCD  5  01 00 00 CD 3D 
  1031)      8783.7  Rx     000121D1  7  01 00 00 0F 03 D1 21 
  1032)      8783.8  Rx     001121D1  5  01 00 00 D1 21 
  1033)      8788.7  Rx     0001D79B  7  01 00 00 0F 03 9B D7 
  1034)      8788.9  Rx     0011D79B  5  01 00 00 9B D7 
  1035)      8793.7  Rx     00012258  7  01 00 00 0F 03 58 22 
  1036)      8793.8  Rx     00112258  5  01 00 00 58 22 
  1037)      8798.7  Rx     0001DA82  7  01 00 00 0F 03 82 DA 
  1038)      8798.8  Rx     0011DA82  5  01 00 00 82 DA 
  1039)      8803.7  Rx     00012516  7  01 00 00 0F 03 16 25 
  1040)      8803.8  Rx     00112516  5  01 00 00 16 25 
  1041)      8808.7  Rx     0001BFEF  7  01 00 00 0F 03 EF BF 
  1042)      8808.9  Rx     0011BFEF  5  01 00 00 EF BF 
  1043)      8813.7  Rx     0001156D  7  01 00 00 0F 03 6D 15 
  1044)      8813.9  Rx     0011156D  5  01 00 00 6D 15 
  1045)      8818.7  Rx     00018441  7  01 00 00 0F 03 41 84 
  1046)      8818.8  Rx     00118441  5  01 00 00 41 84 
  1047)      8823.7  Rx     0001C2C0  7  01 00 00 0F 03 C0 C2 
  1048)      8823.8  Rx     0011C2C0  5  01 00 00 C0 C2 
  1049)      8828.7  Rx     0001CC5D  7  01 00 00 0F 03 5D CC 
  1050)      8828.8  Rx     0011CC5D  5  01 00 00 5D CC 
  1051)      8833.7  Rx     0001C408  7  01 00 00 0F 03 08 C4 
  1052)      8833.8  Rx     0011C408  5  01 00 00 08 C4 
  1053)      8838.7  Rx     0001799D  7  01 00 00 0F 03 9D 79 
  1054)      8838.8  Rx     0011799D  5  01 00 00 9D 79 
  1055)      8843.7  Rx     0001B9C0  7  01 00 00 0F 03 C0 B9 
  1056)      8843.9  Rx     0011B9C0  5  01 00 00 C0 B9 
  1057)      8848.7  Rx     00011145  7  01 00 00 0F 03 45 11 
  1058)      8848.8  Rx     00111145  5  01 00 00 45 11 
  1059)      8853.7  Rx     00012373  7  01 00 00 0F 03 73 23 
  1060)      8853.8  Rx     00112373  5  01 00 00 73 23 
  1061)      8858.7  Rx     0001075B  7  01 00 00 0F 03 5B 07 
  1062)      8858.8  Rx     0011075B  5  01 00 00 5B 07 
  1063)      8863.7  Rx     000123E9  7  01 00 00 0F 03 E9 23 
  1064)      8863.8  Rx     001123E9  5  01 00 00 E9 23 
  1065)      8868.7  Rx     0001E9A1  7  01 00 00 0F 03 A1 E9 
  1066)      8868.9  Rx     0011E9A1  5  01 00 00 A1 E9 
  1067)      8873.7  Rx     00013ACD  7  01 00 00 0F 03 CD 3A 
  1068)      8873.8  Rx     00113ACD  5  01 00 00 CD 3A 
  1069)      8878.7  Rx     0001D5F7  7  01 00 00 0F 03 F7 D5 
  1070)      8878.8  Rx     0011D5F7  5  01 00 00 F7 D5 
  1071)      8883.7  Rx     0001D842  7  01 00 00 0F 03 42 D8 
  1072)      8883.8  Rx     0011D842  5  01 00 00 42 D8 
  1073)      8888.7  Rx     0001EC6F  7  01 00 00 0F 03 6F EC 
  1074)      8888.8  Rx     0011EC6F  5  01 00 00 6F EC 
  1075)      8893.7  Rx     000162BC  7  01 00 00 0F 03 BC 62 
  1076)      8893.8  Rx     001162BC  5  01 00 00 BC 62 
  1077)      8898.7  Rx     00015FE7  7  01 00 00 0F 03 E7 5F 
  1078)      8898.8  Rx     00115FE7  5  01 00 00 E7 5F 
  1079)      8903.7  Rx     0001291D  7  01 00 00 0F 03 1D 29 
  1080)      8903.8  Rx     0011291D  5  01 00 00 1D 29 
  1081)      8908.7  Rx     0001B4D1  7  01 00 00 0F 03 D1 B4 
  1082)      8908.8  Rx     0011B4D1  5  01 00 00 D1 B4 
  1083)      8913.7  Rx     00013AE4  7  01 00 00 0F 03 E4 3A 
  1084)      8913.8  Rx     00113AE4  5  01 00 00 E4 3A 
  1085)      8918.7  Rx     000104A1  7  01 00 00 0F 03 A1 04 
  1086)      8918.8  Rx     001104A1  5  01 00 00 A1 04 
  1087)      8923.7  Rx     000149EB  7  01 00 00 0F 03 EB 49 
  1088)      8923.8  Rx     001149EB  5  01 00 00 EB 49 
  1089)      8928.7  Rx     00019CF1  7  01 00 00 0F 03 F1 9C 
  1090)      8928.8  Rx     00119CF1  5  01 00 00 F1 9C 
  1091)      8933.7  Rx     0001B115  7  01 00 00 0F 03 15 B1 
  1092)      8933.8  Rx     0011B115  5  01 00 00 15 B1 
  1093)      8938.7  Rx     00019C5C  7  01 00 00 0F 03 5C 9C 
  1094)      8938.8  Rx     00119C5C  5  01 00 00 5C 9C 
  1095)      8943.7  Rx     0001ECCD  7  01 00 00 0F 03 CD EC 
  1096)      8943.8  Rx     0011ECCD  5  01 00 00 CD EC 
  1097)      8948.7  Rx     0001AFA5  7  01 00 00 0F 03 A5 AF 
  1098)      8948.8  Rx     0011AFA5  5  01 00 00 A5 AF 
  1099)      8953.7  Rx     00013246  7  01 00 00 0F 03 46 32 
  1100)      8953.8  Rx     00113246  5  01 00 00 46 32 
  1101)      8958.7  Rx     00019498  7  01 00 00 0F 03 98 94 
  1102)      8958.8  Rx     00119498  5  01 00 00 98 94 
  1103)      8963.7  Rx     0001EFEA  7  01 00 00 0F 03 EA EF 
  1104)      8963.8  Rx     0011EFEA  5  01 00 00 EA EF 
  1105)      8968.7  Rx     000150D6  7  01 00 00 0F 03 D6 50 
  1106)      8968.8  Rx     001150D6  5  01 00 00 D6 50 
  1107)      8973.7  Rx     00019945  7  01 00 00 0F 03 45 99 
  1108)      8973.8  Rx     00119945  5  01 00 00 45 99 
  1109)      8978.7  Rx     0001515F  7  01 00 00 0F 03 5F 51 
  1110)      8978.8  Rx     0011515F  5  01 00 00 5F 51 
  1111)      8983.7  Rx     0001B282  7  01 00 00 0F 03 82 B2 
  1112)      8983.8  Rx     0011B282  5  01 00 00 82 B2 
  1113)      8988.7  Rx     000140A0  7  01 00 00 0F 03 A0 40 
  1114)      8988.8  Rx     001140A0  5  01 00 00 A0 40 
  1115)      8993.7  Rx     00014F2B  7  01 00 00 0F 03 2B 4F 
  1116)      8993.8  Rx     00114F2B  5  01 00 00 2B 4F 
  1117)      8998.7  Rx     00017F49  7  01 00 00 0F 03 49 7F 
  1118)      8998.8  Rx     00117F49  5  01 00 00 49 7F 
  1119)      9003.7  Rx     0001E5C5  7  01 00 00 0F 03 C5 E5 
  1120)      9003.8  Rx     0011E5C5  5  01 00 00 C5 E5 
  1121)      9008.7  Rx     00013538  7  01 00 00 0F 03 38 35 
  1122)      9008.8  Rx     00113538  5  01 00 00 38 35 
  1123)      9013.7  Rx     00014D90  7  01 00 00 0F 03 90 4D 
  1124)      9013.8  Rx     00114D90  5  01 00 00 90 4D 
  1125)      9018.7  Rx     00016240  7  01 00 00 0F 03 40 62 
  1126)      9018.8  Rx     00116240  5  01 00 00 40 62 
  1127)      9023.7  Rx     0001ED63  7  01 00 00 0F 03 63 ED 
  1128)      9023.8  Rx     0011ED63  5  01 00 00 63 ED 
  1129)      9028.7  Rx     0001CF90  7  01 00 00 0F 03 90 CF 
  1130)      9028.8  Rx     0011CF90  5  01 00 00 90 CF 
  1131)      9033.7  Rx     00015282  7  01 00 00 0F 03 82 52 
  1132)      9033.8  Rx     00115282  5  01 00 00 82 52 
  1133)      9038.7  Rx     00012908  7  01 00 00 0F 03 08 29 
  1134)      9038.8  Rx     00112908  5  01 00 00 08 29 
  1135)      9043.7  Rx     000183E3  7  01 00 00 0F 03 E3 83 
  1136)      9043.8  Rx     001183E3  5  01 00 00 E3 83 
  1137)      9048.7  Rx     00015EBC  7  01 00 00 0F 03 BC 5E 
  1138)      9048.8  Rx     00115EBC  5  01 00 00 BC 5E 
  1139)      9053.7  Rx     0001BE35  7  01 00 00 0F 03 35 BE 
  1140)      9053.8  Rx     0011BE35  5  01 00 00 35 BE 
  1141)      9058.7  Rx     0001397C  7  01 00 00 0F 03 7C 39 
  1142)      9058.8  Rx     0011397C  5  01 00 00 7C 39 
  1143)      9063.7  Rx     000142B3  7  01 00 00 0F 03 B3 42 
  1144)      9063.8  Rx     001142B3  5  01 00 00 B3 42 
  1145)      9068.7  Rx     0001AA12  7  01 00 00 0F 03 12 AA 
  1146)      9068.8  Rx     0011AA12  5  01 00 00 12 AA 
  1147)      9073.7  Rx     0001C67A  7  01 00 00 0F 03 7A C6 
  1148)      9073.8  Rx     0011C67A  5  01 00 00 7A C6 
  1149)      9078.7  Rx     00017598  7  01 00 00 0F 03 98 75 
  1150)      9078.8  Rx     00117598  5  01 00 00 98 75 
  1151)      9083.7  Rx     00013A03  7  01 00 00 0F 03 03 3A 
  1152)      9083.8  Rx     00113A03  5  01 00 00 03 3A 
  1153)      9088.7  Rx     0001CE13  7  01 00 00 0F 03 13 CE 
  1154)      9088.8  Rx     0011CE13  5  01 00 00 13 CE 
  1155)      9093.7  Rx     00017BF1  7  01 00 00 0F 03 F1 7B 
  1156)      9093.8  Rx     00117BF1  5  01 00 00 F1 7B 
  1157)      9098.7  Rx     0001A139  7  01 00 00 0F 03 39 A1 
  1158)      9098.8  Rx     0011A139  5  01 00 00 39 A1 
  1159)      9103.7  Rx     00018051  7  01 00 00 0F 03 51 80 
  1160)      9103.8  Rx     00118051  5  01 00 00 51 80 
  1161)      9108.7  Rx     0001080B  7  01 00 00 0F 03 0B 08 
  1162)      9108.8  Rx     0011080B  5  01 00 00 0B 08 
  1163)      9113.7  Rx     0001D4FD  7  01 00 00 0F 03 FD D4 
  1164)      9113.8  Rx     0011D4FD  5  01 00 00 FD D4 
  1165)      9118.7  Rx     0001A8A6  7  01 00 00 0F 03 A6 A8 
  1166)      9118.8  Rx     0011A8A6  5  01 00 00 A6 A8 
  1167)      9123.7  Rx     0001BDC2  7  01 00 00 0F 03 C2 BD 
  1168)      9123.8  Rx     0011BDC2  5  01 00 00 C2 BD 
  1169)      9128.7  Rx     0001807A  7  01 00 00 0F 03 7A 80 
  1170)      9128.8  Rx     0011807A  5  01 00 00 7A 80 
  1171)      9133.7  Rx     0001D27A  7  01 00 00 0F 03 7A D2 
  1172)      9133.8  Rx     0011D27A  5  01 00 00 7A D2 
  1173)      9138.7  Rx     0001E7CD  7  01 00 00 0F 03 CD E7 
  1174)      9138.8  Rx     0011E7CD  5  01 00 00 CD E7 
  1175)      9143.7  Rx     0001B736  7  01 00 00 0F 03 36 B7 
  1176)      9143.8  Rx     0011B736  5  01 00 00 36 B7 
  1177)      9148.7  Rx     00011C31  7  01 00 00 0F 03 31 1C 
  1178)      9148.8  Rx     00111C31  5  01 00 00 31 1C 
  1179)      9153.7  Rx     00016A30  7  01 00 00 0F 03 30 6A 
  1180)      9153.8  Rx     00116A30  5  01 00 00 30 6A 
  1181)      9158.7  Rx     0001824D  7  01 00 00 0F 03 4D 82 
  1182)      9158.8  Rx     0011824D  5  01 00 00 4D 82 
  1183)      9163.7  Rx     0001E519  7  01 00 00 0F 03 19 E5 
  1184)      9163.8  Rx     0011E519  5  01 00 00 19 E5 
  1185)      9168.7  Rx     0001583B  7  01 00 00 0F 03 3B 58 
  1186)      9168.8  Rx     0011583B  5  01 00 00 3B 58 
  1187)      9173.7  Rx     0001BB05  7  01 00 00 0F 03 05 BB 
  1188)      9173.8  Rx     0011BB05  5  01 00 00 05 BB 
  1189)      9178.7  Rx     0001B438  7  01 00 00 0F 03 38 B4 
  1190)      9178.8  Rx     0011B438  5  01 00 00 38 B4 
  1191)      9183.7  Rx     000111FA  7  01 00 00 0F 03 FA 11 
  1192)      9183.8  Rx     001111FA  5  01 00 00 FA 11 
  1193)      9188.7  Rx     00010880  7  01 00 00 0F 03 80 08 
  1194)      9188.8  Rx     00110880  5  01 00 00 80 08 
  1195)      9193.7  Rx     00010AF4  7  01 00 00 0F 03 F4 0A 
  1196)      9193.8  Rx     00110AF4  5  01 00 00 F4 0A 
  1197)      9198.7  Rx     00012794  7  01 00 00 0F 03 94 27 
  1198)      9198.8  Rx     00112794  5  01 00 00 94 27 
  1199)      9203.7  Rx     0001C4DC  7  01 00 00 0F 03 DC C4 
  1200)      9203.8  Rx     0011C4DC  5  01 00 00 DC C4 
  1201)      9208.7  Rx     0001352A  7  01 00 00 0F 03 2A 35 
  1202)      9208.8  Rx     0011352A  5  01 00 00 2A 35 
  1203)      9213.7  Rx     0001DAC0  7  01 00 00 0F 03 C0 DA 
  1204)      9213.8  Rx     0011DAC0  5  01 00 00 C0 DA 
  1205)      9218.7  Rx     000132A5  7  01 00 00 0F 03 A5 32 
  1206)      9218.8  Rx     001132A5  5  01 00 00 A5 32 
  1207)      9223.7  Rx     0001F74F  7  01 00 00 0F 03 4F F7 
  1208)      9223.8  Rx     0011F74F  5  01 00 00 4F F7 
  1209)      9228.7  Rx     0001DAC5  7  01 00 00 0F 03 C5 DA 
  1210)      9228.8  Rx     0011DAC5  5  01 00 00 C5 DA 
  1211)      9233.7  Rx     0001FB68  7  01 00 00 0F 03 68 FB 
  1212)      9233.8  Rx     0011FB68  5  01 00 00 68 FB 
  1213)      9238.7  Rx     000136EC  7  01 00 00 0F 03 EC 36 
  1214)      9238.8  Rx     001136EC  5  01 00 00 EC 36 
  1215)      9243.7  Rx     0001933D  7  01 00 00 0F 03 3D 93 
  1216)      9243.8  Rx     0011933D  5  01 00 00 3D 93 
  1217)      9248.7  Rx     0001D128  7  01 00 00 0F 03 28 D1 
  1218)      9248.8  Rx     0011D128  5  01 00 00 28 D1 
  1219)      9253.7  Rx     00018D58  7  01 00 00 0F 03 58 8D 
  1220)      9253.8  Rx     00118D58  5  01 00 00 58 8D 
  1221)      9258.7  Rx     0001ECED  7  01 00 00 0F 03 ED EC 
  1222)      9258.8  Rx     0011ECED  5  01 00 00 ED EC 
  1223)      9263.7  Rx     0001FC84  7  01 00 00 0F 03 84 FC 
  1224)      9263.8  Rx     0011FC84  5  01 00 00 84 FC 
  1225)      9268.7  Rx     00018917  7  01 00 00 0F 03 17 89 
  1226)      9268.8  Rx     00118917  5  01 00 00 17 89 
  1227)      9273.7  Rx     00012D64  7  01 00 00 0F 03 64 2D 
  1228)      9273.8  Rx     00112D64  5  01 00 00 64 2D 
  1229)      9278.7  Rx     0001B4B3  7  01 00 00 0F 03 B3 B4 
  1230)      9278.8  Rx     0011B4B3  5  01 00 00 B3 B4 
  1231)      9283.7  Rx     0001BA47  7  01 00 00 0F 03 47 BA 
  1232)      9283.8  Rx     0011BA47  5  01 00 00 47 BA 
  1233)      9288.7  Rx     0001E8A4  7  01 00 00 0F 03 A4 E8 
  1234)      9288.8  Rx     0011E8A4  5  01 00 00 A4 E8 
  1235)      9293.7  Rx     0001DF75  7  01 00 00 0F 03 75 DF 
  1236)      9293.8  Rx     0011DF75  5  01 00 00 75 DF 
  1237)      9298.7  Rx     0001EB14  7  01 00 00 0F 03 14 EB 
  1238)      9298.8  Rx     0011EB14  5  01 00 00 14 EB 
  1239)      9303.7  Rx     0001E403  7  01 00 00 0F 03 03 E4 
  1240)      9303.8  Rx     0011E403  5  01 00 00 03 E4 
  1241)      9308.7  Rx     00010E58  7  01 00 00 0F 03 58 0E 
  1242)      9308.8  Rx     00110E58  5  01 00 00 58 0E 
  1243)      9313.7  Rx     00013EFF  7  01 00 00 0F 03 FF 3E 
  1244)      9313.8  Rx     00113EFF  5  01 00 00 FF 3E 
  1245)      9318.7  Rx     000127B3  7  01 00 00 0F 03 B3 27 
  1246)      9318.8  Rx     001127B3  5  01 00 00 B3 27 
  1247)      9323.7  Rx     0001DA64  7  01 00 00 0F 03 64 DA 
  1248)      9323.8  Rx     0011DA64  5  01 00 00 64 DA 
  1249)      9328.7  Rx     00012315  7  01 00 00 0F 03 15 23 
  1250)      9328.8  Rx     00112315  5  01 00 00 15 23 
  1251)      9333.7  Rx     00018139  7  01 00 00 0F 03 39 81 
  1252)      9333.8  Rx     00118139  5  01 00 00 39 81 
  1253)      9338.7  Rx     00019BC9  7  01 00 00 0F 03 C9 9B 
  1254)      9338.8  Rx     00119BC9  5  01 00 00 C9 9B 
  1255)      9343.7  Rx     0001ABD4  7  01 00 00 0F 03 D4 AB 
  1256)      9343.8  Rx     0011ABD4  5  01 00 00 D4 AB 
  1257)      9348.7  Rx     00013EB8  7  01 00 00 0F 03 B8 3E 
  1258)      9348.8  Rx     00113EB8  5  01 00 00 B8 3E 
  1259)      9353.7  Rx     0001810A  7  01 00 00 0F 03 0A 81 
  1260)      9353.8  Rx     0011810A  5  01 00 00 0A 81 
  1261)      9358.7  Rx     000169A3  7  01 00 00 0F 03 A3 69 
  1262)      9358.8  Rx     001169A3  5  01 00 00 A3 69 
  1263)      9363.7  Rx     0001C0D7  7  01 00 00 0F 03 D7 C0 
  1264)      9363.8  Rx     0011C0D7  5  01 00 00 D7 C0 
  1265)      9368.7  Rx     00011781  7  01 00 00 0F 03 81 17 
  1266)      9368.8  Rx     00111781  5  01 00 00 81 17 
  1267)      9373.7  Rx     0001DCC4  7  01 00 00 0F 03 C4 DC 
  1268)      9373.8  Rx     0011DCC4  5  01 00 00 C4 DC 
  1269)      9378.7  Rx     0001E4EA  7  01 00 00 0F 03 EA E4 
  1270)      9378.8  Rx     0011E4EA  5  01 00 00 EA E4 
  1271)      9383.7  Rx     00016818  7  01 00 00 0F 03 18 68 
  1272)      9383.8  Rx     00116818  5  01 00 00 18 68 
  1273)      9388.7  Rx     0001E833  7  01 00 00 0F 03 33 E8 
  1274)      9388.8  Rx     0011E833  5  01 00 00 33 E8 
  1275)      9393.7  Rx     0001F993  7  01 00 00 0F 03 93 F9 
  1276)      9393.8  Rx     0011F993  5  01 00 00 93 F9 
  1277)      9398.7  Rx     0001E3A5  7  01 00 00 0F 03 A5 E3 
  1278)      9398.8  Rx     0011E3A5  5  01 00 00 A5 E3 
  1279)      9403.7  Rx     00016A42  7  01 00 00 0F 03 42 6A 
  1280)      9403.8  Rx     00116A42  5  01 00 00 42 6A 
  1281)      9408.7  Rx     000144FA  7  01 00 00 0F 03 FA 44 
  1282)      9408.8  Rx     001144FA  5  01 00 00 FA 44 
  1283)      9413.7  Rx     000110B3  7  01 00 00 0F 03 B3 10 
  1284)      9413.8  Rx     001110B3  5  01 00 00 B3 10 
  1285)      9418.7  Rx     00011BFE  7  01 00 00 0F 03 FE 1B 
  1286)      9418.8  Rx     00111BFE  5  01 00 00 FE 1B 
  1287)      9423.7  Rx     00017D8F  7  01 00 00 0F 03 8F 7D 
  1288)      9423.8  Rx     00117D8F  5  01 00 00 8F 7D 
  1289)      9428.7  Rx     0001D30F  7  01 00 00 0F 03 0F D3 
  1290)      9428.8  Rx     0011D30F  5  01 00 00 0F D3 
  1291)      9433.7  Rx     00015264  7  01 00 00 0F 03 64 52 
  1292)      9433.8  Rx     00115264  5  01 00 00 64 52 
  1293)      9438.7  Rx     00015AC7  7  01 00 00 0F 03 C7 5A 
  1294)      9438.8  Rx     00115AC7  5  01 00 00 C7 5A 
  1295)      9443.6  Rx     0001FD21  7  01 00 00 0F 03 21 FD 
  1296)      9443.8  Rx     0011FD21  5  01 00 00 21 FD 
  1297)      9448.7  Rx     00012B1B  7  01 00 00 0F 03 1B 2B 
  1298)      9448.8  Rx     00112B1B  5  01 00 00 1B 2B 
  1299)      9453.7  Rx     0001E29D  7  01 00 00 0F 03 9D E2 
  1300)      9453.8  Rx     0011E29D  5  01 00 00 9D E2 
  1301)      9458.7  Rx     0001F6BA  7  01 00 00 0F 03 BA F6 
  1302)      9458.8  Rx     0011F6BA  5  01 00 00 BA F6 
  1303)      9463.7  Rx     00016413  7  01 00 00 0F 03 13 64 
  1304)      9463.8  Rx     00116413  5  01 00 00 13 64 
  1305)      9468.7  Rx     0001A65E  7  01 00 00 0F 03 5E A6 
  1306)      9468.8  Rx     0011A65E  5  01 00 00 5E A6 
  1307)      9473.6  Rx     0001EF81  7  01 00 00 0F 03 81 EF 
  1308)      9473.8  Rx     0011EF81  5  01 00 00 81 EF 
  1309)      9478.7  Rx     00010482  7  01 00 00 0F 03 82 04 
  1310)      9478.8  Rx     00110482  5  01 00 00 82 04 
  1311)      9483.7  Rx     0001E04D  7  01 00 00 0F 03 4D E0 
  1312)      9483.8  Rx     0011E04D  5  01 00 00 4D E0 
  1313)      9488.7  Rx     00012E8F  7  01 00 00 0F 03 8F 2E 
  1314)      9488.8  Rx     00112E8F  5  01 00 00 8F 2E 
  1315)      9493.7  Rx     0001C594  7  01 00 00 0F 03 94 C5 
  1316)      9493.8  Rx     0011C594  5  01 00 00 94 C5 
  1317)      9498.6  Rx     0001B77D  7  01 00 00 0F 03 7D B7 
  1318)      9498.8  Rx     0011B77D  5  01 00 00 7D B7 
  1319)      9503.7  Rx     0001D91A  7  01 00 00 0F 03 1A D9 
  1320)      9503.8  Rx     0011D91A  5  01 00 00 1A D9 
  1321)      9508.7  Rx     00010082  7  01 00 00 0F 03 82 00 
  1322)      9508.8  Rx     00110082  5  01 00 00 82 00 
  1323)      9513.7  Rx     0001DDAD  7  01 00 00 0F 03 AD DD 
  1324)      9513.7  Rx     0011DDAD  5  01 00 00 AD DD 
  1325)      9518.7  Rx     0001973E  7  01 00 00 0F 03 3E 97 
  1326)      9518.8  Rx     0011973E  5  01 00 00 3E 97 
  1327)      9523.6  Rx     0001997B  7  01 00 00 0F 03 7B 99 
  1328)      9523.8  Rx     0011997B  5  01 00 00 7B 99 
  1329)      9528.6  Rx     0001A18B  7  01 00 00 0F 03 8B A1 
  1330)      9528.8  Rx     0011A18B  5  01 00 00 8B A1 
  1331)      9533.7  Rx     0001E4AA  7  01 00 00 0F 03 AA E4 
  1332)      9533.8  Rx     0011E4AA  5  01 00 00 AA E4 
  1333)      9538.7  Rx     0001F5D4  7  01 00 00 0F 03 D4 F5 
  1334)      9538.8  Rx     0011F5D4  5  01 00 00 D4 F5 
  1335)      9543.7  Rx     0001BE38  7  01 00 00 0F 03 38 BE 
  1336)      9543.8  Rx     0011BE38  5  01 00 00 38 BE 
  1337)      9548.7  Rx     000177A4  7  01 00 00 0F 03 A4 77 
  1338)      9548.8  Rx     001177A4  5  01 00 00 A4 77 
  1339)      9553.7  Rx     0001E0E5  7  01 00 00 0F 03 E5 E0 
  1340)      9553.8  Rx     0011E0E5  5  01 00 00 E5 E0 
  1341)      9558.7  Rx     000122CC  7  01 00 00 0F 03 CC 22 
  1342)      9558.8  Rx     001122CC  5  01 00 00 CC 22 
  1343)      9563.7  Rx     0001E3BA  7  01 00 00 0F 03 BA E3 
  1344)      9563.8  Rx     0011E3BA  5  01 00 00 BA E3 
  1345)      9568.7  Rx     0001CC4F  7  01 00 00 0F 03 4F CC 
  1346)      9568.8  Rx     0011CC4F  5  01 00 00 4F CC 
  1347)      9573.7  Rx     00011D69  7  01 00 00 0F 03 69 1D 
  1348)      9573.8  Rx     00111D69  5  01 00 00 69 1D 
  1349)      9578.7  Rx     0001C6F6  7  01 00 00 0F 03 F6 C6 
  1350)      9578.8  Rx     0011C6F6  5  01 00 00 F6 C6 
  1351)      9583.7  Rx     0001279B  7  01 00 00 0F 03 9B 27 
  1352)      9583.8  Rx     0011279B  5  01 00 00 9B 27 
  1353)      9588.7  Rx     0001823B  7  01 00 00 0F 03 3B 82 
  1354)      9588.8  Rx     0011823B  5  01 00 00 3B 82 
  1355)      9593.7  Rx     00016AE4  7  01 00 00 0F 03 E4 6A 
  1356)      9593.8  Rx     00116AE4  5  01 00 00 E4 6A 
  1357)      9598.7  Rx     000134EA  7  01 00 00 0F 03 EA 34 
  1358)      9598.8  Rx     001134EA  5  01 00 00 EA 34 
  1359)      9603.7  Rx     0001ADF8  7  01 00 00 0F 03 F8 AD 
  1360)      9603.8  Rx     0011ADF8  5  01 00 00 F8 AD 
  1361)      9608.7  Rx     0001E5A8  7  01 00 00 0F 03 A8 E5 
  1362)      9608.8  Rx     0011E5A8  5  01 00 00 A8 E5 
  1363)      9613.7  Rx     0001F65A  7  01 00 00 0F 03 5A F6 
  1364)      9613.8  Rx     0011F65A  5  01 00 00 5A F6 
  1365)      9618.7  Rx     0001B248  7  01 00 00 0F 03 48 B2 
  1366)      9618.8  Rx     0011B248  5  01 00 00 48 B2 
  1367)      9623.7  Rx     0001568D  7  01 00 00 0F 03 8D 56 
  1368)      9623.8  Rx     0011568D  5  01 00 00 8D 56 
  1369)      9628.7  Rx     00018F8B  7  01 00 00 0F 03 8B 8F 
  1370)      9628.8  Rx     00118F8B  5  01 00 00 8B 8F 
  1371)      9633.7  Rx     0001959D  7  01 00 00 0F 03 9D 95 
  1372)      9633.8  Rx     0011959D  5  01 00 00 9D 95 
  1373)      9638.7  Rx     0001C9C2  7  01 00 00 0F 03 C2 C9 
  1374)      9638.8  Rx     0011C9C2  5  01 00 00 C2 C9 
  1375)      9643.7  Rx     0001197E  7  01 00 00 0F 03 7E 19 
  1376)      9643.8  Rx     0011197E  5  01 00 00 7E 19 
  1377)      9648.7  Rx     00011771  7  01 00 00 0F 03 71 17 
  1378)      9648.8  Rx     00111771  5  01 00 00 71 17 
  1379)      9653.7  Rx     0001A57F  7  01 00 00 0F 03 7F A5 
  1380)      9653.8  Rx     0011A57F  5  01 00 00 7F A5 
  1381)      9658.7  Rx     0001A1DB  7  01 00 00 0F 03 DB A1 
  1382)      9658.8  Rx     0011A1DB  5  01 00 00 DB A1 
  1383)      9663.7  Rx     0001C3F5  7  01 00 00 0F 03 F5 C3 
  1384)      9663.8  Rx     0011C3F5  5  01 00 00 F5 C3 
  1385)      9668.7  Rx     00010024  7  01 00 00 0F 03 24 00 
  1386)      9668.8  Rx     00110024  5  01 00 00 24 00 
  1387)      9673.7  Rx     000135C4  7  01 00 00 0F 03 C4 35 
  1388)      9673.8  Rx     001135C4  5  01 00 00 C4 35 
  1389)      9678.7  Rx     0001486C  7  01 00 00 0F 03 6C 48 
  1390)      9678.8  Rx     0011486C  5  01 00 00 6C 48 
  1391)      9683.7  Rx     0001686F  7  01 00 00 0F 03 6F 68 
  1392)      9683.8  Rx     0011686F  5  01 00 00 6F 68 
  1393)      9688.7  Rx     0001770E  7  01 00 00 0F 03 0E 77 
  1394)      9688.8  Rx     0011770E  5  01 00 00 0E 77 
  1395)      9693.7  Rx     000116D9  7  01 00 00 0F 03 D9 16 
  1396)      9693.8  Rx     001116D9  5  01 00 00 D9 16 
  1397)      9698.7  Rx     000102E9  7  01 00 00 0F 03 E9 02 
  1398)      9698.8  Rx     001102E9  5  01 00 00 E9 02 
  1399)      9703.7  Rx     00010ED6  7  01 00 00 0F 03 D6 0E 
  1400)      9703.8  Rx     00110ED6  5  01 00 00 D6 0E 
  1401)      9708.7  Rx     0001225F  7  01 00 00 0F 03 5F 22 
  1402)      9708.8  Rx     0011225F  5  01 00 00 5F 22 
  1403)      9713.7  Rx     0001CD46  7  01 00 00 0F 03 46 CD 
  1404)      9713.8  Rx     0011CD46  5  01 00 00 46 CD 
  1405)      9718.7  Rx     00019367  7  01 00 00 0F 03 67 93 
  1406)      9718.8  Rx     00119367  5  01 00 00 67 93 
  1407)      9723.7  Rx     0001204D  7  01 00 00 0F 03 4D 20 
  1408)      9723.8  Rx     0011204D  5  01 00 00 4D 20 
  1409)      9728.7  Rx     000105EF  7  01 00 00 0F 03 EF 05 
  1410)      9728.8  Rx     001105EF  5  01 00 00 EF 05 
  1411)      9733.7  Rx     0001DAE3  7  01 00 00 0F 03 E3 DA 
  1412)      9733.8  Rx     0011DAE3  5  01 00 00 E3 DA 
  1413)      9738.7  Rx     00019A5C  7  01 00 00 0F 03 5C 9A 
  1414)      9738.8  Rx     00119A5C  5  01 00 00 5C 9A 
  1415)      9743.7  Rx     000112CE  7  01 00 00 0F 03 CE 12 
  1416)      9743.8  Rx     001112CE  5  01 00 00 CE 12 
  1417)      9748.7  Rx     000136E4  7  01 00 00 0F 03 E4 36 
  1418)      9748.8  Rx     001136E4  5  01 00 00 E4 36 
  1419)      9753.6  Rx     00018DCC  7  01 00 00 0F 03 CC 8D 
  1420)      9753.8  Rx     00118DCC  5  01 00 00 CC 8D 
  1421)      9758.7  Rx     0001E924  7  01 00 00 0F 03 24 E9 
  1422)      9758.8  Rx     0011E924  5  01 00 00 24 E9 
  1423)      9763.7  Rx     0001E874  7  01 00 00 0F 03 74 E8 
  1424)      9763.8  Rx     0011E874  5  01 00 00 74 E8 
  1425)      9768.7  Rx     0001BE13  7  01 00 00 0F 03 13 BE 
  1426)      9768.8  Rx     0011BE13  5  01 00 00 13 BE 
  1427)      9773.7  Rx     00014115  7  01 00 00 0F 03 15 41 
  1428)      9773.8  Rx     00114115  5  01 00 00 15 41 
  1429)      9778.7  Rx     0001B547  7  01 00 00 0F 03 47 B5 
  1430)      9778.8  Rx     0011B547  5  01 00 00 47 B5 
  1431)      9783.6  Rx     0001D298  7  01 00 00 0F 03 98 D2 
  1432)      9783.8  Rx     0011D298  5  01 00 00 98 D2 
  1433)      9788.7  Rx     00016527  7  01 00 00 0F 03 27 65 
  1434)      9788.8  Rx     00116527  5  01 00 00 27 65 
  1435)      9793.7  Rx     0001573C  7  01 00 00 0F 03 3C 57 
  1436)      9793.8  Rx     0011573C  5  01 00 00 3C 57 
  1437)      9798.7  Rx     0001087C  7  01 00 00 0F 03 7C 08 
  1438)      9798.8  Rx     0011087C  5  01 00 00 7C 08 
  1439)      9803.7  Rx     0001A09D  7  01 00 00 0F 03 9D A0 
  1440)      9803.8  Rx     0011A09D  5  01 00 00 9D A0 
  1441)      9808.6  Rx     00018683  7  01 00 00 0F 03 83 86 
  1442)      9808.8  Rx     00118683  5  01 00 00 83 86 
  1443)      9813.7  Rx     00014262  7  01 00 00 0F 03 62 42 
  1444)      9813.8  Rx     00114262  5  01 00 00 62 42 
  1445)      9818.7  Rx     0001056B  7  01 00 00 0F 03 6B 05 
  1446)      9818.8  Rx     0011056B  5  01 00 00 6B 05 
  1447)      9823.7  Rx     00017E8B  7  01 00 00 0F 03 8B 7E 
  1448)      9823.8  Rx     00117E8B  5  01 00 00 8B 7E 
  1449)      9828.7  Rx     0001D3E6  7  01 00 00 0F 03 E6 D3 
  1450)      9828.8  Rx     0011D3E6  5  01 00 00 E6 D3 
  1451)      9833.6  Rx     0001B238  7  01 00 00 0F 03 38 B2 
  1452)      9833.8  Rx     0011B238  5  01 00 00 38 B2 
  1453)      9838.6  Rx     00012534  7  01 00 00 0F 03 34 25 
  1454)      9838.8  Rx     00112534  5  01 00 00 34 25 
  1455)      9843.7  Rx     0001575D  7  01 00 00 0F 03 5D 57 
  1456)      9843.8  Rx     0011575D  5  01 00 00 5D 57 
  1457)      9848.7  Rx     000133D2  7  01 00 00 0F 03 D2 33 
  1458)      9848.8  Rx     001133D2  5  01 00 00 D2 33 
  1459)      9853.7  Rx     000187BA  7  01 00 00 0F 03 BA 87 
  1460)      9853.8  Rx     001187BA  5  01 00 00 BA 87 
  1461)      9858.6  Rx     0001A5B3  7  01 00 00 0F 03 B3 A5 
  1462)      9858.8  Rx     0011A5B3  5  01 00 00 B3 A5 
  1463)      9863.6  Rx     00018319  7  01 00 00 0F 03 19 83 
  1464)      9863.8  Rx     00118319  5  01 00 00 19 83 
  1465)      9868.7  Rx     000189AD  7  01 00 00 0F 03 AD 89 
  1466)      9868.8  Rx     001189AD  5  01 00 00 AD 89 
  1467)      9873.7  Rx     0001EA9D  7  01 00 00 0F 03 9D EA 
  1468)      9873.8  Rx     0011EA9D  5  01 00 00 9D EA 
  1469)      9878.7  Rx     0001CC80  7  01 00 00 0F 03 80 CC 
  1470)      9878.8  Rx     0011CC80  5  01 00 00 80 CC 
  1471)      9883.7  Rx     000140A3  7  01 00 00 0F 03 A3 40 
  1472)      9883.8  Rx     001140A3  5  01 00 00 A3 40 
  1473)      9888.6  Rx     00018CA4  7  01 00 00 0F 03 A4 8C 
  1474)      9888.8  Rx     00118CA4  5  01 00 00 A4 8C 
  1475)      9893.6  Rx     00016088  7  01 00 00 0F 03 88 60 
  1476)      9893.8  Rx     00116088  5  01 00 00 88 60 
  1477)      9898.7  Rx     000132B8  7  01 00 00 0F 03 B8 32 
  1478)      9898.8  Rx     001132B8  5  01 00 00 B8 32 
  1479)      9903.7  Rx     00016B51  7  01 00 00 0F 03 51 6B 
  1480)      9903.7  Rx     00116B51  5  01 00 00 51 6B 
  1481)      9908.7  Rx     00018D52  7  01 00 00 0F 03 52 8D 
  1482)      9908.8  Rx     00118D52  5  01 00 00 52 8D 
  1483)      9913.6  Rx     0001E605  7  01 00 00 0F 03 05 E6 
  1484)      9913.8  Rx     0011E605  5  01 00 00 05 E6 
  1485)      9918.6  Rx     0001117E  7  01 00 00 0F 03 7E 11 
  1486)      9918.8  Rx     0011117E  5  01 00 00 7E 11 
  1487)      9923.6  Rx     0001D03D  7  01 00 00 0F 03 3D D0 
  1488)      9923.8  Rx     0011D03D  5  01 00 00 3D D0 
  1489)      9928.7  Rx     00014E24  7  01 00 00 0F 03 24 4E 
  1490)      9928.7  Rx     00114E24  5  01 00 00 24 4E 
  1491)      9933.7  Rx     0001E135  7  01 00 00 0F 03 35 E1 
  1492)      9933.7  Rx     0011E135  5  01 00 00 35 E1 
  1493)      9938.6  Rx     0001A73E  7  01 00 00 0F 03 3E A7 
  1494)      9938.8  Rx     0011A73E  5  01 00 00 3E A7 
  1495)      9943.6  Rx     0001FF5D  7  01 00 00 0F 03 5D FF 
  1496)      9943.8  Rx     0011FF5D  5  01 00 00 5D FF 
  1497)      9948.6  Rx     0001CA79  7  01 00 00 0F 03 79 CA 
  1498)      9948.8  Rx     0011CA79  5  01 00 00 79 CA 
  1499)      9953.7  Rx     00014E45  7  01 00 00 0F 03 45 4E 
  1500)      9953.8  Rx     00114E45  5  01 00 00 45 4E 
  1501)      9958.7  Rx     00016DB6  7  01 00 00 0F 03 B6 6D 
  1502)      9958.7  Rx     00116DB6  5  01 00 00 B6 6D 
  1503)      9963.6  Rx     0001A054  7  01 00 00 0F 03 54 A0 
  1504)      9963.8  Rx     0011A054  5  01 00 00 54 A0 
  1505)      9968.6  Rx     0001108C  7  01 00 00 0F 03 8C 10 
  1506)      9968.8  Rx     0011108C  5  01 00 00 8C 10 
  1507)      9973.6  Rx     0001BDA3  7  01 00 00 0F 03 A3 BD 
  1508)      9973.8  Rx     0011BDA3  5  01 00 00 A3 BD 
  1509)      9978.6  Rx     000178B5  7  01 00 00 0F 03 B5 78 
  1510)      9978.8  Rx     001178B5  5  01 00 00 B5 78 
  1511)      9983.7  Rx     00013305  7  01 00 00 0F 03 05 33 
  1512)      9983.7  Rx     00113305  5  01 00 00 05 33 
  1513)      9988.7  Rx     00011A11  7  01 00 00 0F 03 11 1A 
  1514)      9988.7  Rx     00111A11  5  01 00 00 11 1A 
  1515)      9993.6  Rx     00016FF0  7  01 00 00 0F 03 F0 6F 
  1516)      9993.8  Rx     00116FF0  5  01 00 00 F0 6F 
  1517)      9998.6  Rx     0001C5A1  7  01 00 00 0F 03 A1 C5 
  1518)      9998.8  Rx     0011C5A1  5  01 00 00 A1 C5 
  1519)     10003.6  Rx     00017FEB  7  01 00 00 0F 03 EB 7F 
  1520)     10003.8  Rx     00117FEB  5  01 00 00 EB 7F 
  1521)     10008.7  Rx     00017BA1  7  01 00 00 0F 03 A1 7B 
  1522)     10008.7  Rx     00117BA1  5  01 00 00 A1 7B 
  1523)     10013.7  Rx     00015FB4  7  01 00 00 0F 03 B4 5F 
  1524)     10013.7  Rx     00115FB4  5  01 00 00 B4 5F 
  1525)     10018.6  Rx     00018BB9  7  01 00 00 0F 03 B9 8B 
  1526)     10018.7  Rx     00118BB9  5  01 00 00 B9 8B 
  1527)     10023.6  Rx     00012C2A  7  01 00 00 0F 03 2A 2C 
  1528)     10023.8  Rx     00112C2A  5  01 00 00 2A 2C 
  1529)     10028.6  Rx     000152D6  7  01 00 00 0F 03 D6 52 
  1530)     10028.8  Rx     001152D6  5  01 00 00 D6 52 
  1531)     10033.6  Rx     000148D2  7  01 00 00 0F 03 D2 48 
  1532)     10033.8  Rx     001148D2  5  01 00 00 D2 48 
  1533)     10038.7  Rx     00017D1F  7  01 00 00 0F 03 1F 7D 
  1534)     10038.7  Rx     00117D1F  5  01 00 00 1F 7D 
  1535)     10043.6  Rx     00016564  7  01 00 00 0F 03 64 65 
  1536)     10043.7  Rx     00116564  5  01 00 00 64 65 
  1537)     10048.6  Rx     00010B34  7  01 00 00 0F 03 34 0B 
  1538)     10048.8  Rx     00110B34  5  01 00 00 34 0B 
  1539)     10053.6  Rx     0001D5C1  7  01 00 00 0F 03 C1 D5 
  1540)     10053.8  Rx     0011D5C1  5  01 00 00 C1 D5 
  1541)     10058.6  Rx     00012C93  7  01 00 00 0F 03 93 2C 
  1542)     10058.8  Rx     00112C93  5  01 00 00 93 2C 
  1543)     10063.6  Rx     0001454C  7  01 00 00 0F 03 4C 45 
  1544)     10063.7  Rx     0011454C  5  01 00 00 4C 45 
  1545)     10068.7  Rx     00012DCD  7  01 00 00 0F 03 CD 2D 
  1546)     10068.7  Rx     00112DCD  5  01 00 00 CD 2D 
  1547)     10073.6  Rx     00018E76  7  01 00 00 0F 03 76 8E 
  1548)     10073.7  Rx     00118E76  5  01 00 00 76 8E 
  1549)     10078.6  Rx     000157FE  7  01 00 00 0F 03 FE 57 
  1550)     10078.8  Rx     001157FE  5  01 00 00 FE 57 
  1551)     10083.6  Rx     000180FB  7  01 00 00 0F 03 FB 80 
  1552)     10083.8  Rx     001180FB  5  01 00 00 FB 80 
  1553)     10088.6  Rx     000137A2  7  01 00 00 0F 03 A2 37 
  1554)     10088.7  Rx     001137A2  5  01 00 00 A2 37 
  1555)     10093.7  Rx     0001F523  7  01 00 00 0F 03 23 F5 
  1556)     10093.7  Rx     0011F523  5  01 00 00 23 F5 
  1557)     10098.6  Rx     000127B5  7  01 00 00 0F 03 B5 27 
  1558)     10098.7  Rx     001127B5  5  01 00 00 B5 27 
  1559)     10103.6  Rx     0001F805  7  01 00 00 0F 03 05 F8 
  1560)     10103.8  Rx     0011F805  5  01 00 00 05 F8 
  1561)     10108.6  Rx     00015ACA  7  01 00 00 0F 03 CA 5A 
  1562)     10108.8  Rx     00115ACA  5  01 00 00 CA 5A 
  1563)     10113.6  Rx     00019CA1  7  01 00 00 0F 03 A1 9C 
  1564)     10113.7  Rx     00119CA1  5  01 00 00 A1 9C 
  1565)     10118.6  Rx     00018E7A  7  01 00 00 0F 03 7A 8E 
  1566)     10118.7  Rx     00118E7A  5  01 00 00 7A 8E 
  1567)     10123.6  Rx     00013349  7  01 00 00 0F 03 49 33 
  1568)     10123.7  Rx     00113349  5  01 00 00 49 33 
  1569)     10128.6  Rx     00016655  7  01 00 00 0F 03 55 66 
  1570)     10128.7  Rx     00116655  5  01 00 00 55 66 
  1571)     10133.6  Rx     000134AD  7  01 00 00 0F 03 AD 34 
  1572)     10133.8  Rx     001134AD  5  01 00 00 AD 34 
  1573)     10138.6  Rx     0001A242  7  01 00 00 0F 03 42 A2 
  1574)     10138.8  Rx     0011A242  5  01 00 00 42 A2 
  1575)     10143.6  Rx     0001FF8B  7  01 00 00 0F 03 8B FF 
  1576)     10143.7  Rx     0011FF8B  5  01 00 00 8B FF 
  1577)     10148.6  Rx     000178ED  7  01 00 00 0F 03 ED 78 
  1578)     10148.7  Rx     001178ED  5  01 00 00 ED 78 
  1579)     10153.6  Rx     00018BD5  7  01 00 00 0F 03 D5 8B 
  1580)     10153.7  Rx     00118BD5  5  01 00 00 D5 8B 
  1581)     10158.6  Rx     0001D1B8  7  01 00 00 0F 03 B8 D1 
  1582)     10158.7  Rx     0011D1B8  5  01 00 00 B8 D1 
  1583)     10163.6  Rx     000103C3  7  01 00 00 0F 03 C3 03 
  1584)     10163.8  Rx     001103C3  5  01 00 00 C3 03 
  1585)     10168.6  Rx     0001EE41  7  01 00 00 0F 03 41 EE 
  1586)     10168.7  Rx     0011EE41  5  01 00 00 41 EE 
  1587)     10173.6  Rx     0001B72F  7  01 00 00 0F 03 2F B7 
  1588)     10173.7  Rx     0011B72F  5  01 00 00 2F B7 
  1589)     10178.6  Rx     00014A83  7  01 00 00 0F 03 83 4A 
  1590)     10178.7  Rx     00114A83  5  01 00 00 83 4A 
  1591)     10183.6  Rx     00013F32  7  01 00 00 0F 03 32 3F 
  1592)     10183.7  Rx     00113F32  5  01 00 00 32 3F 
  1593)     10188.6  Rx     00011721  7  01 00 00 0F 03 21 17 
  1594)     10188.8  Rx     00111721  5  01 00 00 21 17 
  1595)     10193.6  Rx     000113CE  7  01 00 00 0F 03 CE 13 
  1596)     10193.7  Rx     001113CE  5  01 00 00 CE 13 
  1597)     10198.6  Rx     0001384A  7  01 00 00 0F 03 4A 38 
  1598)     10198.7  Rx     0011384A  5  01 00 00 4A 38 
  1599)     10203.6  Rx     0001AB38  7  01 00 00 0F 03 38 AB 
  1600)     10203.7  Rx     0011AB38  5  01 00 00 38 AB 
  1601)     10208.6  Rx     00011468  7  01 00 00 0F 03 68 14 
  1602)     10208.7  Rx     00111468  5  01 00 00 68 14 
  1603)     10213.6  Rx     000159F5  7  01 00 00 0F 03 F5 59 
  1604)     10213.7  Rx     001159F5  5  01 00 00 F5 59 
  1605)     10218.6  Rx     00012C73  7  01 00 00 0F 03 73 2C 
  1606)     10218.7  Rx     00112C73  5  01 00 00 73 2C 
  1607)     10223.6  Rx     0001C4E7  7  01 00 00 0F 03 E7 C4 
  1608)     10223.7  Rx     0011C4E7  5  01 00 00 E7 C4 
  1609)     10228.6  Rx     0001B09C  7  01 00 00 0F 03 9C B0 
  1610)     10228.7  Rx     0011B09C  5  01 00 00 9C B0 
  1611)     10233.6  Rx     0001AA08  7  01 00 00 0F 03 08 AA 
  1612)     10233.7  Rx     0011AA08  5  01 00 00 08 AA 
  1613)     10238.6  Rx     000152AE  7  01 00 00 0F 03 AE 52 
  1614)     10238.7  Rx     001152AE  5  01 00 00 AE 52 
  1615)     10243.6  Rx     00011E56  7  01 00 00 0F 03 56 1E 
  1616)     10243.8  Rx     00111E56  5  01 00 00 56 1E 
  1617)     10248.6  Rx     00011456  7  01 00 00 0F 03 56 14 
  1618)     10248.7  Rx     00111456  5  01 00 00 56 14 
  1619)     10253.6  Rx     0001A346  7  01 00 00 0F 03 46 A3 
  1620)     10253.7  Rx     0011A346  5  01 00 00 46 A3 
  1621)     10258.6  Rx     0001CE35  7  01 00 00 0F 03 35 CE 
  1622)     10258.7  Rx     0011CE35  5  01 00 00 35 CE 
  1623)     10263.6  Rx     0001E3B6  7  01 00 00 0F 03 B6 E3 
  1624)     10263.7  Rx     0011E3B6  5  01 00 00 B6 E3 
  1625)     10268.6  Rx     0001B962  7  01 00 00 0F 03 62 B9 
  1626)     10268.7  Rx     0011B962  5  01 00 00 62 B9 
  1627)     10273.6  Rx     00016837  7  01 00 00 0F 03 37 68 
  1628)     10273.7  Rx     00116837  5  01 00 00 37 68 
  1629)     10278.6  Rx     000113CF  7  01 00 00 0F 03 CF 13 
  1630)     10278.7  Rx     001113CF  5  01 00 00 CF 13 
  1631)     10283.6  Rx     00017426  7  01 00 00 0F 03 26 74 
