;$FILEVERSION=1.1
;$STARTTIME=46290.6069831597
;
;   Start time: 25/09/2026 14:34:03.345.0
;   Generated by PCAN-View v5.3.3.958
;
;   Message Number
;   |         Time Offset (ms)
;   |         |        Type
;   |         |        |        ID (hex)
;   |         |        |        |     Data Length
;   |         |        |        |     |   Data Bytes (hex) ...
;   |         |        |        |     |   |
;---+--   ----+----  --+--  ----+---  +  -+ -- -- -- -- -- -- --
     1)      8972.0  Rx     00019563  7  01 00 00 0F 00 63 95 
     2)      8972.1  Rx     00119563  5  01 00 00 63 95 
     3)      8977.0  Rx     000172A5  7  01 00 00 0F 03 A5 72 
     4)      8977.1  Rx     001172A5  5  01 00 00 A5 72 
     5)      8982.0  Rx     000104B7  7  01 00 00 0F 03 B7 04 
     6)      8982.1  Rx     001104B7  5  01 00 00 B7 04 
     7)      8987.0  Rx     00010D50  7  01 00 00 0F 03 50 0D 
     8)      8987.1  Rx     00110D50  5  01 00 00 50 0D 
     9)      8992.0  Rx     00013A8D  7  01 00 00 0F 03 8D 3A 
    10)      8992.1  Rx     00113A8D  5  01 00 00 8D 3A 
    11)      8997.0  Rx     0001434B  7  01 00 00 0F 03 4B 43 
    12)      8997.1  Rx     0011434B  5  01 00 00 4B 43 
    13)      9002.0  Rx     0001FA53  7  01 00 00 0F 03 53 FA 
    14)      9002.1  Rx     0011FA53  5  01 00 00 53 FA 
    15)      9007.0  Rx     00016B5B  7  01 00 00 0F 03 5B 6B 
    16)      9007.1  Rx     00116B5B  5  01 00 00 5B 6B 
    17)      9012.0  Rx     000157F7  7  01 00 00 0F 03 F7 57 
    18)      9012.1  Rx     001157F7  5  01 00 00 F7 57 
    19)      9017.0  Rx     00012FF3  7  01 00 00 0F 03 F3 2F 
    20)      9017.1  Rx     00112FF3  5  01 00 00 F3 2F 
    21)      9022.0  Rx     0001B08C  7  01 00 00 0F 03 8C B0 
    22)      9022.1  Rx     0011B08C  5  01 00 00 8C B0 
    23)      9027.0  Rx     0001A2F6  7  01 00 00 0F 03 F6 A2 
    24)      9027.1  Rx     0011A2F6  5  01 00 00 F6 A2 
    25)      9032.0  Rx     0001DCAA  7  01 00 00 0F 03 AA DC 
    26)      9032.1  Rx     0011DCAA  5  01 00 00 AA DC 
    27)      9037.0  Rx     00017A41  7  01 00 00 0F 03 41 7A 
    28)      9037.1  Rx     00117A41  5  01 00 00 41 7A 
    29)      9042.0  Rx     00010EFB  7  01 00 00 0F 03 FB 0E 
    30)      9042.1  Rx     00110EFB  5  01 00 00 FB 0E 
    31)      9047.0  Rx     00017B0D  7  01 00 00 0F 03 0D 7B 
    32)      9047.1  Rx     00117B0D  5  01 00 00 0D 7B 
    33)      9052.0  Rx     00013948  7  01 00 00 0F 03 48 39 
    34)      9052.1  Rx     00113948  5  01 00 00 48 39 
    35)      9057.0  Rx     00015922  7  01 00 00 0F 03 22 59 
    36)      9057.1  Rx     00115922  5  01 00 00 22 59 
    37)      9062.0  Rx     00018C15  7  01 00 00 0F 03 15 8C 
    38)      9062.1  Rx     00118C15  5  01 00 00 15 8C 
    39)      9067.0  Rx     0001F37E  7  01 00 00 0F 03 7E F3 
    40)      9067.1  Rx     0011F37E  5  01 00 00 7E F3 
    41)      9072.0  Rx     0001687F  7  01 00 00 0F 03 7F 68 
    42)      9072.1  Rx     0011687F  5  01 00 00 7F 68 
    43)      9077.0  Rx     00014AD3  7  01 00 00 0F 03 D3 4A 
    44)      9077.1  Rx     00114AD3  5  01 00 00 D3 4A 
    45)      9082.0  Rx     0001E1FE  7  01 00 00 0F 03 FE E1 
    46)      9082.1  Rx     0011E1FE  5  01 00 00 FE E1 
    47)      9087.0  Rx     00011705  7  01 00 00 0F 03 05 17 
    48)      9087.1  Rx     00111705  5  01 00 00 05 17 
    49)      9092.0  Rx     0001F93C  7  01 00 00 0F 03 3C F9 
    50)      9092.1  Rx     0011F93C  5  01 00 00 3C F9 
    51)      9097.0  Rx     00015FA2  7  01 00 00 0F 03 A2 5F 
    52)      9097.1  Rx     00115FA2  5  01 00 00 A2 5F 
    53)      9102.0  Rx     0001871A  7  01 00 00 0F 03 1A 87 
    54)      9102.1  Rx     0011871A  5  01 00 00 1A 87 
    55)      9107.0  Rx     0001DBD8  7  01 00 00 0F 03 D8 DB 
    56)      9107.1  Rx     0011DBD8  5  01 00 00 D8 DB 
    57)      9112.0  Rx     00012E9F  7  01 00 00 0F 03 9F 2E 
    58)      9112.1  Rx     00112E9F  5  01 00 00 9F 2E 
    59)      9117.0  Rx     00019576  7  01 00 00 0F 03 76 95 
    60)      9117.1  Rx     00119576  5  01 00 00 76 95 
    61)      9122.0  Rx     00014262  7  01 00 00 0F 03 62 42 
    62)      9122.1  Rx     00114262  5  01 00 00 62 42 
    63)      9127.0  Rx     0001D30B  7  01 00 00 0F 03 0B D3 
    64)      9127.1  Rx     0011D30B  5  01 00 00 0B D3 
    65)      9132.0  Rx     0001FDB1  7  01 00 00 0F 03 B1 FD 
    66)      9132.1  Rx     0011FDB1  5  01 00 00 B1 FD 
    67)      9137.0  Rx     0001200F  7  01 00 00 0F 03 0F 20 
    68)      9137.1  Rx     0011200F  5  01 00 00 0F 20 
    69)      9142.0  Rx     0001C77C  7  01 00 00 0F 03 7C C7 
    70)      9142.1  Rx     0011C77C  5  01 00 00 7C C7 
    71)      9147.0  Rx     000122BD  7  01 00 00 0F 03 BD 22 
    72)      9147.1  Rx     001122BD  5  01 00 00 BD 22 
    73)      9152.0  Rx     00012CD6  7  01 00 00 0F 03 D6 2C 
    74)      9152.1  Rx     00112CD6  5  01 00 00 D6 2C 
    75)      9157.0  Rx     0001BE0D  7  01 00 00 0F 03 0D BE 
    76)      9157.1  Rx     0011BE0D  5  01 00 00 0D BE 
    77)      9162.0  Rx     00012E88  7  01 00 00 0F 03 88 2E 
    78)      9162.1  Rx     00112E88  5  01 00 00 88 2E 
    79)      9167.0  Rx     000136F0  7  01 00 00 0F 03 F0 36 
    80)      9167.1  Rx     001136F0  5  01 00 00 F0 36 
    81)      9172.0  Rx     00015D03  7  01 00 00 0F 03 03 5D 
    82)      9172.1  Rx     00115D03  5  01 00 00 03 5D 
    83)      9177.0  Rx     0001FAB1  7  01 00 00 0F 03 B1 FA 
    84)      9177.1  Rx     0011FAB1  5  01 00 00 B1 FA 
    85)      9182.0  Rx     00019FBB  7  01 00 00 0F 03 BB 9F 
    86)      9182.1  Rx     00119FBB  5  01 00 00 BB 9F 
    87)      9187.0  Rx     00019135  7  01 00 00 0F 03 35 91 
    88)      9187.1  Rx     00119135  5  01 00 00 35 91 
    89)      9192.0  Rx     000114AF  7  01 00 00 0F 03 AF 14 
    90)      9192.1  Rx     001114AF  5  01 00 00 AF 14 
    91)      9197.0  Rx     00018C66  7  01 00 00 0F 03 66 8C 
    92)      9197.1  Rx     00118C66  5  01 00 00 66 8C 
    93)      9202.0  Rx     0001CEAC  7  01 00 00 0F 03 AC CE 
    94)      9202.1  Rx     0011CEAC  5  01 00 00 AC CE 
    95)      9207.0  Rx     0001B70F  7  01 00 00 0F 03 0F B7 
    96)      9207.1  Rx     0011B70F  5  01 00 00 0F B7 
    97)      9212.0  Rx     0001E08A  7  01 00 00 0F 03 8A E0 
    98)      9212.1  Rx     0011E08A  5  01 00 00 8A E0 
    99)      9217.0  Rx     0001A7FD  7  01 00 00 0F 03 FD A7 
   100)      9217.1  Rx     0011A7FD  5  01 00 00 FD A7 
   101)      9221.9  Rx     00019570  7  01 00 00 0F 03 70 95 
   102)      9222.1  Rx     00119570  5  01 00 00 70 95 
   103)      9227.0  Rx     0001D714  7  01 00 00 0F 03 14 D7 
   104)      9227.1  Rx     0011D714  5  01 00 00 14 D7 
   105)      9232.0  Rx     000149EF  7  01 00 00 0F 03 EF 49 
   106)      9232.1  Rx     001149EF  5  01 00 00 EF 49 
   107)      9237.0  Rx     000138BA  7  01 00 00 0F 03 BA 38 
   108)      9237.1  Rx     001138BA  5  01 00 00 BA 38 
   109)      9242.0  Rx     00018367  7  01 00 00 0F 03 67 83 
   110)      9242.1  Rx     00118367  5  01 00 00 67 83 
   111)      9247.0  Rx     0001B4D2  7  01 00 00 0F 03 D2 B4 
   112)      9247.1  Rx     0011B4D2  5  01 00 00 D2 B4 
   113)      9251.9  Rx     00010319  7  01 00 00 0F 03 19 03 
   114)      9252.1  Rx     00110319  5  01 00 00 19 03 
   115)      9257.0  Rx     00015512  7  01 00 00 0F 03 12 55 
   116)      9257.1  Rx     00115512  5  01 00 00 12 55 
   117)      9262.0  Rx     000163D4  7  01 00 00 0F 03 D4 63 
   118)      9262.1  Rx     001163D4  5  01 00 00 D4 63 
   119)      9267.0  Rx     00018778  7  01 00 00 0F 03 78 87 
   120)      9267.1  Rx     00118778  5  01 00 00 78 87 
   121)      9272.0  Rx     0001D917  7  01 00 00 0F 03 17 D9 
   122)      9272.1  Rx     0011D917  5  01 00 00 17 D9 
   123)      9276.9  Rx     00017031  7  01 00 00 0F 03 31 70 
   124)      9277.1  Rx     00117031  5  01 00 00 31 70 
   125)      9282.0  Rx     0001D42E  7  01 00 00 0F 03 2E D4 
   126)      9282.1  Rx     0011D42E  5  01 00 00 2E D4 
   127)      9287.0  Rx     00019730  7  01 00 00 0F 03 30 97 
   128)      9287.1  Rx     00119730  5  01 00 00 30 97 
   129)      9292.0  Rx     0001EB80  7  01 00 00 0F 03 80 EB 
   130)      9292.1  Rx     0011EB80  5  01 00 00 80 EB 
   131)      9297.0  Rx     0001B03D  7  01 00 00 0F 03 3D B0 
   132)      9297.1  Rx     0011B03D  5  01 00 00 3D B0 
   133)      9301.9  Rx     0001E237  7  01 00 00 0F 03 37 E2 
   134)      9302.1  Rx     0011E237  5  01 00 00 37 E2 
   135)      9306.9  Rx     0001394C  7  01 00 00 0F 03 4C 39 
   136)      9307.1  Rx     0011394C  5  01 00 00 4C 39 
   137)      9312.0  Rx     000185E6  7  01 00 00 0F 03 E6 85 
   138)      9312.1  Rx     001185E6  5  01 00 00 E6 85 
   139)      9317.0  Rx     00014D5C  7  01 00 00 0F 03 5C 4D 
   140)      9317.1  Rx     00114D5C  5  01 00 00 5C 4D 
   141)      9322.0  Rx     000185D0  7  01 00 00 0F 03 D0 85 
   142)      9322.1  Rx     001185D0  5  01 00 00 D0 85 
   143)      9326.9  Rx     00019327  7  01 00 00 0F 03 27 93 
   144)      9327.1  Rx     00119327  5  01 00 00 27 93 
   145)      9331.9  Rx     00016F0B  7  01 00 00 0F 03 0B 6F 
   146)      9332.1  Rx     00116F0B  5  01 00 00 0B 6F 
   147)      9337.0  Rx     0001C976  7  01 00 00 0F 03 76 C9 
   148)      9337.1  Rx     0011C976  5  01 00 00 76 C9 
   149)      9342.0  Rx     0001328A  7  01 00 00 0F 03 8A 32 
   150)      9342.1  Rx     0011328A  5  01 00 00 8A 32 
   151)      9347.0  Rx     000167C8  7  01 00 00 0F 03 C8 67 
   152)      9347.1  Rx     001167C8  5  01 00 00 C8 67 
   153)      9352.0  Rx     0001BDD5  7  01 00 00 0F 03 D5 BD 
   154)      9352.1  Rx     0011BDD5  5  01 00 00 D5 BD 
   155)      9356.9  Rx     000154B9  7  01 00 00 0F 03 B9 54 
   156)      9357.1  Rx     001154B9  5  01 00 00 B9 54 
   157)      9361.9  Rx     000178FB  7  01 00 00 0F 03 FB 78 
   158)      9362.1  Rx     001178FB  5  01 00 00 FB 78 
   159)      9367.0  Rx     0001E447  7  01 00 00 0F 03 47 E4 
   160)      9367.1  Rx     0011E447  5  01 00 00 47 E4 
   161)      9372.0  Rx     00011801  7  01 00 00 0F 03 01 18 
   162)      9372.0  Rx     00111801  5  01 00 00 01 18 
   163)      9377.0  Rx     00011EE0  7  01 00 00 0F 03 E0 1E 
   164)      9377.1  Rx     00111EE0  5  01 00 00 E0 1E 
   165)      9381.9  Rx     000193D6  7  01 00 00 0F 03 D6 93 
   166)      9382.1  Rx     001193D6  5  01 00 00 D6 93 
   167)      9386.9  Rx     000182EF  7  01 00 00 0F 03 EF 82 
   168)      9387.1  Rx     001182EF  5  01 00 00 EF 82 
   169)      9391.9  Rx     0001A699  7  01 00 00 0F 03 99 A6 
   170)      9392.1  Rx     0011A699  5  01 00 00 99 A6 
   171)      9397.0  Rx     00018933  7  01 00 00 0F 03 33 89 
   172)      9397.0  Rx     00118933  5  01 00 00 33 89 
   173)      9402.0  Rx     0001D4B8  7  01 00 00 0F 03 B8 D4 
   174)      9402.0  Rx     0011D4B8  5  01 00 00 B8 D4 
   175)      9406.9  Rx     0001B927  7  01 00 00 0F 03 27 B9 
   176)      9407.1  Rx     0011B927  5  01 00 00 27 B9 
   177)      9411.9  Rx     00012426  7  01 00 00 0F 03 26 24 
   178)      9412.1  Rx     00112426  5  01 00 00 26 24 
   179)      9416.9  Rx     0001A14D  7  01 00 00 0F 03 4D A1 
   180)      9417.1  Rx     0011A14D  5  01 00 00 4D A1 
   181)      9422.0  Rx     000170C2  7  01 00 00 0F 03 C2 70 
   182)      9422.1  Rx     001170C2  5  01 00 00 C2 70 
   183)      9427.0  Rx     0001E810  7  01 00 00 0F 03 10 E8 
   184)      9427.0  Rx     0011E810  5  01 00 00 10 E8 
   185)      9432.0  Rx     000108A4  7  01 00 00 0F 03 A4 08 
   186)      9432.1  Rx     001108A4  5  01 00 00 A4 08 
   187)      9436.9  Rx     000150A0  7  01 00 00 0F 03 A0 50 
   188)      9437.1  Rx     001150A0  5  01 00 00 A0 50 
   189)      9441.9  Rx     0001E0EA  7  01 00 00 0F 03 EA E0 
   190)      9442.1  Rx     0011E0EA  5  01 00 00 EA E0 
   191)      9446.9  Rx     000123ED  7  01 00 00 0F 03 ED 23 
   192)      9447.1  Rx     001123ED  5  01 00 00 ED 23 
   193)      9452.0  Rx     00017B39  7  01 00 00 0F 03 39 7B 
   194)      9452.0  Rx     00117B39  5  01 00 00 39 7B 
   195)      9457.0  Rx     0001BCB8  7  01 00 00 0F 03 B8 BC 
   196)      9457.0  Rx     0011BCB8  5  01 00 00 B8 BC 
   197)      9461.9  Rx     00018211  7  01 00 00 0F 03 11 82 
   198)      9462.1  Rx     00118211  5  01 00 00 11 82 
   199)      9466.9  Rx     0001EA46  7  01 00 00 0F 03 46 EA 
   200)      9467.1  Rx     0011EA46  5  01 00 00 46 EA 
   201)      9471.9  Rx     000169A5  7  01 00 00 0F 03 A5 69 
   202)      9472.1  Rx     001169A5  5  01 00 00 A5 69 
   203)      9476.9  Rx     00018841  7  01 00 00 0F 03 41 88 
   204)      9477.0  Rx     00118841  5  01 00 00 41 88 
   205)      9482.0  Rx     00011CD3  7  01 00 00 0F 03 D3 1C 
   206)      9482.0  Rx     00111CD3  5  01 00 00 D3 1C 
   207)      9486.9  Rx     000122CB  7  01 00 00 0F 03 CB 22 
   208)      9487.0  Rx     001122CB  5  01 00 00 CB 22 
   209)      9491.9  Rx     0001A977  7  01 00 00 0F 03 77 A9 
   210)      9492.1  Rx     0011A977  5  01 00 00 77 A9 
   211)      9496.9  Rx     000138C9  7  01 00 00 0F 03 C9 38 
   212)      9497.1  Rx     001138C9  5  01 00 00 C9 38 
   213)      9501.9  Rx     00018921  7  01 00 00 0F 03 21 89 
   214)      9502.1  Rx     00118921  5  01 00 00 21 89 
   215)      9507.0  Rx     0001C2F8  7  01 00 00 0F 03 F8 C2 
   216)      9507.0  Rx     0011C2F8  5  01 00 00 F8 C2 
   217)      9511.9  Rx     0001FB03  7  01 00 00 0F 03 03 FB 
   218)      9512.1  Rx     0011FB03  5  01 00 00 03 FB 
   219)      9516.9  Rx     00017945  7  01 00 00 0F 03 45 79 
   220)      9517.0  Rx     00117945  5  01 00 00 45 79 
   221)      9521.9  Rx     0001318F  7  01 00 00 0F 03 8F 31 
   222)      9522.1  Rx     0011318F  5  01 00 00 8F 31 
   223)      9526.9  Rx     0001B47C  7  01 00 00 0F 03 7C B4 
   224)      9527.1  Rx     0011B47C  5  01 00 00 7C B4 
   225)      9531.9  Rx     00010A16  7  01 00 00 0F 03 16 0A 
   226)      9532.0  Rx     00110A16  5  01 00 00 16 0A 
   227)      9537.0  Rx     00016154  7  01 00 00 0F 03 54 61 
   228)      9537.0  Rx     00116154  5  01 00 00 54 61 
   229)      9541.9  Rx     00019A6D  7  01 00 00 0F 03 6D 9A 
   230)      9542.0  Rx     00119A6D  5  01 00 00 6D 9A 
   231)      9546.9  Rx     0001A25A  7  01 00 00 0F 03 5A A2 
   232)      9547.1  Rx     0011A25A  5  01 00 00 5A A2 
   233)      9551.9  Rx     00019866  7  01 00 00 0F 03 66 98 
   234)      9552.1  Rx     00119866  5  01 00 00 66 98 
   235)      9556.9  Rx     0001DD45  7  01 00 00 0F 03 45 DD 
   236)      9557.0  Rx     0011DD45  5  01 00 00 45 DD 
   237)      9562.0  Rx     0001FC97  7  01 00 00 0F 03 97 FC 
   238)      9562.0  Rx     0011FC97  5  01 00 00 97 FC 
   239)      9566.9  Rx     0001BCCB  7  01 00 00 0F 03 CB BC 
   240)      9567.0  Rx     0011BCCB  5  01 00 00 CB BC 
   241)      9571.9  Rx     000185CA  7  01 00 00 0F 03 CA 85 
   242)      9572.0  Rx     001185CA  5  01 00 00 CA 85 
   243)      9576.9  Rx     0001E6DA  7  01 00 00 0F 03 DA E6 
   244)      9577.1  Rx     0011E6DA  5  01 00 00 DA E6 
   245)      9581.9  Rx     0001DC0C  7  01 00 00 0F 03 0C DC 
   246)      9582.0  Rx     0011DC0C  5  01 00 00 0C DC 
   247)      9586.9  Rx     0001A3EA  7  01 00 00 0F 03 EA A3 
   248)      9587.0  Rx     0011A3EA  5  01 00 00 EA A3 
   249)      9591.9  Rx     0001D62E  7  01 00 00 0F 03 2E D6 
   250)      9592.0  Rx     0011D62E  5  01 00 00 2E D6 
   251)      9596.9  Rx     0001DEC9  7  01 00 00 0F 03 C9 DE 
   252)      9597.0  Rx     0011DEC9  5  01 00 00 C9 DE 
   253)      9601.9  Rx     00018A3F  7  01 00 00 0F 03 3F 8A 
   254)      9602.1  Rx     00118A3F  5  01 00 00 3F 8A 
   255)      9606.9  Rx     0001150D  7  01 00 00 0F 03 0D 15 
   256)      9607.1  Rx     0011150D  5  01 00 00 0D 15 
   257)      9611.9  Rx     0001CD43  7  01 00 00 0F 03 43 CD 
   258)      9612.0  Rx     0011CD43  5  01 00 00 43 CD 
   259)      9617.0  Rx     0001E306  7  01 00 00 0F 03 06 E3 
   260)      9617.0  Rx     0011E306  5  01 00 00 06 E3 
   261)      9621.9  Rx     0001BC30  7  01 00 00 0F 03 30 BC 
   262)      9622.0  Rx     0011BC30  5  01 00 00 30 BC 
   263)      9626.9  Rx     0001DAF3  7  01 00 00 0F 03 F3 DA 
   264)      9627.0  Rx     0011DAF3  5  01 00 00 F3 DA 
   265)      9631.9  Rx     0001F7F9  7  01 00 00 0F 03 F9 F7 
   266)      9632.1  Rx     0011F7F9  5  01 00 00 F9 F7 
   267)      9636.9  Rx     000115C2  7  01 00 00 0F 03 C2 15 
   268)      9637.0  Rx     001115C2  5  01 00 00 C2 15 
   269)      9641.9  Rx     00011839  7  01 00 00 0F 03 39 18 
   270)      9642.0  Rx     00111839  5  01 00 00 39 18 
   271)      9646.9  Rx     000180A2  7  01 00 00 0F 03 A2 80 
   272)      9647.0  Rx     001180A2  5  01 00 00 A2 80 
   273)      9651.9  Rx     000137AD  7  01 00 00 0F 03 AD 37 
   274)      9652.0  Rx     001137AD  5  01 00 00 AD 37 
   275)      9656.9  Rx     0001F132  7  01 00 00 0F 03 32 F1 
   276)      9657.1  Rx     0011F132  5  01 00 00 32 F1 
   277)      9661.9  Rx     0001CBA8  7  01 00 00 0F 03 A8 CB 
   278)      9662.0  Rx     0011CBA8  5  01 00 00 A8 CB 
   279)      9666.9  Rx     0001430D  7  01 00 00 0F 03 0D 43 
   280)      9667.0  Rx     0011430D  5  01 00 00 0D 43 
   281)      9671.9  Rx     0001E722  7  01 00 00 0F 03 22 E7 
   282)      9672.0  Rx     0011E722  5  01 00 00 22 E7 
   283)      9676.9  Rx     0001900F  7  01 00 00 0F 03 0F 90 
   284)      9677.0  Rx     0011900F  5  01 00 00 0F 90 
   285)      9681.9  Rx     00011010  7  01 00 00 0F 03 10 10 
   286)      9682.1  Rx     00111010  5  01 00 00 10 10 
   287)      9686.9  Rx     0001B978  7  01 00 00 0F 03 78 B9 
   288)      9687.1  Rx     0011B978  5  01 00 00 78 B9 
   289)      9691.9  Rx     0001C930  7  01 00 00 0F 03 30 C9 
   290)      9692.0  Rx     0011C930  5  01 00 00 30 C9 
   291)      9696.9  Rx     000112E0  7  01 00 00 0F 03 E0 12 
   292)      9697.0  Rx     001112E0  5  01 00 00 E0 12 
   293)      9701.9  Rx     0001CC5E  7  01 00 00 0F 03 5E CC 
   294)      9702.0  Rx     0011CC5E  5  01 00 00 5E CC 
   295)      9706.9  Rx     0001C89B  7  01 00 00 0F 03 9B C8 
   296)      9707.0  Rx     0011C89B  5  01 00 00 9B C8 
   297)      9711.9  Rx     0001453D  7  01 00 00 0F 03 3D 45 
   298)      9712.0  Rx     0011453D  5  01 00 00 3D 45 
   299)      9716.9  Rx     0001CDF9  7  01 00 00 0F 03 F9 CD 
   300)      9717.0  Rx     0011CDF9  5  01 00 00 F9 CD 
   301)      9721.9  Rx     000115AD  7  01 00 00 0F 03 AD 15 
   302)      9722.0  Rx     001115AD  5  01 00 00 AD 15 
   303)      9726.9  Rx     00016087  7  01 00 00 0F 03 87 60 
   304)      9727.0  Rx     00116087  5  01 00 00 87 60 
   305)      9731.9  Rx     0001416E  7  01 00 00 0F 03 6E 41 
   306)      9732.0  Rx     0011416E  5  01 00 00 6E 41 
   307)      9736.9  Rx     0001B841  7  01 00 00 0F 03 41 B8 
   308)      9737.0  Rx     0011B841  5  01 00 00 41 B8 
   309)      9741.9  Rx     0001BFDA  7  01 00 00 0F 03 DA BF 
   310)      9742.0  Rx     0011BFDA  5  01 00 00 DA BF 
   311)      9746.9  Rx     0001514C  7  01 00 00 0F 03 4C 51 
   312)      9747.0  Rx     0011514C  5  01 00 00 4C 51 
   313)      9751.9  Rx     0001669C  7  01 00 00 0F 03 9C 66 
   314)      9752.0  Rx     0011669C  5  01 00 00 9C 66 
   315)      9756.9  Rx     0001AEB6  7  01 00 00 0F 03 B6 AE 
   316)      9757.0  Rx     0011AEB6  5  01 00 00 B6 AE 
   317)      9761.9  Rx     0001EDD6  7  01 00 00 0F 03 D6 ED 
   318)      9762.0  Rx     0011EDD6  5  01 00 00 D6 ED 
   319)      9766.9  Rx     00011656  7  01 00 00 0F 03 56 16 
   320)      9767.0  Rx     00111656  5  01 00 00 56 16 
   321)      9771.9  Rx     00010607  7  01 00 00 0F 03 07 06 
   322)      9772.0  Rx     00110607  5  01 00 00 07 06 
   323)      9776.9  Rx     0001C4B1  7  01 00 00 0F 03 B1 C4 
   324)      9777.0  Rx     0011C4B1  5  01 00 00 B1 C4 
   325)      9781.9  Rx     0001B5BD  7  01 00 00 0F 03 BD B5 
   326)      9782.0  Rx     0011B5BD  5  01 00 00 BD B5 
   327)      9786.9  Rx     0001A49A  7  01 00 00 0F 03 9A A4 
   328)      9787.0  Rx     0011A49A  5  01 00 00 9A A4 
   329)      9791.9  Rx     000148CD  7  01 00 00 0F 03 CD 48 
   330)      9792.0  Rx     001148CD  5  01 00 00 CD 48 
   331)      9796.9  Rx     000190E9  7  01 00 00 0F 03 E9 90 
   332)      9797.0  Rx     001190E9  5  01 00 00 E9 90 
   333)      9801.9  Rx     000194A9  7  01 00 00 0F 03 A9 94 
   334)      9802.0  Rx     001194A9  5  01 00 00 A9 94 
   335)      9806.9  Rx     00015775  7  01 00 00 0F 03 75 57 
   336)      9807.0  Rx     00115775  5  01 00 00 75 57 
   337)      9811.9  Rx     00012D18  7  01 00 00 0F 03 18 2D 
   338)      9812.0  Rx     00112D18  5  01 00 00 18 2D 
   339)      9816.9  Rx     00018B39  7  01 00 00 0F 03 39 8B 
   340)      9817.0  Rx     00118B39  5  01 00 00 39 8B 
   341)      9821.9  Rx     00011247  7  01 00 00 0F 03 47 12 
   342)      9822.0  Rx     00111247  5  01 00 00 47 12 
   343)      9826.9  Rx     0001884E  7  01 00 00 0F 03 4E 88 
   344)      9827.0  Rx     0011884E  5  01 00 00 4E 88 
   345)      9831.9  Rx     00019D19  7  01 00 00 0F 03 19 9D 
   346)      9832.0  Rx     00119D19  5  01 00 00 19 9D 
   347)      9836.9  Rx     00014720  7  01 00 00 0F 03 20 47 
   348)      9837.0  Rx     00114720  5  01 00 00 20 47 
   349)      9841.8  Rx     00013C25  7  01 00 00 0F 03 25 3C 
   350)      9842.0  Rx     00113C25  5  01 00 00 25 3C 
   351)      9846.9  Rx     00019901  7  01 00 00 0F 03 01 99 
   352)      9847.0  Rx     00119901  5  01 00 00 01 99 
   353)      9851.9  Rx     000183B7  7  01 00 00 0F 03 B7 83 
   354)      9852.0  Rx     001183B7  5  01 00 00 B7 83 
   355)      9856.9  Rx     0001CF0C  7  01 00 00 0F 03 0C CF 
   356)      9857.0  Rx     0011CF0C  5  01 00 00 0C CF 
   357)      9861.9  Rx     000154D1  7  01 00 00 0F 03 D1 54 
   358)      9862.0  Rx     001154D1  5  01 00 00 D1 54 
   359)      9866.8  Rx     0001A0FB  7  01 00 00 0F 03 FB A0 
   360)      9867.0  Rx     0011A0FB  5  01 00 00 FB A0 
   361)      9871.9  Rx     0001CB06  7  01 00 00 0F 03 06 CB 
   362)      9872.0  Rx     0011CB06  5  01 00 00 06 CB 
   363)      9876.9  Rx     0001FC55  7  01 00 00 0F 03 55 FC 
   364)      9877.0  Rx     0011FC55  5  01 00 00 55 FC 
   365)      9881.9  Rx     000142A2  7  01 00 00 0F 03 A2 42 
   366)      9882.0  Rx     001142A2  5  01 00 00 A2 42 
   367)      9886.9  Rx     00014923  7  01 00 00 0F 03 23 49 
   368)      9887.0  Rx     00114923  5  01 00 00 23 49 
   369)      9891.9  Rx     00017C79  7  01 00 00 0F 03 79 7C 
   370)      9892.0  Rx     00117C79  5  01 00 00 79 7C 
   371)      9896.8  Rx     0001C00A  7  01 00 00 0F 03 0A C0 
   372)      9897.0  Rx     0011C00A  5  01 00 00 0A C0 
   373)      9901.9  Rx     00013253  7  01 00 00 0F 03 53 32 
   374)      9902.0  Rx     00113253  5  01 00 00 53 32 
   375)      9906.9  Rx     0001967E  7  01 00 00 0F 03 7E 96 
   376)      9907.0  Rx     0011967E  5  01 00 00 7E 96 
   377)      9911.9  Rx     0001D6D6  7  01 00 00 0F 03 D6 D6 
   378)      9912.0  Rx     0011D6D6  5  01 00 00 D6 D6 
   379)      9916.9  Rx     0001686E  7  01 00 00 0F 03 6E 68 
   380)      9917.0  Rx     0011686E  5  01 00 00 6E 68 
   381)      9921.8  Rx     00012955  7  01 00 00 0F 03 55 29 
   382)      9922.0  Rx     00112955  5  01 00 00 55 29 
   383)      9926.8  Rx     0001BF91  7  01 00 00 0F 03 91 BF 
   384)      9927.0  Rx     0011BF91  5  01 00 00 91 BF 
   385)      9931.9  Rx     000145EC  7  01 00 00 0F 03 EC 45 
   386)      9932.0  Rx     001145EC  5  01 00 00 EC 45 
   387)      9936.9  Rx     00010340  7  01 00 00 0F 03 40 03 
   388)      9937.0  Rx     00110340  5  01 00 00 40 03 
   389)      9941.9  Rx     00018FE0  7  01 00 00 0F 03 E0 8F 
   390)      9942.0  Rx     00118FE0  5  01 00 00 E0 8F 
   391)      9946.8  Rx     0001F084  7  01 00 00 0F 03 84 F0 
   392)      9947.0  Rx     0011F084  5  01 00 00 84 F0 
   393)      9951.8  Rx     00018406  7  01 00 00 0F 03 06 84 
   394)      9952.0  Rx     00118406  5  01 00 00 06 84 
   395)      9956.9  Rx     0001A0BD  7  01 00 00 0F 03 BD A0 
   396)      9957.0  Rx     0011A0BD  5  01 00 00 BD A0 
   397)      9961.9  Rx     0001BACD  7  01 00 00 0F 03 CD BA 
   398)      9962.0  Rx     0011BACD  5  01 00 00 CD BA 
   399)      9966.9  Rx     00013A0B  7  01 00 00 0F 03 0B 3A 
   400)      9967.0  Rx     00113A0B  5  01 00 00 0B 3A 
   401)      9971.9  Rx     0001B11E  7  01 00 00 0F 03 1E B1 
   402)      9972.0  Rx     0011B11E  5  01 00 00 1E B1 
   403)      9976.8  Rx     0001AB66  7  01 00 00 0F 03 66 AB 
   404)      9977.0  Rx     0011AB66  5  01 00 00 66 AB 
   405)      9981.8  Rx     00018125  7  01 00 00 0F 03 25 81 
   406)      9982.0  Rx     00118125  5  01 00 00 25 81 
   407)      9986.9  Rx     00013704  7  01 00 00 0F 03 04 37 
   408)      9987.0  Rx     00113704  5  01 00 00 04 37 
   409)      9991.9  Rx     00014BD0  7  01 00 00 0F 03 D0 4B 
   410)      9991.9  Rx     00114BD0  5  01 00 00 D0 4B 
   411)      9996.9  Rx     00012C81  7  01 00 00 0F 03 81 2C 
   412)      9997.0  Rx     00112C81  5  01 00 00 81 2C 
   413)     10001.8  Rx     0001D578  7  01 00 00 0F 03 78 D5 
   414)     10002.0  Rx     0011D578  5  01 00 00 78 D5 
   415)     10006.8  Rx     0001F4DF  7  01 00 00 0F 03 DF F4 
   416)     10007.0  Rx     0011F4DF  5  01 00 00 DF F4 
   417)     10011.9  Rx     00014C14  7  01 00 00 0F 03 14 4C 
   418)     10012.0  Rx     00114C14  5  01 00 00 14 4C 
   419)     10016.9  Rx     00013560  7  01 00 00 0F 03 60 35 
   420)     10016.9  Rx     00113560  5  01 00 00 60 35 
   421)     10021.9  Rx     00014AEE  7  01 00 00 0F 03 EE 4A 
   422)     10022.0  Rx     00114AEE  5  01 00 00 EE 4A 
   423)     10026.8  Rx     0001CAC1  7  01 00 00 0F 03 C1 CA 
   424)     10027.0  Rx     0011CAC1  5  01 00 00 C1 CA 
   425)     10031.8  Rx     000147AA  7  01 00 00 0F 03 AA 47 
   426)     10032.0  Rx     001147AA  5  01 00 00 AA 47 
   427)     10036.8  Rx     00010D63  7  01 00 00 0F 03 63 0D 
   428)     10037.0  Rx     00110D63  5  01 00 00 63 0D 
   429)     10041.9  Rx     00019E1E  7  01 00 00 0F 03 1E 9E 
   430)     10042.0  Rx     00119E1E  5  01 00 00 1E 9E 
   431)     10046.9  Rx     00011766  7  01 00 00 0F 03 66 17 
   432)     10046.9  Rx     00111766  5  01 00 00 66 17 
   433)     10051.8  Rx     00015053  7  01 00 00 0F 03 53 50 
   434)     10052.0  Rx     00115053  5  01 00 00 53 50 
   435)     10056.8  Rx     000198BD  7  01 00 00 0F 03 BD 98 
   436)     10057.0  Rx     001198BD  5  01 00 00 BD 98 
   437)     10061.8  Rx     00015DA1  7  01 00 00 0F 03 A1 5D 
   438)     10062.0  Rx     00115DA1  5  01 00 00 A1 5D 
   439)     10066.8  Rx     000111CA  7  01 00 00 0F 03 CA 11 
   440)     10067.0  Rx     001111CA  5  01 00 00 CA 11 
   441)     10071.9  Rx     000147C5  7  01 00 00 0F 03 C5 47 
   442)     10071.9  Rx     001147C5  5  01 00 00 C5 47 
   443)     10076.9  Rx     0001ABF9  7  01 00 00 0F 03 F9 AB 
   444)     10077.0  Rx     0011ABF9  5  01 00 00 F9 AB 
   445)     10081.8  Rx     00016265  7  01 00 00 0F 03 65 62 
   446)     10082.0  Rx     00116265  5  01 00 00 65 62 
   447)     10086.8  Rx     0001B085  7  01 00 00 0F 03 85 B0 
   448)     10087.0  Rx     0011B085  5  01 00 00 85 B0 
   449)     10091.8  Rx     0001A55B  7  01 00 00 0F 03 5B A5 
   450)     10092.0  Rx     0011A55B  5  01 00 00 5B A5 
   451)     10096.9  Rx     00013C3B  7  01 00 00 0F 03 3B 3C 
   452)     10096.9  Rx     00113C3B  5  01 00 00 3B 3C 
   453)     10101.9  Rx     000167C1  7  01 00 00 0F 03 C1 67 
   454)     10101.9  Rx     001167C1  5  01 00 00 C1 67 
   455)     10106.8  Rx     00015FF9  7  01 00 00 0F 03 F9 5F 
   456)     10107.0  Rx     00115FF9  5  01 00 00 F9 5F 
   457)     10111.8  Rx     0001CD8E  7  01 00 00 0F 03 8E CD 
   458)     10112.0  Rx     0011CD8E  5  01 00 00 8E CD 
   459)     10116.8  Rx     0001DC47  7  01 00 00 0F 03 47 DC 
   460)     10117.0  Rx     0011DC47  5  01 00 00 47 DC 
   461)     10121.8  Rx     00019B4C  7  01 00 00 0F 03 4C 9B 
   462)     10121.9  Rx     00119B4C  5  01 00 00 4C 9B 
   463)     10126.9  Rx     0001CF2E  7  01 00 00 0F 03 2E CF 
   464)     10126.9  Rx     0011CF2E  5  01 00 00 2E CF 
   465)     10131.8  Rx     0001E327  7  01 00 00 0F 03 27 E3 
   466)     10131.9  Rx     0011E327  5  01 00 00 27 E3 
   467)     10136.8  Rx     0001EA41  7  01 00 00 0F 03 41 EA 
   468)     10137.0  Rx     0011EA41  5  01 00 00 41 EA 
   469)     10141.8  Rx     0001346C  7  01 00 00 0F 03 6C 34 
   470)     10142.0  Rx     0011346C  5  01 00 00 6C 34 
   471)     10146.8  Rx     0001E777  7  01 00 00 0F 03 77 E7 
   472)     10147.0  Rx     0011E777  5  01 00 00 77 E7 
   473)     10151.9  Rx     00010A30  7  01 00 00 0F 03 30 0A 
   474)     10151.9  Rx     00110A30  5  01 00 00 30 0A 
   475)     10156.9  Rx     0001EE39  7  01 00 00 0F 03 39 EE 
   476)     10156.9  Rx     0011EE39  5  01 00 00 39 EE 
   477)     10161.8  Rx     0001F7B0  7  01 00 00 0F 03 B0 F7 
   478)     10162.0  Rx     0011F7B0  5  01 00 00 B0 F7 
   479)     10166.8  Rx     000166DC  7  01 00 00 0F 03 DC 66 
   480)     10167.0  Rx     001166DC  5  01 00 00 DC 66 
   481)     10171.8  Rx     000150AE  7  01 00 00 0F 03 AE 50 
   482)     10172.0  Rx     001150AE  5  01 00 00 AE 50 
   483)     10176.8  Rx     0001E964  7  01 00 00 0F 03 64 E9 
   484)     10176.9  Rx     0011E964  5  01 00 00 64 E9 
   485)     10181.9  Rx     0001CDDD  7  01 00 00 0F 03 DD CD 
   486)     10181.9  Rx     0011CDDD  5  01 00 00 DD CD 
   487)     10186.8  Rx     0001DD36  7  01 00 00 0F 03 36 DD 
   488)     10186.9  Rx     0011DD36  5  01 00 00 36 DD 
   489)     10191.8  Rx     0001DD10  7  01 00 00 0F 03 10 DD 
   490)     10192.0  Rx     0011DD10  5  01 00 00 10 DD 
   491)     10196.8  Rx     00019E2A  7  01 00 00 0F 03 2A 9E 
   492)     10197.0  Rx     00119E2A  5  01 00 00 2A 9E 
   493)     10201.8  Rx     000152C9  7  01 00 00 0F 03 C9 52 
   494)     10201.9  Rx     001152C9  5  01 00 00 C9 52 
   495)     10206.8  Rx     00015C19  7  01 00 00 0F 03 19 5C 
   496)     10206.9  Rx     00115C19  5  01 00 00 19 5C 
   497)     10211.8  Rx     0001E665  7  01 00 00 0F 03 65 E6 
   498)     10211.9  Rx     0011E665  5  01 00 00 65 E6 
   499)     10216.8  Rx     0001E8E3  7  01 00 00 0F 03 E3 E8 
   500)     10217.0  Rx     0011E8E3  5  01 00 00 E3 E8 
   501)     10221.8  Rx     000163EB  7  01 00 00 0F 03 EB 63 
   502)     10222.0  Rx     001163EB  5  01 00 00 EB 63 
   503)     10226.8  Rx     00016176  7  01 00 00 0F 03 76 61 
   504)     10227.0  Rx     00116176  5  01 00 00 76 61 
   505)     10231.8  Rx     0001D650  7  01 00 00 0F 03 50 D6 
   506)     10231.9  Rx     0011D650  5  01 00 00 50 D6 
   507)     10236.8  Rx     00011160  7  01 00 00 0F 03 60 11 
   508)     10236.9  Rx     00111160  5  01 00 00 60 11 
   509)     10241.8  Rx     0001B6AE  7  01 00 00 0F 03 AE B6 
   510)     10241.9  Rx     0011B6AE  5  01 00 00 AE B6 
   511)     10246.8  Rx     00018CFC  7  01 00 00 0F 03 FC 8C 
   512)     10247.0  Rx     00118CFC  5  01 00 00 FC 8C 
   513)     10251.8  Rx     00014CBB  7  01 00 00 0F 03 BB 4C 
   514)     10252.0  Rx     00114CBB  5  01 00 00 BB 4C 
   515)     10256.8  Rx     0001112B  7  01 00 00 0F 03 2B 11 
   516)     10256.9  Rx     0011112B  5  01 00 00 2B 11 
   517)     10261.8  Rx     00015E88  7  01 00 00 0F 03 88 5E 
   518)     10261.9  Rx     00115E88  5  01 00 00 88 5E 
   519)     10266.8  Rx     00018041  7  01 00 00 0F 03 41 80 
   520)     10266.9  Rx     00118041  5  01 00 00 41 80 
   521)     10271.8  Rx     0001394D  7  01 00 00 0F 03 4D 39 
   522)     10271.9  Rx     0011394D  5  01 00 00 4D 39 
   523)     10276.8  Rx     0001EA8D  7  01 00 00 0F 03 8D EA 
   524)     10277.0  Rx     0011EA8D  5  01 00 00 8D EA 
   525)     10281.8  Rx     000162CD  7  01 00 00 0F 03 CD 62 
   526)     10281.9  Rx     001162CD  5  01 00 00 CD 62 
   527)     10286.8  Rx     0001B5A3  7  01 00 00 0F 03 A3 B5 
   528)     10286.9  Rx     0011B5A3  5  01 00 00 A3 B5 
   529)     10291.8  Rx     0001E29B  7  01 00 00 0F 03 9B E2 
   530)     10291.9  Rx     0011E29B  5  01 00 00 9B E2 
   531)     10296.8  Rx     0001F053  7  01 00 00 0F 03 53 F0 
   532)     10296.9  Rx     0011F053  5  01 00 00 53 F0 
   533)     10301.8  Rx     00014C43  7  01 00 00 0F 03 43 4C 
   534)     10301.9  Rx     00114C43  5  01 00 00 43 4C 
   535)     10306.8  Rx     00013DEF  7  01 00 00 0F 03 EF 3D 
   536)     10306.9  Rx     00113DEF  5  01 00 00 EF 3D 
   537)     10311.8  Rx     0001F721  7  01 00 00 0F 03 21 F7 
   538)     10311.9  Rx     0011F721  5  01 00 00 21 F7 
   539)     10316.8  Rx     00012A50  7  01 00 00 0F 03 50 2A 
   540)     10316.9  Rx     00112A50  5  01 00 00 50 2A 
   541)     10321.8  Rx     0001C274  7  01 00 00 0F 03 74 C2 
   542)     10321.9  Rx     0011C274  5  01 00 00 74 C2 
   543)     10326.8  Rx     000194BE  7  01 00 00 0F 03 BE 94 
   544)     10326.9  Rx     001194BE  5  01 00 00 BE 94 
   545)     10331.8  Rx     0001A7EE  7  01 00 00 0F 03 EE A7 
   546)     10332.0  Rx     0011A7EE  5  01 00 00 EE A7 
   547)     10336.8  Rx     00018AA0  7  01 00 00 0F 03 A0 8A 
   548)     10336.9  Rx     00118AA0  5  01 00 00 A0 8A 
   549)     10341.8  Rx     0001FCC6  7  01 00 00 0F 03 C6 FC 
   550)     10341.9  Rx     0011FCC6  5  01 00 00 C6 FC 
   551)     10346.8  Rx     00017FA2  7  01 00 00 0F 03 A2 7F 
   552)     10346.9  Rx     00117FA2  5  01 00 00 A2 7F 
   553)     10351.8  Rx     0001A921  7  01 00 00 0F 03 21 A9 
   554)     10351.9  Rx     0011A921  5  01 00 00 21 A9 
   555)     10356.8  Rx     00014FB2  7  01 00 00 0F 03 B2 4F 
   556)     10357.0  Rx     00114FB2  5  01 00 00 B2 4F 
   557)     10361.8  Rx     0001774B  7  01 00 00 0F 03 4B 77 
   558)     10361.9  Rx     0011774B  5  01 00 00 4B 77 
   559)     10366.8  Rx     0001CC04  7  01 00 00 0F 03 04 CC 
   560)     10366.9  Rx     0011CC04  5  01 00 00 04 CC 
   561)     10371.8  Rx     00015416  7  01 00 00 0F 03 16 54 
   562)     10371.9  Rx     00115416  5  01 00 00 16 54 
   563)     10376.8  Rx     00014F03  7  01 00 00 0F 03 03 4F 
   564)     10376.9  Rx     00114F03  5  01 00 00 03 4F 
   565)     10381.8  Rx     00015F59  7  01 00 00 0F 03 59 5F 
   566)     10381.9  Rx     00115F59  5  01 00 00 59 5F 
   567)     10386.8  Rx     00012BCA  7  01 00 00 0F 03 CA 2B 
   568)     10386.9  Rx     00112BCA  5  01 00 00 CA 2B 
   569)     10391.8  Rx     0001AB5F  7  01 00 00 0F 03 5F AB 
   570)     10391.9  Rx     0011AB5F  5  01 00 00 5F AB 
   571)     10396.8  Rx     000144A9  7  01 00 00 0F 03 A9 44 
   572)     10396.9  Rx     001144A9  5  01 00 00 A9 44 
   573)     10401.8  Rx     000143D8  7  01 00 00 0F 03 D8 43 
   574)     10401.9  Rx     001143D8  5  01 00 00 D8 43 
   575)     10406.8  Rx     0001F0BC  7  01 00 00 0F 03 BC F0 
   576)     10406.9  Rx     0011F0BC  5  01 00 00 BC F0 
   577)     10411.8  Rx     00015874  7  01 00 00 0F 03 74 58 
   578)     10411.9  Rx     00115874  5  01 00 00 74 58 
   579)     10416.8  Rx     00012396  7  01 00 00 0F 03 96 23 
   580)     10416.9  Rx     00112396  5  01 00 00 96 23 
   581)     10421.8  Rx     0001915D  7  01 00 00 0F 03 5D 91 
   582)     10421.9  Rx     0011915D  5  01 00 00 5D 91 
   583)     10426.8  Rx     000106A3  7  01 00 00 0F 03 A3 06 
   584)     10426.9  Rx     001106A3  5  01 00 00 A3 06 
   585)     10431.8  Rx     0001F32A  7  01 00 00 0F 03 2A F3 
   586)     10431.9  Rx     0011F32A  5  01 00 00 2A F3 
   587)     10436.8  Rx     00016699  7  01 00 00 0F 03 99 66 
   588)     10436.9  Rx     00116699  5  01 00 00 99 66 
   589)     10441.8  Rx     000129F9  7  01 00 00 0F 03 F9 29 
   590)     10441.9  Rx     001129F9  5  01 00 00 F9 29 
   591)     10446.8  Rx     00019035  7  01 00 00 0F 03 35 90 
   592)     10446.9  Rx     00119035  5  01 00 00 35 90 
   593)     10451.8  Rx     0001CEE3  7  01 00 00 0F 03 E3 CE 
   594)     10451.9  Rx     0011CEE3  5  01 00 00 E3 CE 
   595)     10456.8  Rx     00015A23  7  01 00 00 0F 03 23 5A 
   596)     10456.9  Rx     00115A23  5  01 00 00 23 5A 
   597)     10461.8  Rx     0001F0D1  7  01 00 00 0F 03 D1 F0 
   598)     10461.9  Rx     0011F0D1  5  01 00 00 D1 F0 
   599)     10466.8  Rx     0001DAB3  7  01 00 00 0F 03 B3 DA 
   600)     10466.9  Rx     0011DAB3  5  01 00 00 B3 DA 
   601)     10471.8  Rx     00013589  7  01 00 00 0F 03 89 35 
   602)     10471.9  Rx     00113589  5  01 00 00 89 35 
   603)     10476.8  Rx     00017ACE  7  01 00 00 0F 03 CE 7A 
   604)     10476.9  Rx     00117ACE  5  01 00 00 CE 7A 
   605)     10481.8  Rx     0001596D  7  01 00 00 0F 03 6D 59 
   606)     10481.9  Rx     0011596D  5  01 00 00 6D 59 
   607)     10486.8  Rx     0001184E  7  01 00 00 0F 03 4E 18 
   608)     10486.9  Rx     0011184E  5  01 00 00 4E 18 
   609)     10491.8  Rx     0001703B  7  01 00 00 0F 03 3B 70 
   610)     10491.9  Rx     0011703B  5  01 00 00 3B 70 
   611)     10496.8  Rx     0001B09D  7  01 00 00 0F 03 9D B0 
   612)     10496.9  Rx     0011B09D  5  01 00 00 9D B0 
   613)     10501.8  Rx     0001FED1  7  01 00 00 0F 03 D1 FE 
   614)     10501.9  Rx     0011FED1  5  01 00 00 D1 FE 
   615)     10506.8  Rx     00014D4D  7  01 00 00 0F 03 4D 4D 
   616)     10506.9  Rx     00114D4D  5  01 00 00 4D 4D 
   617)     10511.8  Rx     0001D1C4  7  01 00 00 0F 03 C4 D1 
   618)     10511.9  Rx     0011D1C4  5  01 00 00 C4 D1 
   619)     10516.8  Rx     0001BF03  7  01 00 00 0F 03 03 BF 
   620)     10516.9  Rx     0011BF03  5  01 00 00 03 BF 
   621)     10521.8  Rx     00012A4C  7  01 00 00 0F 03 4C 2A 
   622)     10521.9  Rx     00112A4C  5  01 00 00 4C 2A 
   623)     10526.8  Rx     0001FBEF  7  01 00 00 0F 03 EF FB 
   624)     10526.9  Rx     0011FBEF  5  01 00 00 EF FB 
   625)     10531.8  Rx     0001C6CF  7  01 00 00 0F 03 CF C6 
   626)     10531.9  Rx     0011C6CF  5  01 00 00 CF C6 
   627)     10536.8  Rx     000165A5  7  01 00 00 0F 03 A5 65 
   628)     10536.9  Rx     001165A5  5  01 00 00 A5 65 
   629)     10541.8  Rx     00016E12  7  01 00 00 0F 03 12 6E 
   630)     10541.9  Rx     00116E12  5  01 00 00 12 6E 
   631)     10546.8  Rx     00010710  7  01 00 00 0F 03 10 07 
   632)     10546.9  Rx     00110710  5  01 00 00 10 07 
   633)     10551.8  Rx     0001DFDB  7  01 00 00 0F 03 DB DF 
   634)     10551.9  Rx     0011DFDB  5  01 00 00 DB DF 
   635)     10556.8  Rx     0001DDDE  7  01 00 00 0F 03 DE DD 
   636)     10556.9  Rx     0011DDDE  5  01 00 00 DE DD 
   637)     10561.8  Rx     00012B8B  7  01 00 00 0F 03 8B 2B 
   638)     10561.9  Rx     00112B8B  5  01 00 00 8B 2B 
   639)     10566.8  Rx     0001838D  7  01 00 00 0F 03 8D 83 
   640)     10566.9  Rx     0011838D  5  01 00 00 8D 83 
   641)     10571.8  Rx     0001ECEF  7  01 00 00 0F 03 EF EC 
   642)     10571.9  Rx     0011ECEF  5  01 00 00 EF EC 
   643)     10576.8  Rx     00010D06  7  01 00 00 0F 03 06 0D 
   644)     10576.9  Rx     00110D06  5  01 00 00 06 0D 
   645)     10581.8  Rx     00012568  7  01 00 00 0F 03 68 25 
   646)     10581.9  Rx     00112568  5  01 00 00 68 25 
   647)     10586.8  Rx     00018868  7  01 00 00 0F 03 68 88 
   648)     10586.9  Rx     00118868  5  01 00 00 68 88 
   649)     10591.8  Rx     0001130D  7  01 00 00 0F 03 0D 13 
   650)     10591.9  Rx     0011130D  5  01 00 00 0D 13 
   651)     10596.8  Rx     0001EF71  7  01 00 00 0F 03 71 EF 
   652)     10596.9  Rx     0011EF71  5  01 00 00 71 EF 
   653)     10601.8  Rx     00011579  7  01 00 00 0F 03 79 15 
   654)     10601.9  Rx     00111579  5  01 00 00 79 15 
   655)     10606.8  Rx     0001FDAA  7  01 00 00 0F 03 AA FD 
   656)     10606.9  Rx     0011FDAA  5  01 00 00 AA FD 
   657)     10611.8  Rx     0001C367  7  01 00 00 0F 03 67 C3 
   658)     10611.9  Rx     0011C367  5  01 00 00 67 C3 
   659)     10616.8  Rx     0001C439  7  01 00 00 0F 03 39 C4 
   660)     10616.9  Rx     0011C439  5  01 00 00 39 C4 
   661)     10621.8  Rx     00013A40  7  01 00 00 0F 03 40 3A 
   662)     10621.9  Rx     00113A40  5  01 00 00 40 3A 
   663)     10626.8  Rx     00015E0B  7  01 00 00 0F 03 0B 5E 
   664)     10626.9  Rx     00115E0B  5  01 00 00 0B 5E 
   665)     10631.8  Rx     0001E453  7  01 00 00 0F 03 53 E4 
   666)     10631.9  Rx     0011E453  5  01 00 00 53 E4 
   667)     10636.8  Rx     000181BB  7  01 00 00 0F 03 BB 81 
   668)     10636.9  Rx     001181BB  5  01 00 00 BB 81 
   669)     10641.8  Rx     0001DC44  7  01 00 00 0F 03 44 DC 
   670)     10641.9  Rx     0011DC44  5  01 00 00 44 DC 
   671)     10646.8  Rx     00019F53  7  01 00 00 0F 03 53 9F 
   672)     10646.9  Rx     00119F53  5  01 00 00 53 9F 
   673)     10651.8  Rx     0001D3FE  7  01 00 00 0F 03 FE D3 
   674)     10651.9  Rx     0011D3FE  5  01 00 00 FE D3 
   675)     10656.8  Rx     00010AE2  7  01 00 00 0F 03 E2 0A 
   676)     10656.9  Rx     00110AE2  5  01 00 00 E2 0A 
   677)     10661.8  Rx     0001EF26  7  01 00 00 0F 03 26 EF 
   678)     10661.9  Rx     0011EF26  5  01 00 00 26 EF 
   679)     10666.8  Rx     0001ED7E  7  01 00 00 0F 03 7E ED 
   680)     10666.9  Rx     0011ED7E  5  01 00 00 7E ED 
   681)     10671.8  Rx     000170E2  7  01 00 00 0F 03 E2 70 
   682)     10671.9  Rx     001170E2  5  01 00 00 E2 70 
   683)     10676.8  Rx     00018D25  7  01 00 00 0F 03 25 8D 
   684)     10676.9  Rx     00118D25  5  01 00 00 25 8D 
   685)     10681.8  Rx     00019674  7  01 00 00 0F 03 74 96 
   686)     10681.9  Rx     00119674  5  01 00 00 74 96 
   687)     10686.8  Rx     000188A1  7  01 00 00 0F 03 A1 88 
   688)     10686.9  Rx     001188A1  5  01 00 00 A1 88 
   689)     10691.8  Rx     00014FF7  7  01 00 00 0F 03 F7 4F 
   690)     10691.9  Rx     00114FF7  5  01 00 00 F7 4F 
   691)     10696.8  Rx     0001CF51  7  01 00 00 0F 03 51 CF 
   692)     10696.9  Rx     0011CF51  5  01 00 00 51 CF 
   693)     10701.8  Rx     0001B640  7  01 00 00 0F 03 40 B6 
   694)     10701.9  Rx     0011B640  5  01 00 00 40 B6 
   695)     10706.8  Rx     0001958E  7  01 00 00 0F 03 8E 95 
   696)     10706.9  Rx     0011958E  5  01 00 00 8E 95 
   697)     10711.8  Rx     00018CAC  7  01 00 00 0F 03 AC 8C 
   698)     10711.9  Rx     00118CAC  5  01 00 00 AC 8C 
   699)     10716.8  Rx     00017D06  7  01 00 00 0F 03 06 7D 
   700)     10716.9  Rx     00117D06  5  01 00 00 06 7D 
   701)     10721.8  Rx     00018F6E  7  01 00 00 0F 03 6E 8F 
   702)     10721.9  Rx     00118F6E  5  01 00 00 6E 8F 
   703)     10726.8  Rx     0001DD38  7  01 00 00 0F 03 38 DD 
   704)     10726.9  Rx     0011DD38  5  01 00 00 38 DD 
   705)     10731.8  Rx     00012294  7  01 00 00 0F 03 94 22 
   706)     10731.9  Rx     00112294  5  01 00 00 94 22 
   707)     10736.8  Rx     00017B02  7  01 00 00 0F 03 02 7B 
   708)     10736.9  Rx     00117B02  5  01 00 00 02 7B 
   709)     10741.8  Rx     00013BD0  7  01 00 00 0F 03 D0 3B 
   710)     10741.9  Rx     00113BD0  5  01 00 00 D0 3B 
   711)     10746.8  Rx     0001AAD7  7  01 00 00 0F 03 D7 AA 
   712)     10746.9  Rx     0011AAD7  5  01 00 00 D7 AA 
   713)     10751.8  Rx     0001B8DF  7  01 00 00 0F 03 DF B8 
   714)     10751.9  Rx     0011B8DF  5  01 00 00 DF B8 
   715)     10756.8  Rx     0001281F  7  01 00 00 0F 03 1F 28 
   716)     10756.9  Rx     0011281F  5  01 00 00 1F 28 
   717)     10761.8  Rx     000145F3  7  01 00 00 0F 03 F3 45 
   718)     10761.9  Rx     001145F3  5  01 00 00 F3 45 
   719)     10766.8  Rx     000198CB  7  01 00 00 0F 03 CB 98 
   720)     10766.9  Rx     001198CB  5  01 00 00 CB 98 
   721)     10771.8  Rx     0001E78E  7  01 00 00 0F 03 8E E7 
   722)     10771.9  Rx     0011E78E  5  01 00 00 8E E7 
   723)     10776.8  Rx     0001D71D  7  01 00 00 0F 03 1D D7 
   724)     10776.9  Rx     0011D71D  5  01 00 00 1D D7 
   725)     10781.8  Rx     000148B6  7  01 00 00 0F 03 B6 48 
   726)     10781.9  Rx     001148B6  5  01 00 00 B6 48 
   727)     10786.8  Rx     00016441  7  01 00 00 0F 03 41 64 
   728)     10786.9  Rx     00116441  5  01 00 00 41 64 
   729)     10791.8  Rx     00012264  7  01 00 00 0F 03 64 22 
   730)     10791.9  Rx     00112264  5  01 00 00 64 22 
   731)     10796.8  Rx     0001E120  7  01 00 00 0F 03 20 E1 
   732)     10796.9  Rx     0011E120  5  01 00 00 20 E1 
   733)     10801.8  Rx     00016A9F  7  01 00 00 0F 03 9F 6A 
   734)     10801.9  Rx     00116A9F  5  01 00 00 9F 6A 
   735)     10806.8  Rx     0001B796  7  01 00 00 0F 03 96 B7 
   736)     10806.9  Rx     0011B796  5  01 00 00 96 B7 
   737)     10811.8  Rx     0001E59E  7  01 00 00 0F 03 9E E5 
   738)     10811.9  Rx     0011E59E  5  01 00 00 9E E5 
   739)     10816.8  Rx     00012CF7  7  01 00 00 0F 03 F7 2C 
   740)     10816.9  Rx     00112CF7  5  01 00 00 F7 2C 
   741)     10821.8  Rx     0001ECEC  7  01 00 00 0F 03 EC EC 
   742)     10821.9  Rx     0011ECEC  5  01 00 00 EC EC 
   743)     10826.8  Rx     0001F77E  7  01 00 00 0F 03 7E F7 
   744)     10826.9  Rx     0011F77E  5  01 00 00 7E F7 
   745)     10831.8  Rx     0001AC62  7  01 00 00 0F 03 62 AC 
   746)     10831.9  Rx     0011AC62  5  01 00 00 62 AC 
   747)     10836.8  Rx     00015F21  7  01 00 00 0F 03 21 5F 
   748)     10836.9  Rx     00115F21  5  01 00 00 21 5F 
   749)     10841.8  Rx     0001D26B  7  01 00 00 0F 03 6B D2 
   750)     10841.9  Rx     0011D26B  5  01 00 00 6B D2 
   751)     10846.8  Rx     00011EE3  7  01 00 00 0F 03 E3 1E 
   752)     10846.9  Rx     00111EE3  5  01 00 00 E3 1E 
   753)     10851.8  Rx     000114F7  7  01 00 00 0F 03 F7 14 
   754)     10851.9  Rx     001114F7  5  01 00 00 F7 14 
   755)     10856.8  Rx     00012E8F  7  01 00 00 0F 03 8F 2E 
   756)     10856.9  Rx     00112E8F  5  01 00 00 8F 2E 
   757)     10861.8  Rx     00015609  7  01 00 00 0F 03 09 56 
   758)     10861.9  Rx     00115609  5  01 00 00 09 56 
   759)     10866.8  Rx     00017D8D  7  01 00 00 0F 03 8D 7D 
   760)     10866.9  Rx     00117D8D  5  01 00 00 8D 7D 
   761)     10871.8  Rx     0001E6B9  7  01 00 00 0F 03 B9 E6 
   762)     10871.9  Rx     0011E6B9  5  01 00 00 B9 E6 
   763)     10876.8  Rx     0001C629  7  01 00 00 0F 03 29 C6 
   764)     10876.9  Rx     0011C629  5  01 00 00 29 C6 
   765)     10881.7  Rx     00018D2B  7  01 00 00 0F 03 2B 8D 
   766)     10881.9  Rx     00118D2B  5  01 00 00 2B 8D 
   767)     10886.8  Rx     0001A185  7  01 00 00 0F 03 85 A1 
   768)     10886.9  Rx     0011A185  5  01 00 00 85 A1 
   769)     10891.8  Rx     00011DC9  7  01 00 00 0F 03 C9 1D 
   770)     10891.9  Rx     00111DC9  5  01 00 00 C9 1D 
   771)     10896.8  Rx     0001FF12  7  01 00 00 0F 03 12 FF 
   772)     10896.9  Rx     0011FF12  5  01 00 00 12 FF 
   773)     10901.8  Rx     0001E9BF  7  01 00 00 0F 03 BF E9 
   774)     10901.9  Rx     0011E9BF  5  01 00 00 BF E9 
   775)     10906.7  Rx     0001073A  7  01 00 00 0F 03 3A 07 
   776)     10906.9  Rx     0011073A  5  01 00 00 3A 07 
   777)     10911.7  Rx     00010C87  7  01 00 00 0F 03 87 0C 
   778)     10911.9  Rx     00110C87  5  01 00 00 87 0C 
   779)     10916.8  Rx     0001B7AB  7  01 00 00 0F 03 AB B7 
   780)     10916.9  Rx     0011B7AB  5  01 00 00 AB B7 
   781)     10921.8  Rx     0001D810  7  01 00 00 0F 03 10 D8 
   782)     10921.9  Rx     0011D810  5  01 00 00 10 D8 
   783)     10926.8  Rx     00010860  7  01 00 00 0F 03 60 08 
   784)     10926.9  Rx     00110860  5  01 00 00 60 08 
   785)     10931.7  Rx     00015AC0  7  01 00 00 0F 03 C0 5A 
   786)     10931.9  Rx     00115AC0  5  01 00 00 C0 5A 
   787)     10936.7  Rx     00012B58  7  01 00 00 0F 03 58 2B 
   788)     10936.9  Rx     00112B58  5  01 00 00 58 2B 
   789)     10941.8  Rx     0001405D  7  01 00 00 0F 03 5D 40 
   790)     10941.9  Rx     0011405D  5  01 00 00 5D 40 
   791)     10946.8  Rx     0001919B  7  01 00 00 0F 03 9B 91 
   792)     10946.9  Rx     0011919B  5  01 00 00 9B 91 
   793)     10951.8  Rx     000116A6  7  01 00 00 0F 03 A6 16 
   794)     10951.9  Rx     001116A6  5  01 00 00 A6 16 
   795)     10956.8  Rx     00013B03  7  01 00 00 0F 03 03 3B 
   796)     10956.9  Rx     00113B03  5  01 00 00 03 3B 
   797)     10961.7  Rx     00011C27  7  01 00 00 0F 03 27 1C 
   798)     10961.9  Rx     00111C27  5  01 00 00 27 1C 
   799)     10966.8  Rx     00010ADF  7  01 00 00 0F 03 DF 0A 
   800)     10966.9  Rx     00110ADF  5  01 00 00 DF 0A 
   801)     10971.8  Rx     0001CF83  7  01 00 00 0F 03 83 CF 
   802)     10971.9  Rx     0011CF83  5  01 00 00 83 CF 
   803)     10976.8  Rx     0001BA64  7  01 00 00 0F 03 64 BA 
   804)     10976.8  Rx     0011BA64  5  01 00 00 64 BA 
   805)     10981.8  Rx     00011B4D  7  01 00 00 0F 03 4D 1B 
   806)     10981.9  Rx     00111B4D  5  01 00 00 4D 1B 
   807)     10986.7  Rx     00010E94  7  01 00 00 0F 03 94 0E 
   808)     10986.9  Rx     00110E94  5  01 00 00 94 0E 
   809)     10991.7  Rx     00019E2C  7  01 00 00 0F 03 2C 9E 
   810)     10991.9  Rx     00119E2C  5  01 00 00 2C 9E 
   811)     10996.8  Rx     0001C9FE  7  01 00 00 0F 03 FE C9 
   812)     10996.9  Rx     0011C9FE  5  01 00 00 FE C9 
   813)     11001.8  Rx     000100D9  7  01 00 00 0F 03 D9 00 
   814)     11001.8  Rx     001100D9  5  01 00 00 D9 00 
   815)     11006.8  Rx     0001537C  7  01 00 00 0F 03 7C 53 
   816)     11006.9  Rx     0011537C  5  01 00 00 7C 53 
   817)     11011.7  Rx     00013736  7  01 00 00 0F 03 36 37 
   818)     11011.9  Rx     00113736  5  01 00 00 36 37 
   819)     11016.7  Rx     000121E8  7  01 00 00 0F 03 E8 21 
   820)     11016.9  Rx     001121E8  5  01 00 00 E8 21 
   821)     11021.7  Rx     00016B96  7  01 00 00 0F 03 96 6B 
   822)     11021.9  Rx     00116B96  5  01 00 00 96 6B 
   823)     11026.8  Rx     00015954  7  01 00 00 0F 03 54 59 
   824)     11026.9  Rx     00115954  5  01 00 00 54 59 
   825)     11031.8  Rx     0001FAEA  7  01 00 00 0F 03 EA FA 
   826)     11031.9  Rx     0011FAEA  5  01 00 00 EA FA 
   827)     11036.8  Rx     00015550  7  01 00 00 0F 03 50 55 
   828)     11036.9  Rx     00115550  5  01 00 00 50 55 
   829)     11041.7  Rx     00014669  7  01 00 00 0F 03 69 46 
   830)     11041.9  Rx     00114669  5  01 00 00 69 46 
   831)     11046.7  Rx     00016C3C  7  01 00 00 0F 03 3C 6C 
   832)     11046.9  Rx     00116C3C  5  01 00 00 3C 6C 
   833)     11051.8  Rx     0001FEF9  7  01 00 00 0F 03 F9 FE 
   834)     11051.9  Rx     0011FEF9  5  01 00 00 F9 FE 
   835)     11056.8  Rx     00013EBE  7  01 00 00 0F 03 BE 3E 
   836)     11056.9  Rx     00113EBE  5  01 00 00 BE 3E 
   837)     11061.8  Rx     0001585C  7  01 00 00 0F 03 5C 58 
   838)     11061.8  Rx     0011585C  5  01 00 00 5C 58 
   839)     11066.7  Rx     000142D7  7  01 00 00 0F 03 D7 42 
   840)     11066.9  Rx     001142D7  5  01 00 00 D7 42 
   841)     11071.7  Rx     000125EE  7  01 00 00 0F 03 EE 25 
   842)     11071.9  Rx     001125EE  5  01 00 00 EE 25 
   843)     11076.7  Rx     0001311B  7  01 00 00 0F 03 1B 31 
   844)     11076.9  Rx     0011311B  5  01 00 00 1B 31 
   845)     11081.8  Rx     0001EC79  7  01 00 00 0F 03 79 EC 
   846)     11081.8  Rx     0011EC79  5  01 00 00 79 EC 
   847)     11086.8  Rx     0001EB30  7  01 00 00 0F 03 30 EB 
   848)     11086.8  Rx     0011EB30  5  01 00 00 30 EB 
   849)     11091.7  Rx     00013466  7  01 00 00 0F 03 66 34 
   850)     11091.9  Rx     00113466  5  01 00 00 66 34 
   851)     11096.7  Rx     00016170  7  01 00 00 0F 03 70 61 
   852)     11096.9  Rx     00116170  5  01 00 00 70 61 
   853)     11101.7  Rx     00013D5B  7  01 00 00 0F 03 5B 3D 
   854)     11101.9  Rx     00113D5B  5  01 00 00 5B 3D 
   855)     11106.7  Rx     00018662  7  01 00 00 0F 03 62 86 
   856)     11106.9  Rx     00118662  5  01 00 00 62 86 
   857)     11111.8  Rx     0001D401  7  01 00 00 0F 03 01 D4 
   858)     11111.8  Rx     0011D401  5  01 00 00 01 D4 
   859)     11116.7  Rx     0001296E  7  01 00 00 0F 03 6E 29 
   860)     11116.8  Rx     0011296E  5  01 00 00 6E 29 
   861)     11121.7  Rx     00012084  7  01 00 00 0F 03 84 20 
   862)     11121.9  Rx     00112084  5  01 00 00 84 20 
   863)     11126.7  Rx     00013AF6  7  01 00 00 0F 03 F6 3A 
   864)     11126.9  Rx     00113AF6  5  01 00 00 F6 3A 
   865)     11131.7  Rx     0001AC16  7  01 00 00 0F 03 16 AC 
   866)     11131.9  Rx     0011AC16  5  01 00 00 16 AC 
   867)     11136.8  Rx     000156B1  7  01 00 00 0F 03 B1 56 
   868)     11136.8  Rx     001156B1  5  01 00 00 B1 56 
   869)     11141.8  Rx     00019570  7  01 00 00 0F 03 70 95 
   870)     11141.8  Rx     00119570  5  01 00 00 70 95 
   871)     11146.7  Rx     0001D60A  7  01 00 00 0F 03 0A D6 
   872)     11146.9  Rx     0011D60A  5  01 00 00 0A D6 
   873)     11151.7  Rx     00016829  7  01 00 00 0F 03 29 68 
   874)     11151.9  Rx     00116829  5  01 00 00 29 68 
   875)     11156.7  Rx     00017AC4  7  01 00 00 0F 03 C4 7A 
   876)     11156.9  Rx     00117AC4  5  01 00 00 C4 7A 
   877)     11161.7  Rx     00014065  7  01 00 00 0F 03 65 40 
   878)     11161.8  Rx     00114065  5  01 00 00 65 40 
   879)     11166.8  Rx     0001C735  7  01 00 00 0F 03 35 C7 
   880)     11166.8  Rx     0011C735  5  01 00 00 35 C7 
   881)     11171.7  Rx     0001D41D  7  01 00 00 0F 03 1D D4 
   882)     11171.8  Rx     0011D41D  5  01 00 00 1D D4 
   883)     11176.7  Rx     000147E2  7  01 00 00 0F 03 E2 47 
   884)     11176.9  Rx     001147E2  5  01 00 00 E2 47 
   885)     11181.7  Rx     00011510  7  01 00 00 0F 03 10 15 
   886)     11181.9  Rx     00111510  5  01 00 00 10 15 
   887)     11186.7  Rx     0001CF2D  7  01 00 00 0F 03 2D CF 
   888)     11186.8  Rx     0011CF2D  5  01 00 00 2D CF 
   889)     11191.7  Rx     0001EE28  7  01 00 00 0F 03 28 EE 
   890)     11191.8  Rx     0011EE28  5  01 00 00 28 EE 
   891)     11196.7  Rx     0001CE81  7  01 00 00 0F 03 81 CE 
   892)     11196.8  Rx     0011CE81  5  01 00 00 81 CE 
   893)     11201.7  Rx     0001D8CF  7  01 00 00 0F 03 CF D8 
   894)     11201.8  Rx     0011D8CF  5  01 00 00 CF D8 
   895)     11206.7  Rx     0001E524  7  01 00 00 0F 03 24 E5 
   896)     11206.9  Rx     0011E524  5  01 00 00 24 E5 
   897)     11211.7  Rx     0001E289  7  01 00 00 0F 03 89 E2 
   898)     11211.9  Rx     0011E289  5  01 00 00 89 E2 
   899)     11216.7  Rx     0001DB8F  7  01 00 00 0F 03 8F DB 
   900)     11216.8  Rx     0011DB8F  5  01 00 00 8F DB 
   901)     11221.8  Rx     0001A8CE  7  01 00 00 0F 03 CE A8 
   902)     11221.8  Rx     0011A8CE  5  01 00 00 CE A8 
   903)     11226.7  Rx     0001FEF6  7  01 00 00 0F 03 F6 FE 
   904)     11226.9  Rx     0011FEF6  5  01 00 00 F6 FE 
   905)     11231.7  Rx     000128FB  7  01 00 00 0F 03 FB 28 
   906)     11231.9  Rx     001128FB  5  01 00 00 FB 28 
   907)     11236.7  Rx     00013B79  7  01 00 00 0F 03 79 3B 
   908)     11236.9  Rx     00113B79  5  01 00 00 79 3B 
   909)     11241.7  Rx     0001A3D4  7  01 00 00 0F 03 D4 A3 
   910)     11241.8  Rx     0011A3D4  5  01 00 00 D4 A3 
   911)     11246.7  Rx     0001D804  7  01 00 00 0F 03 04 D8 
   912)     11246.8  Rx     0011D804  5  01 00 00 04 D8 
   913)     11251.7  Rx     0001A3E7  7  01 00 00 0F 03 E7 A3 
   914)     11251.8  Rx     0011A3E7  5  01 00 00 E7 A3 
   915)     11256.7  Rx     00011DEF  7  01 00 00 0F 03 EF 1D 
   916)     11256.8  Rx     00111DEF  5  01 00 00 EF 1D 
   917)     11261.7  Rx     000163D9  7  01 00 00 0F 03 D9 63 
   918)     11261.9  Rx     001163D9  5  01 00 00 D9 63 
   919)     11266.7  Rx     0001E2DE  7  01 00 00 0F 03 DE E2 
   920)     11266.8  Rx     0011E2DE  5  01 00 00 DE E2 
   921)     11271.7  Rx     0001895C  7  01 00 00 0F 03 5C 89 
   922)     11271.8  Rx     0011895C  5  01 00 00 5C 89 
   923)     11276.7  Rx     00015268  7  01 00 00 0F 03 68 52 
   924)     11276.8  Rx     00115268  5  01 00 00 68 52 
   925)     11281.7  Rx     00018F5F  7  01 00 00 0F 03 5F 8F 
   926)     11281.8  Rx     00118F5F  5  01 00 00 5F 8F 
   927)     11286.7  Rx     0001E1A2  7  01 00 00 0F 03 A2 E1 
   928)     11286.8  Rx     0011E1A2  5  01 00 00 A2 E1 
   929)     11291.7  Rx     00019DBE  7  01 00 00 0F 03 BE 9D 
   930)     11291.9  Rx     00119DBE  5  01 00 00 BE 9D 
   931)     11296.7  Rx     00019967  7  01 00 00 0F 03 67 99 
   932)     11296.8  Rx     00119967  5  01 00 00 67 99 
   933)     11301.7  Rx     00017E7C  7  01 00 00 0F 03 7C 7E 
   934)     11301.8  Rx     00117E7C  5  01 00 00 7C 7E 
   935)     11306.7  Rx     0001E926  7  01 00 00 0F 04 26 E9 
   936)     11306.8  Rx     0011E926  5  01 00 00 26 E9 
   937)     11311.7  Rx     00012C40  7  01 00 00 0F 03 40 2C 
   938)     11311.8  Rx     00112C40  5  01 00 00 40 2C 
   939)     11316.7  Rx     00010A7B  7  01 00 00 0F 03 7B 0A 
   940)     11316.9  Rx     00110A7B  5  01 00 00 7B 0A 
   941)     11321.7  Rx     0001B7B9  7  01 00 00 0F 03 B9 B7 
   942)     11321.8  Rx     0011B7B9  5  01 00 00 B9 B7 
   943)     11326.7  Rx     00011ED6  7  01 00 00 0F 03 D6 1E 
   944)     11326.8  Rx     00111ED6  5  01 00 00 D6 1E 
   945)     11331.7  Rx     00011513  7  01 00 00 0F 03 13 15 
   946)     11331.8  Rx     00111513  5  01 00 00 13 15 
   947)     11336.7  Rx     00013F07  7  01 00 00 0F 03 07 3F 
   948)     11336.8  Rx     00113F07  5  01 00 00 07 3F 
   949)     11341.7  Rx     0001789D  7  01 00 00 0F 03 9D 78 
   950)     11341.8  Rx     0011789D  5  01 00 00 9D 78 
   951)     11346.7  Rx     0001755E  7  01 00 00 0F 03 5E 75 
   952)     11346.8  Rx     0011755E  5  01 00 00 5E 75 
   953)     11351.7  Rx     0001E55A  7  01 00 00 0F 03 5A E5 
   954)     11351.8  Rx     0011E55A  5  01 00 00 5A E5 
   955)     11356.7  Rx     0001CDC6  7  01 00 00 0F 03 C6 CD 
   956)     11356.8  Rx     0011CDC6  5  01 00 00 C6 CD 
   957)     11361.7  Rx     00016607  7  01 00 00 0F 03 07 66 
   958)     11361.8  Rx     00116607  5  01 00 00 07 66 
   959)     11366.7  Rx     0001A407  7  01 00 00 0F 03 07 A4 
   960)     11366.8  Rx     0011A407  5  01 00 00 07 A4 
   961)     11371.7  Rx     0001E8E3  7  01 00 00 0F 03 E3 E8 
   962)     11371.8  Rx     0011E8E3  5  01 00 00 E3 E8 
   963)     11376.7  Rx     0001730B  7  01 00 00 0F 03 0B 73 
   964)     11376.8  Rx     0011730B  5  01 00 00 0B 73 
   965)     11381.7  Rx     0001F83F  7  01 00 00 0F 03 3F F8 
   966)     11381.8  Rx     0011F83F  5  01 00 00 3F F8 
   967)     11386.7  Rx     0001D0E1  7  01 00 00 0F 03 E1 D0 
   968)     11386.8  Rx     0011D0E1  5  01 00 00 E1 D0 
   969)     11391.7  Rx     00013596  7  01 00 00 0F 03 96 35 
   970)     11391.8  Rx     00113596  5  01 00 00 96 35 
   971)     11396.7  Rx     000175CB  7  01 00 00 0F 03 CB 75 
   972)     11396.8  Rx     001175CB  5  01 00 00 CB 75 
   973)     11401.7  Rx     00011ECA  7  01 00 00 0F 03 CA 1E 
   974)     11401.8  Rx     00111ECA  5  01 00 00 CA 1E 
   975)     11406.7  Rx     00017DA4  7  01 00 00 0F 03 A4 7D 
   976)     11406.8  Rx     00117DA4  5  01 00 00 A4 7D 
   977)     11411.7  Rx     0001B4AC  7  01 00 00 0F 03 AC B4 
   978)     11411.8  Rx     0011B4AC  5  01 00 00 AC B4 
   979)     11416.7  Rx     0001FD5C  7  01 00 00 0F 03 5C FD 
   980)     11416.8  Rx     0011FD5C  5  01 00 00 5C FD 
   981)     11421.7  Rx     0001C800  7  01 00 00 0F 03 00 C8 
   982)     11421.8  Rx     0011C800  5  01 00 00 00 C8 
   983)     11426.7  Rx     00014356  7  01 00 00 0F 03 56 43 
   984)     11426.8  Rx     00114356  5  01 00 00 56 43 
   985)     11431.7  Rx     0001499F  7  01 00 00 0F 03 9F 49 
   986)     11431.8  Rx     0011499F  5  01 00 00 9F 49 
   987)     11436.7  Rx     000153FA  7  01 00 00 0F 03 FA 53 
   988)     11436.8  Rx     001153FA  5  01 00 00 FA 53 
   989)     11441.7  Rx     0001845E  7  01 00 00 0F 03 5E 84 
   990)     11441.8  Rx     0011845E  5  01 00 00 5E 84 
   991)     11446.7  Rx     0001A0AC  7  01 00 00 0F 03 AC A0 
   992)     11446.8  Rx     0011A0AC  5  01 00 00 AC A0 
   993)     11451.7  Rx     0001C6E4  7  01 00 00 0F 03 E4 C6 
   994)     11451.8  Rx     0011C6E4  5  01 00 00 E4 C6 
   995)     11456.7  Rx     00012E0D  7  01 00 00 0F 03 0D 2E 
   996)     11456.8  Rx     00112E0D  5  01 00 00 0D 2E 
   997)     11461.7  Rx     0001F99B  7  01 00 00 0F 03 9B F9 
   998)     11461.8  Rx     0011F99B  5  01 00 00 9B F9 
   999)     11466.7  Rx     0001EF30  7  01 00 00 0F 03 30 EF 
  1000)     11466.8  Rx     0011EF30  5  01 00 00 30 EF 
  1001)     11471.7  Rx     0001085A  7  01 00 00 0F 03 5A 08 
  1002)     11471.8  Rx     0011085A  5  01 00 00 5A 08 
  1003)     11476.7  Rx     0001162B  7  01 00 00 0F 03 2B 16 
  1004)     11476.8  Rx     0011162B  5  01 00 00 2B 16 
  1005)     11481.7  Rx     00017D7B  7  01 00 00 0F 03 7B 7D 
  1006)     11481.8  Rx     00117D7B  5  01 00 00 7B 7D 
  1007)     11486.7  Rx     0001F727  7  01 00 00 0F 03 27 F7 
  1008)     11486.8  Rx     0011F727  5  01 00 00 27 F7 
  1009)     11491.7  Rx     00010F80  7  01 00 00 0F 03 80 0F 
  1010)     11491.8  Rx     00110F80  5  01 00 00 80 0F 
  1011)     11496.7  Rx     0001ADDE  7  01 00 00 0F 03 DE AD 
  1012)     11496.8  Rx     0011ADDE  5  01 00 00 DE AD 
  1013)     11501.7  Rx     0001B466  7  01 00 00 0F 03 66 B4 
  1014)     11501.8  Rx     0011B466  5  01 00 00 66 B4 
  1015)     11506.7  Rx     0001F62F  7  01 00 00 0F 03 2F F6 
  1016)     11506.8  Rx     0011F62F  5  01 00 00 2F F6 
  1017)     11511.7  Rx     0001FD69  7  01 00 00 0F 03 69 FD 
  1018)     11511.8  Rx     0011FD69  5  01 00 00 69 FD 
  1019)     11516.7  Rx     0001F326  7  01 00 00 0F 03 26 F3 
  1020)     11516.8  Rx     0011F326  5  01 00 00 26 F3 
  1021)     11521.7  Rx     000113B7  7  01 00 00 0F 03 B7 13 
  1022)     11521.8  Rx     001113B7  5  01 00 00 B7 13 
  1023)     11526.7  Rx     00014CAA  7  01 00 00 0F 03 AA 4C 
  1024)     11526.8  Rx     00114CAA  5  01 00 00 AA 4C 
  1025)     11531.7  Rx     0001366F  7  01 00 00 0F 03 6F 36 
  1026)     11531.8  Rx     0011366F  5  01 00 00 6F 36 
  1027)     11536.7  Rx     0001A2BC  7  01 00 00 0F 03 BC A2 
  1028)     11536.8  Rx     0011A2BC  5  01 00 00 BC A2 
  1029)     11541.7  Rx     000167D5  7  01 00 00 0F 03 D5 67 
  1030)     11541.8  Rx     001167D5  5  01 00 00 D5 67 
  1031)     11546.7  Rx     000169DE  7  01 00 00 0F 03 DE 69 
  1032)     11546.8  Rx     001169DE  5  01 00 00 DE 69 
  1033)     11551.7  Rx     00016BA8  7  01 00 00 0F 03 A8 6B 
  1034)     11551.8  Rx     00116BA8  5  01 00 00 A8 6B 
  1035)     11556.7  Rx     00017F1B  7  01 00 00 0F 03 1B 7F 
  1036)     11556.8  Rx     00117F1B  5  01 00 00 1B 7F 
  1037)     11561.7  Rx     00017A03  7  01 00 00 0F 03 03 7A 
  1038)     11561.8  Rx     00117A03  5  01 00 00 03 7A 
  1039)     11566.7  Rx     000176D7  7  01 00 00 0F 03 D7 76 
  1040)     11566.8  Rx     001176D7  5  01 00 00 D7 76 
  1041)     11571.7  Rx     00019A1C  7  01 00 00 0F 03 1C 9A 
  1042)     11571.8  Rx     00119A1C  5  01 00 00 1C 9A 
  1043)     11576.7  Rx     0001A03F  7  01 00 00 0F 03 3F A0 
  1044)     11576.8  Rx     0011A03F  5  01 00 00 3F A0 
  1045)     11581.7  Rx     00019DF6  7  01 00 00 0F 03 F6 9D 
  1046)     11581.8  Rx     00119DF6  5  01 00 00 F6 9D 
  1047)     11586.7  Rx     00014413  7  01 00 00 0F 03 13 44 
  1048)     11586.8  Rx     00114413  5  01 00 00 13 44 
  1049)     11591.7  Rx     00013FB3  7  01 00 00 0F 03 B3 3F 
  1050)     11591.8  Rx     00113FB3  5  01 00 00 B3 3F 
  1051)     11596.7  Rx     0001C42A  7  01 00 00 0F 03 2A C4 
  1052)     11596.8  Rx     0011C42A  5  01 00 00 2A C4 
  1053)     11601.7  Rx     00012B2A  7  01 00 00 0F 03 2A 2B 
  1054)     11601.8  Rx     00112B2A  5  01 00 00 2A 2B 
  1055)     11606.7  Rx     00011DDB  7  01 00 00 0F 03 DB 1D 
  1056)     11606.8  Rx     00111DDB  5  01 00 00 DB 1D 
  1057)     11611.7  Rx     000141F0  7  01 00 00 0F 03 F0 41 
  1058)     11611.8  Rx     001141F0  5  01 00 00 F0 41 
  1059)     11616.7  Rx     0001A82B  7  01 00 00 0F 03 2B A8 
  1060)     11616.8  Rx     0011A82B  5  01 00 00 2B A8 
  1061)     11621.7  Rx     000121F3  7  01 00 00 0F 03 F3 21 
  1062)     11621.8  Rx     001121F3  5  01 00 00 F3 21 
  1063)     11626.7  Rx     00017F72  7  01 00 00 0F 03 72 7F 
  1064)     11626.8  Rx     00117F72  5  01 00 00 72 7F 
  1065)     11631.7  Rx     00011E5E  7  01 00 00 0F 03 5E 1E 
  1066)     11631.8  Rx     00111E5E  5  01 00 00 5E 1E 
  1067)     11636.7  Rx     000146DD  7  01 00 00 0F 03 DD 46 
  1068)     11636.8  Rx     001146DD  5  01 00 00 DD 46 
  1069)     11641.7  Rx     0001B455  7  01 00 00 0F 03 55 B4 
  1070)     11641.8  Rx     0011B455  5  01 00 00 55 B4 
  1071)     11646.7  Rx     0001F0EF  7  01 00 00 0F 03 EF F0 
  1072)     11646.8  Rx     0011F0EF  5  01 00 00 EF F0 
  1073)     11651.7  Rx     0001E0CD  7  01 00 00 0F 03 CD E0 
  1074)     11651.8  Rx     0011E0CD  5  01 00 00 CD E0 
  1075)     11656.7  Rx     00012EEF  7  01 00 00 0F 03 EF 2E 
  1076)     11656.8  Rx     00112EEF  5  01 00 00 EF 2E 
  1077)     11661.7  Rx     0001E693  7  01 00 00 0F 03 93 E6 
  1078)     11661.8  Rx     0011E693  5  01 00 00 93 E6 
  1079)     11666.7  Rx     0001EBE9  7  01 00 00 0F 03 E9 EB 
  1080)     11666.8  Rx     0011EBE9  5  01 00 00 E9 EB 
  1081)     11671.7  Rx     0001573C  7  01 00 00 0F 03 3C 57 
  1082)     11671.8  Rx     0011573C  5  01 00 00 3C 57 
  1083)     11676.7  Rx     0001E2A9  7  01 00 00 0F 03 A9 E2 
  1084)     11676.8  Rx     0011E2A9  5  01 00 00 A9 E2 
  1085)     11681.7  Rx     0001F389  7  01 00 00 0F 03 89 F3 
  1086)     11681.8  Rx     0011F389  5  01 00 00 89 F3 
  1087)     11686.7  Rx     000182D8  7  01 00 00 0F 03 D8 82 
  1088)     11686.8  Rx     001182D8  5  01 00 00 D8 82 
  1089)     11691.7  Rx     0001EB94  7  01 00 00 0F 03 94 EB 
  1090)     11691.8  Rx     0011EB94  5  01 00 00 94 EB 
  1091)     11696.7  Rx     00011029  7  01 00 00 0F 03 29 10 
  1092)     11696.8  Rx     00111029  5  01 00 00 29 10 
  1093)     11701.7  Rx     00010CB9  7  01 00 00 0F 03 B9 0C 
  1094)     11701.8  Rx     00110CB9  5  01 00 00 B9 0C 
  1095)     11706.7  Rx     00015B35  7  01 00 00 0F 03 35 5B 
  1096)     11706.8  Rx     00115B35  5  01 00 00 35 5B 
  1097)     11711.7  Rx     0001E719  7  01 00 00 0F 03 19 E7 
  1098)     11711.8  Rx     0011E719  5  01 00 00 19 E7 
  1099)     11716.7  Rx     0001FA70  7  01 00 00 0F 03 70 FA 
  1100)     11716.8  Rx     0011FA70  5  01 00 00 70 FA 
  1101)     11721.7  Rx     0001DA27  7  01 00 00 0F 03 27 DA 
  1102)     11721.8  Rx     0011DA27  5  01 00 00 27 DA 
  1103)     11726.7  Rx     00015E67  7  01 00 00 0F 03 67 5E 
  1104)     11726.8  Rx     00115E67  5  01 00 00 67 5E 
  1105)     11731.7  Rx     00016BA0  7  01 00 00 0F 03 A0 6B 
  1106)     11731.8  Rx     00116BA0  5  01 00 00 A0 6B 
  1107)     11736.7  Rx     0001AB20  7  01 00 00 0F 03 20 AB 
  1108)     11736.8  Rx     0011AB20  5  01 00 00 20 AB 
  1109)     11741.7  Rx     0001F5E4  7  01 00 00 0F 03 E4 F5 
  1110)     11741.8  Rx     0011F5E4  5  01 00 00 E4 F5 
  1111)     11746.7  Rx     0001915C  7  01 00 00 0F 03 5C 91 
  1112)     11746.8  Rx     0011915C  5  01 00 00 5C 91 
  1113)     11751.7  Rx     0001827F  7  01 00 00 0F 03 7F 82 
  1114)     11751.8  Rx     0011827F  5  01 00 00 7F 82 
  1115)     11756.7  Rx     00015502  7  01 00 00 0F 03 02 55 
  1116)     11756.8  Rx     00115502  5  01 00 00 02 55 
  1117)     11761.7  Rx     0001976A  7  01 00 00 0F 03 6A 97 
  1118)     11761.8  Rx     0011976A  5  01 00 00 6A 97 
  1119)     11766.7  Rx     0001F2F9  7  01 00 00 0F 03 F9 F2 
  1120)     11766.8  Rx     0011F2F9  5  01 00 00 F9 F2 
  1121)     11771.7  Rx     00013148  7  01 00 00 0F 03 48 31 
  1122)     11771.8  Rx     00113148  5  01 00 00 48 31 
  1123)     11776.7  Rx     0001B349  7  01 00 00 0F 03 49 B3 
  1124)     11776.8  Rx     0011B349  5  01 00 00 49 B3 
  1125)     11781.7  Rx     000116AD  7  01 00 00 0F 03 AD 16 
  1126)     11781.8  Rx     001116AD  5  01 00 00 AD 16 
  1127)     11786.7  Rx     00013932  7  01 00 00 0F 03 32 39 
  1128)     11786.8  Rx     00113932  5  01 00 00 32 39 
  1129)     11791.7  Rx     00018835  7  01 00 00 0F 03 35 88 
  1130)     11791.8  Rx     00118835  5  01 00 00 35 88 
  1131)     11796.7  Rx     00013197  7  01 00 00 0F 03 97 31 
  1132)     11796.8  Rx     00113197  5  01 00 00 97 31 
  1133)     11801.7  Rx     000186ED  7  01 00 00 0F 03 ED 86 
  1134)     11801.8  Rx     001186ED  5  01 00 00 ED 86 
  1135)     11806.7  Rx     0001ACF7  7  01 00 00 0F 03 F7 AC 
  1136)     11806.8  Rx     0011ACF7  5  01 00 00 F7 AC 
  1137)     11811.7  Rx     0001B661  7  01 00 00 0F 03 61 B6 
  1138)     11811.8  Rx     0011B661  5  01 00 00 61 B6 
  1139)     11816.7  Rx     000160C3  7  01 00 00 0F 03 C3 60 
  1140)     11816.8  Rx     001160C3  5  01 00 00 C3 60 
  1141)     11821.7  Rx     00012D4C  7  01 00 00 0F 03 4C 2D 
  1142)     11821.8  Rx     00112D4C  5  01 00 00 4C 2D 
  1143)     11826.7  Rx     0001F0D4  7  01 00 00 0F 03 D4 F0 
  1144)     11826.8  Rx     0011F0D4  5  01 00 00 D4 F0 
  1145)     11831.7  Rx     00010FBB  7  01 00 00 0F 03 BB 0F 
  1146)     11831.8  Rx     00110FBB  5  01 00 00 BB 0F 
  1147)     11836.7  Rx     00013857  7  01 00 00 0F 03 57 38 
  1148)     11836.8  Rx     00113857  5  01 00 00 57 38 
  1149)     11841.7  Rx     00013323  7  01 00 00 0F 03 23 33 
  1150)     11841.8  Rx     00113323  5  01 00 00 23 33 
  1151)     11846.7  Rx     0001E257  7  01 00 00 0F 03 57 E2 
  1152)     11846.8  Rx     0011E257  5  01 00 00 57 E2 
  1153)     11851.7  Rx     000120BA  7  01 00 00 0F 03 BA 20 
  1154)     11851.8  Rx     001120BA  5  01 00 00 BA 20 
  1155)     11856.7  Rx     00015CDA  7  01 00 00 0F 03 DA 5C 
  1156)     11856.8  Rx     00115CDA  5  01 00 00 DA 5C 
  1157)     11861.7  Rx     00011814  7  01 00 00 0F 03 14 18 
  1158)     11861.8  Rx     00111814  5  01 00 00 14 18 
  1159)     11866.7  Rx     00014A30  7  01 00 00 0F 03 30 4A 
  1160)     11866.8  Rx     00114A30  5  01 00 00 30 4A 
  1161)     11871.7  Rx     0001CFD0  7  01 00 00 0F 03 D0 CF 
  1162)     11871.8  Rx     0011CFD0  5  01 00 00 D0 CF 
  1163)     11876.7  Rx     000182D3  7  01 00 00 0F 03 D3 82 
  1164)     11876.8  Rx     001182D3  5  01 00 00 D3 82 
  1165)     11881.7  Rx     00015BDD  7  01 00 00 0F 03 DD 5B 
  1166)     11881.8  Rx     00115BDD  5  01 00 00 DD 5B 
  1167)     11886.7  Rx     0001D719  7  01 00 00 0F 03 19 D7 
  1168)     11886.8  Rx     0011D719  5  01 00 00 19 D7 
  1169)     11891.7  Rx     0001489F  7  01 00 00 0F 03 9F 48 
  1170)     11891.8  Rx     0011489F  5  01 00 00 9F 48 
  1171)     11896.7  Rx     0001B288  7  01 00 00 0F 03 88 B2 
  1172)     11896.8  Rx     0011B288  5  01 00 00 88 B2 
  1173)     11901.7  Rx     0001F3F2  7  01 00 00 0F 03 F2 F3 
  1174)     11901.8  Rx     0011F3F2  5  01 00 00 F2 F3 
  1175)     11906.7  Rx     0001C37B  7  01 00 00 0F 03 7B C3 
  1176)     11906.8  Rx     0011C37B  5  01 00 00 7B C3 
  1177)     11911.7  Rx     000138EC  7  01 00 00 0F 03 EC 38 
  1178)     11911.8  Rx     001138EC  5  01 00 00 EC 38 
  1179)     11916.7  Rx     00019C89  7  01 00 00 0F 03 89 9C 
  1180)     11916.8  Rx     00119C89  5  01 00 00 89 9C 
  1181)     11921.7  Rx     0001ECC8  7  01 00 00 0F 03 C8 EC 
  1182)     11921.8  Rx     0011ECC8  5  01 00 00 C8 EC 
  1183)     11926.7  Rx     0001C1CB  7  01 00 00 0F 03 CB C1 
  1184)     11926.8  Rx     0011C1CB  5  01 00 00 CB C1 
  1185)     11931.7  Rx     0001BB56  7  01 00 00 0F 03 56 BB 
  1186)     11931.8  Rx     0011BB56  5  01 00 00 56 BB 
  1187)     11936.7  Rx     0001E6EF  7  01 00 00 0F 03 EF E6 
  1188)     11936.8  Rx     0011E6EF  5  01 00 00 EF E6 
  1189)     11941.7  Rx     0001FEF2  7  01 00 00 0F 03 F2 FE 
  1190)     11941.8  Rx     0011FEF2  5  01 00 00 F2 FE 
  1191)     11946.7  Rx     0001C7B8  7  01 00 00 0F 03 B8 C7 
  1192)     11946.8  Rx     0011C7B8  5  01 00 00 B8 C7 
  1193)     11951.7  Rx     000173C6  7  01 00 00 0F 03 C6 73 
  1194)     11951.8  Rx     001173C6  5  01 00 00 C6 73 
  1195)     11956.7  Rx     00017F63  7  01 00 00 0F 03 63 7F 
  1196)     11956.8  Rx     00117F63  5  01 00 00 63 7F 
  1197)     11961.7  Rx     000103EC  7  01 00 00 0F 03 EC 03 
  1198)     11961.8  Rx     001103EC  5  01 00 00 EC 03 
  1199)     11966.7  Rx     0001C807  7  01 00 00 0F 03 07 C8 
  1200)     11966.8  Rx     0011C807  5  01 00 00 07 C8 
  1201)     11971.7  Rx     0001A5A5  7  01 00 00 0F 03 A5 A5 
  1202)     11971.8  Rx     0011A5A5  5  01 00 00 A5 A5 
  1203)     11976.7  Rx     0001E9E0  7  01 00 00 0F 03 E0 E9 
  1204)     11976.8  Rx     0011E9E0  5  01 00 00 E0 E9 
  1205)     11981.7  Rx     0001AAB9  7  01 00 00 0F 03 B9 AA 
  1206)     11981.8  Rx     0011AAB9  5  01 00 00 B9 AA 
  1207)     11986.7  Rx     0001B338  7  01 00 00 0F 03 38 B3 
  1208)     11986.8  Rx     0011B338  5  01 00 00 38 B3 
  1209)     11991.7  Rx     000147CF  7  01 00 00 0F 03 CF 47 
  1210)     11991.8  Rx     001147CF  5  01 00 00 CF 47 
  1211)     11996.7  Rx     00019438  7  01 00 00 0F 03 38 94 
  1212)     11996.8  Rx     00119438  5  01 00 00 38 94 
  1213)     12001.7  Rx     0001E82F  7  01 00 00 0F 03 2F E8 
  1214)     12001.8  Rx     0011E82F  5  01 00 00 2F E8 
  1215)     12006.7  Rx     00010AF0  7  01 00 00 0F 03 F0 0A 
  1216)     12006.8  Rx     00110AF0  5  01 00 00 F0 0A 
  1217)     12011.7  Rx     0001FE4A  7  01 00 00 0F 03 4A FE 
  1218)     12011.8  Rx     0011FE4A  5  01 00 00 4A FE 
  1219)     12016.7  Rx     00012258  7  01 00 00 0F 03 58 22 
  1220)     12016.8  Rx     00112258  5  01 00 00 58 22 
  1221)     12021.7  Rx     0001A30C  7  01 00 00 0F 03 0C A3 
  1222)     12021.8  Rx     0011A30C  5  01 00 00 0C A3 
  1223)     12026.7  Rx     0001D815  7  01 00 00 0F 03 15 D8 
  1224)     12026.8  Rx     0011D815  5  01 00 00 15 D8 
  1225)     12031.7  Rx     000139B5  7  01 00 00 0F 03 B5 39 
  1226)     12031.8  Rx     001139B5  5  01 00 00 B5 39 
  1227)     12036.7  Rx     0001BF4A  7  01 00 00 0F 03 4A BF 
  1228)     12036.8  Rx     0011BF4A  5  01 00 00 4A BF 
  1229)     12041.7  Rx     000123CF  7  01 00 00 0F 03 CF 23 
  1230)     12041.8  Rx     001123CF  5  01 00 00 CF 23 
  1231)     12046.7  Rx     000183B8  7  01 00 00 0F 03 B8 83 
  1232)     12046.8  Rx     001183B8  5  01 00 00 B8 83 
  1233)     12051.7  Rx     00015081  7  01 00 00 0F 03 81 50 
  1234)     12051.8  Rx     00115081  5  01 00 00 81 50 
  1235)     12056.7  Rx     000162FE  7  01 00 00 0F 03 FE 62 
  1236)     12056.8  Rx     001162FE  5  01 00 00 FE 62 
  1237)     12061.7  Rx     0001B848  7  01 00 00 0F 03 48 B8 
  1238)     12061.8  Rx     0011B848  5  01 00 00 48 B8 
  1239)     12066.7  Rx     00017AB6  7  01 00 00 0F 03 B6 7A 
  1240)     12066.8  Rx     00117AB6  5  01 00 00 B6 7A 
  1241)     12071.7  Rx     00017DE1  7  01 00 00 0F 03 E1 7D 
  1242)     12071.8  Rx     00117DE1  5  01 00 00 E1 7D 
  1243)     12076.7  Rx     000138C7  7  01 00 00 0F 03 C7 38 
  1244)     12076.8  Rx     001138C7  5  01 00 00 C7 38 
  1245)     12081.7  Rx     00014EEB  7  01 00 00 0F 03 EB 4E 
  1246)     12081.8  Rx     00114EEB  5  01 00 00 EB 4E 
  1247)     12086.7  Rx     0001281C  7  01 00 00 0F 03 1C 28 
  1248)     12086.8  Rx     0011281C  5  01 00 00 1C 28 
  1249)     12091.7  Rx     0001F282  7  01 00 00 0F 03 82 F2 
  1250)     12091.8  Rx     0011F282  5  01 00 00 82 F2 
  1251)     12096.7  Rx     0001E6A6  7  01 00 00 0F 03 A6 E6 
  1252)     12096.8  Rx     0011E6A6  5  01 00 00 A6 E6 
  1253)     12101.7  Rx     0001F1E8  7  01 00 00 0F 03 E8 F1 
  1254)     12101.8  Rx     0011F1E8  5  01 00 00 E8 F1 
  1255)     12106.7  Rx     0001BE4E  7  01 00 00 0F 03 4E BE 
  1256)     12106.8  Rx     0011BE4E  5  01 00 00 4E BE 
  1257)     12111.7  Rx     0001F2FA  7  01 00 00 0F 03 FA F2 
  1258)     12111.8  Rx     0011F2FA  5  01 00 00 FA F2 
  1259)     12116.7  Rx     0001CD48  7  01 00 00 0F 03 48 CD 
  1260)     12116.8  Rx     0011CD48  5  01 00 00 48 CD 
  1261)     12121.7  Rx     000155FB  7  01 00 00 0F 03 FB 55 
  1262)     12121.8  Rx     001155FB  5  01 00 00 FB 55 
  1263)     12126.7  Rx     0001EAE6  7  01 00 00 0F 03 E6 EA 
  1264)     12126.8  Rx     0011EAE6  5  01 00 00 E6 EA 
  1265)     12131.7  Rx     0001D000  7  01 00 00 0F 03 00 D0 
  1266)     12131.8  Rx     0011D000  5  01 00 00 00 D0 
  1267)     12136.7  Rx     000168D0  7  01 00 00 0F 03 D0 68 
  1268)     12136.8  Rx     001168D0  5  01 00 00 D0 68 
  1269)     12141.7  Rx     00017D02  7  01 00 00 0F 03 02 7D 
  1270)     12141.8  Rx     00117D02  5  01 00 00 02 7D 
  1271)     12146.7  Rx     0001C95C  7  01 00 00 0F 03 5C C9 
  1272)     12146.8  Rx     0011C95C  5  01 00 00 5C C9 
  1273)     12151.7  Rx     00012060  7  01 00 00 0F 03 60 20 
  1274)     12151.8  Rx     00112060  5  01 00 00 60 20 
  1275)     12156.7  Rx     00019E55  7  01 00 00 0F 03 55 9E 
  1276)     12156.8  Rx     00119E55  5  01 00 00 55 9E 
  1277)     12161.7  Rx     00013C53  7  01 00 00 0F 03 53 3C 
  1278)     12161.8  Rx     00113C53  5  01 00 00 53 3C 
  1279)     12166.7  Rx     0001986A  7  01 00 00 0F 03 6A 98 
  1280)     12166.8  Rx     0011986A  5  01 00 00 6A 98 
  1281)     12171.7  Rx     00019CAB  7  01 00 00 0F 03 AB 9C 
  1282)     12171.8  Rx     00119CAB  5  01 00 00 AB 9C 
  1283)     12176.7  Rx     0001062A  7  01 00 00 0F 03 2A 06 
  1284)     12176.8  Rx     0011062A  5  01 00 00 2A 06 
  1285)     12181.7  Rx     0001CACA  7  01 00 00 0F 03 CA CA 
  1286)     12181.8  Rx     0011CACA  5  01 00 00 CA CA 
  1287)     12186.7  Rx     0001A62D  7  01 00 00 0F 03 2D A6 
  1288)     12186.8  Rx     0011A62D  5  01 00 00 2D A6 
  1289)     12191.7  Rx     000150B1  7  01 00 00 0F 03 B1 50 
  1290)     12191.8  Rx     001150B1  5  01 00 00 B1 50 
  1291)     12196.7  Rx     000146DF  7  01 00 00 0F 03 DF 46 
  1292)     12196.8  Rx     001146DF  5  01 00 00 DF 46 
  1293)     12201.6  Rx     00014AA4  7  01 00 00 0F 03 A4 4A 
  1294)     12201.8  Rx     00114AA4  5  01 00 00 A4 4A 
  1295)     12206.7  Rx     0001FF0A  7  01 00 00 0F 03 0A FF 
  1296)     12206.8  Rx     0011FF0A  5  01 00 00 0A FF 
  1297)     12211.7  Rx     0001AAAF  7  01 00 00 0F 03 AF AA 
  1298)     12211.8  Rx     0011AAAF  5  01 00 00 AF AA 
  1299)     12216.7  Rx     0001510A  7  01 00 00 0F 03 0A 51 
  1300)     12216.8  Rx     0011510A  5  01 00 00 0A 51 
  1301)     12221.7  Rx     0001670E  7  01 00 00 0F 03 0E 67 
  1302)     12221.8  Rx     0011670E  5  01 00 00 0E 67 
  1303)     12226.6  Rx     00015755  7  01 00 00 0F 03 55 57 
  1304)     12226.8  Rx     00115755  5  01 00 00 55 57 
  1305)     12231.6  Rx     00017447  7  01 00 00 0F 03 47 74 
  1306)     12231.8  Rx     00117447  5  01 00 00 47 74 
  1307)     12236.7  Rx     0001D3C4  7  01 00 00 0F 03 C4 D3 
  1308)     12236.8  Rx     0011D3C4  5  01 00 00 C4 D3 
  1309)     12241.7  Rx     0001DD7B  7  01 00 00 0F 03 7B DD 
  1310)     12241.8  Rx     0011DD7B  5  01 00 00 7B DD 
  1311)     12246.7  Rx     0001CFB2  7  01 00 00 0F 03 B2 CF 
  1312)     12246.8  Rx     0011CFB2  5  01 00 00 B2 CF 
  1313)     12251.7  Rx     00010133  7  01 00 00 0F 03 33 01 
  1314)     12251.8  Rx     00110133  5  01 00 00 33 01 
  1315)     12256.6  Rx     000151F4  7  01 00 00 0F 03 F4 51 
  1316)     12256.8  Rx     001151F4  5  01 00 00 F4 51 
  1317)     12261.7  Rx     000112B8  7  01 00 00 0F 03 B8 12 
  1318)     12261.8  Rx     001112B8  5  01 00 00 B8 12 
  1319)     12266.7  Rx     0001C43A  7  01 00 00 0F 03 3A C4 
  1320)     12266.8  Rx     0011C43A  5  01 00 00 3A C4 
  1321)     12271.7  Rx     00012BB8  7  01 00 00 0F 03 B8 2B 
  1322)     12271.8  Rx     00112BB8  5  01 00 00 B8 2B 
  1323)     12276.7  Rx     0001B84F  7  01 00 00 0F 03 4F B8 
  1324)     12276.8  Rx     0011B84F  5  01 00 00 4F B8 
  1325)     12281.6  Rx     00019BC0  7  01 00 00 0F 03 C0 9B 
  1326)     12281.8  Rx     00119BC0  5  01 00 00 C0 9B 
  1327)     12286.6  Rx     0001AE5D  7  01 00 00 0F 03 5D AE 
  1328)     12286.8  Rx     0011AE5D  5  01 00 00 5D AE 
  1329)     12291.7  Rx     00015EDB  7  01 00 00 0F 03 DB 5E 
  1330)     12291.8  Rx     00115EDB  5  01 00 00 DB 5E 
  1331)     12296.7  Rx     0001781A  7  01 00 00 0F 03 1A 78 
  1332)     12296.8  Rx     0011781A  5  01 00 00 1A 78 
  1333)     12301.7  Rx     0001CA4F  7  01 00 00 0F 03 4F CA 
  1334)     12301.8  Rx     0011CA4F  5  01 00 00 4F CA 
  1335)     12306.6  Rx     0001D189  7  01 00 00 0F 03 89 D1 
  1336)     12306.8  Rx     0011D189  5  01 00 00 89 D1 
  1337)     12311.6  Rx     0001BE54  7  01 00 00 0F 03 54 BE 
  1338)     12311.8  Rx     0011BE54  5  01 00 00 54 BE 
  1339)     12316.6  Rx     0001EAB5  7  01 00 00 0F 03 B5 EA 
  1340)     12316.8  Rx     0011EAB5  5  01 00 00 B5 EA 
  1341)     12321.7  Rx     00014D38  7  01 00 00 0F 03 38 4D 
  1342)     12321.8  Rx     00114D38  5  01 00 00 38 4D 
  1343)     12326.7  Rx     0001368E  7  01 00 00 0F 03 8E 36 
  1344)     12326.7  Rx     0011368E  5  01 00 00 8E 36 
  1345)     12331.7  Rx     00012046  7  01 00 00 0F 03 46 20 
  1346)     12331.8  Rx     00112046  5  01 00 00 46 20 
  1347)     12336.6  Rx     0001A5D7  7  01 00 00 0F 03 D7 A5 
  1348)     12336.8  Rx     0011A5D7  5  01 00 00 D7 A5 
  1349)     12341.6  Rx     0001B076  7  01 00 00 0F 03 76 B0 
  1350)     12341.8  Rx     0011B076  5  01 00 00 76 B0 
  1351)     12346.7  Rx     00014DBF  7  01 00 00 0F 03 BF 4D 
  1352)     12346.8  Rx     00114DBF  5  01 00 00 BF 4D 
  1353)     12351.7  Rx     000130AB  7  01 00 00 0F 03 AB 30 
  1354)     12351.7  Rx     001130AB  5  01 00 00 AB 30 
  1355)     12356.7  Rx     0001BC99  7  01 00 00 0F 03 99 BC 
  1356)     12356.7  Rx     0011BC99  5  01 00 00 99 BC 
  1357)     12361.6  Rx     0001F104  7  01 00 00 0F 03 04 F1 
  1358)     12361.8  Rx     0011F104  5  01 00 00 04 F1 
  1359)     12366.6  Rx     0001EFD8  7  01 00 00 0F 03 D8 EF 
  1360)     12366.8  Rx     0011EFD8  5  01 00 00 D8 EF 
  1361)     12371.6  Rx     00016E90  7  01 00 00 0F 03 90 6E 
  1362)     12371.8  Rx     00116E90  5  01 00 00 90 6E 
  1363)     12376.7  Rx     00012934  7  01 00 00 0F 03 34 29 
  1364)     12376.7  Rx     00112934  5  01 00 00 34 29 
  1365)     12381.7  Rx     0001146C  7  01 00 00 0F 03 6C 14 
  1366)     12381.7  Rx     0011146C  5  01 00 00 6C 14 
  1367)     12386.6  Rx     0001F5A2  7  01 00 00 0F 03 A2 F5 
  1368)     12386.8  Rx     0011F5A2  5  01 00 00 A2 F5 
  1369)     12391.6  Rx     00013F05  7  01 00 00 0F 03 05 3F 
  1370)     12391.8  Rx     00113F05  5  01 00 00 05 3F 
  1371)     12396.6  Rx     0001FF89  7  01 00 00 0F 03 89 FF 
  1372)     12396.8  Rx     0011FF89  5  01 00 00 89 FF 
  1373)     12401.7  Rx     0001B41F  7  01 00 00 0F 03 1F B4 
  1374)     12401.8  Rx     0011B41F  5  01 00 00 1F B4 
  1375)     12406.7  Rx     00014A56  7  01 00 00 0F 03 56 4A 
  1376)     12406.7  Rx     00114A56  5  01 00 00 56 4A 
  1377)     12411.6  Rx     000105D1  7  01 00 00 0F 03 D1 05 
  1378)     12411.8  Rx     001105D1  5  01 00 00 D1 05 
  1379)     12416.6  Rx     0001C863  7  01 00 00 0F 03 63 C8 
  1380)     12416.8  Rx     0011C863  5  01 00 00 63 C8 
  1381)     12421.6  Rx     0001848A  7  01 00 00 0F 03 8A 84 
  1382)     12421.8  Rx     0011848A  5  01 00 00 8A 84 
  1383)     12426.6  Rx     000178C5  7  01 00 00 0F 03 C5 78 
  1384)     12426.8  Rx     001178C5  5  01 00 00 C5 78 
  1385)     12431.7  Rx     00013BE8  7  01 00 00 0F 03 E8 3B 
  1386)     12431.7  Rx     00113BE8  5  01 00 00 E8 3B 
  1387)     12436.7  Rx     0001E57E  7  01 00 00 0F 03 7E E5 
  1388)     12436.7  Rx     0011E57E  5  01 00 00 7E E5 
  1389)     12441.6  Rx     0001F3E4  7  01 00 00 0F 03 E4 F3 
  1390)     12441.8  Rx     0011F3E4  5  01 00 00 E4 F3 
  1391)     12446.6  Rx     0001B334  7  01 00 00 0F 03 34 B3 
  1392)     12446.8  Rx     0011B334  5  01 00 00 34 B3 
  1393)     12451.6  Rx     0001639D  7  01 00 00 0F 03 9D 63 
  1394)     12451.8  Rx     0011639D  5  01 00 00 9D 63 
  1395)     12456.6  Rx     0001BE46  7  01 00 00 0F 03 46 BE 
  1396)     12456.7  Rx     0011BE46  5  01 00 00 46 BE 
  1397)     12461.7  Rx     0001ACC8  7  01 00 00 0F 03 C8 AC 
  1398)     12461.7  Rx     0011ACC8  5  01 00 00 C8 AC 
  1399)     12466.6  Rx     00017607  7  01 00 00 0F 03 07 76 
  1400)     12466.8  Rx     00117607  5  01 00 00 07 76 
  1401)     12471.6  Rx     00013A96  7  01 00 00 0F 03 96 3A 
  1402)     12471.8  Rx     00113A96  5  01 00 00 96 3A 
  1403)     12476.6  Rx     00012160  7  01 00 00 0F 03 60 21 
  1404)     12476.8  Rx     00112160  5  01 00 00 60 21 
  1405)     12481.6  Rx     00013486  7  01 00 00 0F 03 86 34 
  1406)     12481.7  Rx     00113486  5  01 00 00 86 34 
  1407)     12486.7  Rx     00017924  7  01 00 00 0F 03 24 79 
  1408)     12486.7  Rx     00117924  5  01 00 00 24 79 
  1409)     12491.6  Rx     0001AD82  7  01 00 00 0F 03 82 AD 
  1410)     12491.7  Rx     0011AD82  5  01 00 00 82 AD 
  1411)     12496.6  Rx     00019EE9  7  01 00 00 0F 03 E9 9E 
  1412)     12496.8  Rx     00119EE9  5  01 00 00 E9 9E 
  1413)     12501.6  Rx     00017538  7  01 00 00 0F 03 38 75 
  1414)     12501.8  Rx     00117538  5  01 00 00 38 75 
  1415)     12506.6  Rx     00017414  7  01 00 00 0F 03 14 74 
  1416)     12506.8  Rx     00117414  5  01 00 00 14 74 
  1417)     12511.6  Rx     0001FD8C  7  01 00 00 0F 03 8C FD 
  1418)     12511.7  Rx     0011FD8C  5  01 00 00 8C FD 
  1419)     12516.7  Rx     0001C780  7  01 00 00 0F 03 80 C7 
  1420)     12516.7  Rx     0011C780  5  01 00 00 80 C7 
  1421)     12521.6  Rx     00013F96  7  01 00 00 0F 03 96 3F 
  1422)     12521.7  Rx     00113F96  5  01 00 00 96 3F 
  1423)     12526.6  Rx     0001ECE9  7  01 00 00 0F 03 E9 EC 
  1424)     12526.8  Rx     0011ECE9  5  01 00 00 E9 EC 
  1425)     12531.6  Rx     0001BF8D  7  01 00 00 0F 03 8D BF 
  1426)     12531.8  Rx     0011BF8D  5  01 00 00 8D BF 
  1427)     12536.6  Rx     00018004  7  01 00 00 0F 03 04 80 
  1428)     12536.7  Rx     00118004  5  01 00 00 04 80 
  1429)     12541.7  Rx     0001F089  7  01 00 00 0F 04 89 F0 
  1430)     12541.7  Rx     0011F089  5  01 00 00 89 F0 
  1431)     12546.6  Rx     0001FDE3  7  01 00 00 0F 03 E3 FD 
  1432)     12546.7  Rx     0011FDE3  5  01 00 00 E3 FD 
  1433)     12551.6  Rx     0001F504  7  01 00 00 0F 03 04 F5 
  1434)     12551.8  Rx     0011F504  5  01 00 00 04 F5 
  1435)     12556.6  Rx     0001661C  7  01 00 00 0F 03 1C 66 
  1436)     12556.8  Rx     0011661C  5  01 00 00 1C 66 
  1437)     12561.6  Rx     0001FA81  7  01 00 00 0F 03 81 FA 
  1438)     12561.7  Rx     0011FA81  5  01 00 00 81 FA 
  1439)     12566.6  Rx     00013DD0  7  01 00 00 0F 03 D0 3D 
  1440)     12566.7  Rx     00113DD0  5  01 00 00 D0 3D 
  1441)     12571.6  Rx     00011EC5  7  01 00 00 0F 03 C5 1E 
  1442)     12571.7  Rx     00111EC5  5  01 00 00 C5 1E 
  1443)     12576.6  Rx     0001ED7A  7  01 00 00 0F 03 7A ED 
  1444)     12576.7  Rx     0011ED7A  5  01 00 00 7A ED 
  1445)     12581.6  Rx     00016686  7  01 00 00 0F 03 86 66 
  1446)     12581.8  Rx     00116686  5  01 00 00 86 66 
  1447)     12586.6  Rx     00017B36  7  01 00 00 0F 03 36 7B 
  1448)     12586.8  Rx     00117B36  5  01 00 00 36 7B 
  1449)     12591.6  Rx     00014173  7  01 00 00 0F 03 73 41 
  1450)     12591.7  Rx     00114173  5  01 00 00 73 41 
  1451)     12596.6  Rx     0001F1DF  7  01 00 00 0F 03 DF F1 
  1452)     12596.7  Rx     0011F1DF  5  01 00 00 DF F1 
  1453)     12601.6  Rx     00017D0F  7  01 00 00 0F 03 0F 7D 
  1454)     12601.7  Rx     00117D0F  5  01 00 00 0F 7D 
  1455)     12606.6  Rx     00019632  7  01 00 00 0F 03 32 96 
  1456)     12606.7  Rx     00119632  5  01 00 00 32 96 
  1457)     12611.6  Rx     000107AE  7  01 00 00 0F 03 AE 07 
  1458)     12611.8  Rx     001107AE  5  01 00 00 AE 07 
  1459)     12616.6  Rx     0001D1DD  7  01 00 00 0F 03 DD D1 
  1460)     12616.7  Rx     0011D1DD  5  01 00 00 DD D1 
  1461)     12621.6  Rx     00014695  7  01 00 00 0F 03 95 46 
  1462)     12621.7  Rx     00114695  5  01 00 00 95 46 
  1463)     12626.6  Rx     0001491E  7  01 00 00 0F 03 1E 49 
  1464)     12626.7  Rx     0011491E  5  01 00 00 1E 49 
  1465)     12631.6  Rx     0001B60B  7  01 00 00 0F 03 0B B6 
  1466)     12631.7  Rx     0011B60B  5  01 00 00 0B B6 
  1467)     12636.6  Rx     0001DE5E  7  01 00 00 0F 03 5E DE 
  1468)     12636.7  Rx     0011DE5E  5  01 00 00 5E DE 
  1469)     12641.6  Rx     00011BE5  7  01 00 00 0F 03 E5 1B 
  1470)     12641.7  Rx     00111BE5  5  01 00 00 E5 1B 
  1471)     12646.6  Rx     00010BF4  7  01 00 00 0F 03 F4 0B 
  1472)     12646.7  Rx     00110BF4  5  01 00 00 F4 0B 
  1473)     12651.6  Rx     000158C8  7  01 00 00 0F 03 C8 58 
  1474)     12651.7  Rx     001158C8  5  01 00 00 C8 58 
  1475)     12656.6  Rx     000192E7  7  01 00 00 0F 03 E7 92 
  1476)     12656.7  Rx     001192E7  5  01 00 00 E7 92 
  1477)     12661.6  Rx     00013A38  7  01 00 00 0F 03 38 3A 
  1478)     12661.7  Rx     00113A38  5  01 00 00 38 3A 
  1479)     12666.6  Rx     0001BA74  7  01 00 00 0F 03 74 BA 
  1480)     12666.7  Rx     0011BA74  5  01 00 00 74 BA 
  1481)     12671.6  Rx     0001CF3B  7  01 00 00 0F 03 3B CF 
  1482)     12671.7  Rx     0011CF3B  5  01 00 00 3B CF 
  1483)     12676.6  Rx     0001FE9C  7  01 00 00 0F 03 9C FE 
  1484)     12676.7  Rx     0011FE9C  5  01 00 00 9C FE 
  1485)     12681.6  Rx     00014F04  7  01 00 00 0F 03 04 4F 
  1486)     12681.7  Rx     00114F04  5  01 00 00 04 4F 
  1487)     12686.6  Rx     00019D07  7  01 00 00 0F 03 07 9D 
  1488)     12686.7  Rx     00119D07  5  01 00 00 07 9D 
  1489)     12691.6  Rx     0001B90D  7  01 00 00 0F 03 0D B9 
  1490)     12691.7  Rx     0011B90D  5  01 00 00 0D B9 
  1491)     12696.6  Rx     00010202  7  01 00 00 0F 03 02 02 
  1492)     12696.7  Rx     00110202  5  01 00 00 02 02 
  1493)     12701.6  Rx     0001138F  7  01 00 00 0F 03 8F 13 
  1494)     12701.7  Rx     0011138F  5  01 00 00 8F 13 
  1495)     12706.6  Rx     00010C60  7  01 00 00 0F 03 60 0C 
  1496)     12706.7  Rx     00110C60  5  01 00 00 60 0C 
  1497)     12711.6  Rx     0001BD2A  7  01 00 00 0F 03 2A BD 
  1498)     12711.7  Rx     0011BD2A  5  01 00 00 2A BD 
  1499)     12716.6  Rx     0001A187  7  01 00 00 0F 03 87 A1 
  1500)     12716.7  Rx     0011A187  5  01 00 00 87 A1 
  1501)     12721.6  Rx     0001C448  7  01 00 00 0F 03 48 C4 
  1502)     12721.7  Rx     0011C448  5  01 00 00 48 C4 
  1503)     12726.6  Rx     00014FE8  7  01 00 00 0F 03 E8 4F 
  1504)     12726.7  Rx     00114FE8  5  01 00 00 E8 4F 
  1505)     12731.6  Rx     00016A76  7  01 00 00 0F 03 76 6A 
  1506)     12731.7  Rx     00116A76  5  01 00 00 76 6A 
  1507)     12736.6  Rx     00015CC2  7  01 00 00 0F 03 C2 5C 
  1508)     12736.7  Rx     00115CC2  5  01 00 00 C2 5C 
  1509)     12741.6  Rx     0001D7D4  7  01 00 00 0F 03 D4 D7 
  1510)     12741.7  Rx     0011D7D4  5  01 00 00 D4 D7 
  1511)     12746.6  Rx     00016AD6  7  01 00 00 0F 03 D6 6A 
  1512)     12746.7  Rx     00116AD6  5  01 00 00 D6 6A 
  1513)     12751.6  Rx     00016640  7  01 00 00 0F 03 40 66 
  1514)     12751.7  Rx     00116640  5  01 00 00 40 66 
  1515)     12756.6  Rx     00017E79  7  01 00 00 0F 03 79 7E 
  1516)     12756.7  Rx     00117E79  5  01 00 00 79 7E 
  1517)     12761.6  Rx     000159E9  7  01 00 00 0F 03 E9 59 
  1518)     12761.7  Rx     001159E9  5  01 00 00 E9 59 
  1519)     12766.6  Rx     0001FC20  7  01 00 00 0F 03 20 FC 
  1520)     12766.7  Rx     0011FC20  5  01 00 00 20 FC 
  1521)     12771.6  Rx     00016477  7  01 00 00 0F 03 77 64 
  1522)     12771.7  Rx     00116477  5  01 00 00 77 64 
  1523)     12776.6  Rx     00015D65  7  01 00 00 0F 03 65 5D 
  1524)     12776.7  Rx     00115D65  5  01 00 00 65 5D 
  1525)     12781.6  Rx     0001B5DD  7  01 00 00 0F 03 DD B5 
  1526)     12781.7  Rx     0011B5DD  5  01 00 00 DD B5 
  1527)     12786.6  Rx     0001F515  7  01 00 00 0F 03 15 F5 
  1528)     12786.7  Rx     0011F515  5  01 00 00 15 F5 
  1529)     12791.6  Rx     0001519E  7  01 00 00 0F 03 9E 51 
  1530)     12791.7  Rx     0011519E  5  01 00 00 9E 51 
  1531)     12796.6  Rx     0001C1B8  7  01 00 00 0F 03 B8 C1 
  1532)     12796.7  Rx     0011C1B8  5  01 00 00 B8 C1 
  1533)     12801.6  Rx     000118FD  7  01 00 00 0F 03 FD 18 
  1534)     12801.7  Rx     001118FD  5  01 00 00 FD 18 
  1535)     12806.6  Rx     000182C5  7  01 00 00 0F 03 C5 82 
  1536)     12806.7  Rx     001182C5  5  01 00 00 C5 82 
  1537)     12811.6  Rx     00014E7F  7  01 00 00 0F 03 7F 4E 
  1538)     12811.7  Rx     00114E7F  5  01 00 00 7F 4E 
  1539)     12816.6  Rx     0001275A  7  01 00 00 0F 03 5A 27 
  1540)     12816.7  Rx     0011275A  5  01 00 00 5A 27 
  1541)     12821.6  Rx     0001189E  7  01 00 00 0F 03 9E 18 
  1542)     12821.7  Rx     0011189E  5  01 00 00 9E 18 
  1543)     12826.6  Rx     0001BE26  7  01 00 00 0F 03 26 BE 
  1544)     12826.7  Rx     0011BE26  5  01 00 00 26 BE 
  1545)     12831.6  Rx     0001C9A0  7  01 00 00 0F 03 A0 C9 
  1546)     12831.7  Rx     0011C9A0  5  01 00 00 A0 C9 
  1547)     12836.6  Rx     000104F6  7  01 00 00 0F 03 F6 04 
  1548)     12836.7  Rx     001104F6  5  01 00 00 F6 04 
  1549)     12841.6  Rx     000143F4  7  01 00 00 0F 03 F4 43 
  1550)     12841.7  Rx     001143F4  5  01 00 00 F4 43 
  1551)     12846.6  Rx     0001A2F7  7  01 00 00 0F 03 F7 A2 
  1552)     12846.7  Rx     0011A2F7  5  01 00 00 F7 A2 
  1553)     12851.6  Rx     00018679  7  01 00 00 0F 03 79 86 
  1554)     12851.7  Rx     00118679  5  01 00 00 79 86 
  1555)     12856.6  Rx     000143B7  7  01 00 00 0F 03 B7 43 
  1556)     12856.7  Rx     001143B7  5  01 00 00 B7 43 
  1557)     12861.6  Rx     000199A5  7  01 00 00 0F 03 A5 99 
  1558)     12861.7  Rx     001199A5  5  01 00 00 A5 99 
  1559)     12866.6  Rx     0001BD63  7  01 00 00 0F 03 63 BD 
  1560)     12866.7  Rx     0011BD63  5  01 00 00 63 BD 
  1561)     12871.6  Rx     0001B662  7  01 00 00 0F 03 62 B6 
  1562)     12871.7  Rx     0011B662  5  01 00 00 62 B6 
  1563)     12876.6  Rx     000157D1  7  01 00 00 0F 03 D1 57 
  1564)     12876.7  Rx     001157D1  5  01 00 00 D1 57 
  1565)     12881.6  Rx     00013D1B  7  01 00 00 0F 03 1B 3D 
  1566)     12881.7  Rx     00113D1B  5  01 00 00 1B 3D 
  1567)     12886.6  Rx     00011665  7  01 00 00 0F 03 65 16 
  1568)     12886.7  Rx     00111665  5  01 00 00 65 16 
  1569)     12891.6  Rx     00010F4D  7  01 00 00 0F 03 4D 0F 
  1570)     12891.8  Rx     00110F4D  5  01 00 00 4D 0F 
  1571)     12896.6  Rx     0001B9C1  7  01 00 00 0F 03 C1 B9 
  1572)     12896.7  Rx     0011B9C1  5  01 00 00 C1 B9 
  1573)     12901.6  Rx     0001F39C  7  01 00 00 0F 03 9C F3 
  1574)     12901.7  Rx     0011F39C  5  01 00 00 9C F3 
  1575)     12906.6  Rx     0001EAED  7  01 00 00 0F 03 ED EA 
  1576)     12906.7  Rx     0011EAED  5  01 00 00 ED EA 
  1577)     12911.6  Rx     0001BC38  7  01 00 00 0F 03 38 BC 
  1578)     12911.7  Rx     0011BC38  5  01 00 00 38 BC 
  1579)     12916.6  Rx     00012854  7  01 00 00 0F 03 54 28 
  1580)     12916.7  Rx     00112854  5  01 00 00 54 28 
  1581)     12921.6  Rx     0001A91A  7  01 00 00 0F 03 1A A9 
  1582)     12921.8  Rx     0011A91A  5  01 00 00 1A A9 
  1583)     12926.6  Rx     000185C6  7  01 00 00 0F 03 C6 85 
  1584)     12926.7  Rx     001185C6  5  01 00 00 C6 85 
  1585)     12931.6  Rx     0001A35F  7  01 00 00 0F 03 5F A3 
  1586)     12931.7  Rx     0011A35F  5  01 00 00 5F A3 
  1587)     12936.6  Rx     0001FF68  7  01 00 00 0F 03 68 FF 
  1588)     12936.7  Rx     0011FF68  5  01 00 00 68 FF 
  1589)     12941.6  Rx     00011CCA  7  01 00 00 0F 03 CA 1C 
  1590)     12941.7  Rx     00111CCA  5  01 00 00 CA 1C 
  1591)     12946.6  Rx     00011834  7  01 00 00 0F 03 34 18 
  1592)     12946.8  Rx     00111834  5  01 00 00 34 18 
  1593)     12951.6  Rx     00013234  7  01 00 00 0F 03 34 32 
  1594)     12951.7  Rx     00113234  5  01 00 00 34 32 
  1595)     12956.6  Rx     00016F74  7  01 00 00 0F 03 74 6F 
  1596)     12956.7  Rx     00116F74  5  01 00 00 74 6F 
  1597)     12961.6  Rx     00015576  7  01 00 00 0F 03 76 55 
  1598)     12961.7  Rx     00115576  5  01 00 00 76 55 
  1599)     12966.6  Rx     00018160  7  01 00 00 0F 03 60 81 
  1600)     12966.7  Rx     00118160  5  01 00 00 60 81 
  1601)     12971.6  Rx     0001A70F  7  01 00 00 0F 03 0F A7 
  1602)     12971.7  Rx     0011A70F  5  01 00 00 0F A7 
  1603)     12976.6  Rx     0001F1C8  7  01 00 00 0F 03 C8 F1 
  1604)     12976.7  Rx     0011F1C8  5  01 00 00 C8 F1 
  1605)     12981.6  Rx     00013D92  7  01 00 00 0F 03 92 3D 
  1606)     12981.7  Rx     00113D92  5  01 00 00 92 3D 
  1607)     12986.6  Rx     00011C74  7  01 00 00 0F 03 74 1C 
  1608)     12986.7  Rx     00111C74  5  01 00 00 74 1C 
  1609)     12991.6  Rx     000108A4  7  01 00 00 0F 03 A4 08 
  1610)     12991.7  Rx     001108A4  5  01 00 00 A4 08 
  1611)     12996.6  Rx     00017D94  7  01 00 00 0F 03 94 7D 
  1612)     12996.7  Rx     00117D94  5  01 00 00 94 7D 
  1613)     13001.6  Rx     00013710  7  01 00 00 0F 03 10 37 
  1614)     13001.8  Rx     00113710  5  01 00 00 10 37 
  1615)     13006.6  Rx     00019984  7  01 00 00 0F 03 84 99 
  1616)     13006.7  Rx     00119984  5  01 00 00 84 99 
  1617)     13011.6  Rx     00013B38  7  01 00 00 0F 03 38 3B 
  1618)     13011.7  Rx     00113B38  5  01 00 00 38 3B 
  1619)     13016.6  Rx     0001E5AA  7  01 00 00 0F 03 AA E5 
  1620)     13016.7  Rx     0011E5AA  5  01 00 00 AA E5 
  1621)     13021.6  Rx     0001A6F2  7  01 00 00 0F 03 F2 A6 
  1622)     13021.7  Rx     0011A6F2  5  01 00 00 F2 A6 
  1623)     13026.6  Rx     0001B932  7  01 00 00 0F 03 32 B9 
  1624)     13026.7  Rx     0011B932  5  01 00 00 32 B9 
  1625)     13031.6  Rx     00010392  7  01 00 00 0F 03 92 03 
  1626)     13031.7  Rx     00110392  5  01 00 00 92 03 
  1627)     13036.6  Rx     00012302  7  01 00 00 0F 03 02 23 
  1628)     13036.7  Rx     00112302  5  01 00 00 02 23 
  1629)     13041.6  Rx     000180A3  7  01 00 00 0F 03 A3 80 
  1630)     13041.7  Rx     001180A3  5  01 00 00 A3 80 
  1631)     13046.6  Rx     00013B0F  7  01 00 00 0F 03 0F 3B 
