;$FILEVERSION=1.1
;$STARTTIME=46290.6748541667
;
;   Start time: 25/09/2026 16:11:47.400.0
;   Generated by PCAN-View v5.3.3.958
;
;   Message Number
;   |         Time Offset (ms)
;   |         |        Type
;   |         |        |        ID (hex)
;   |         |        |        |     Data Length
;   |         |        |        |     |   Data Bytes (hex) ...
;   |         |        |        |     |   |
;---+--   ----+----  --+--  ----+---  +  -+ -- -- -- -- -- -- --
     1)     14366.4  Rx     0001E911  7  01 00 00 0F 00 11 E9 
     2)     14366.6  Rx     0011E911  5  01 00 00 11 E9 
     3)     14371.5  Rx     0001B1D7  7  01 00 00 0F 03 D7 B1 
     4)     14371.6  Rx     0011B1D7  5  01 00 00 D7 B1 
     5)     14376.5  Rx     00013C1D  7  01 00 00 0F 03 1D 3C 
     6)     14376.6  Rx     00113C1D  5  01 00 00 1D 3C 
     7)     14381.5  Rx     000160AC  7  01 00 00 0F 03 AC 60 
     8)     14381.6  Rx     001160AC  5  01 00 00 AC 60 
     9)     14386.5  Rx     000147E4  7  01 00 00 0F 03 E4 47 
    10)     14386.6  Rx     001147E4  5  01 00 00 E4 47 
    11)     14391.4  Rx     0001F5E0  7  01 00 00 0F 03 E0 F5 
    12)     14391.6  Rx     0011F5E0  5  01 00 00 E0 F5 
    13)     14396.5  Rx     0001A832  7  01 00 00 0F 03 32 A8 
    14)     14396.6  Rx     0011A832  5  01 00 00 32 A8 
    15)     14401.5  Rx     000192EF  7  01 00 00 0F 03 EF 92 
    16)     14401.6  Rx     001192EF  5  01 00 00 EF 92 
    17)     14406.5  Rx     00019D66  7  01 00 00 0F 03 66 9D 
    18)     14406.6  Rx     00119D66  5  01 00 00 66 9D 
    19)     14411.5  Rx     0001B5A4  7  01 00 00 0F 03 A4 B5 
    20)     14411.6  Rx     0011B5A4  5  01 00 00 A4 B5 
    21)     14416.4  Rx     0001B00F  7  01 00 00 0F 03 0F B0 
    22)     14416.6  Rx     0011B00F  5  01 00 00 0F B0 
    23)     14421.4  Rx     0001C046  7  01 00 00 0F 03 46 C0 
    24)     14421.6  Rx     0011C046  5  01 00 00 46 C0 
    25)     14426.5  Rx     0001BA77  7  01 00 00 0F 03 77 BA 
    26)     14426.6  Rx     0011BA77  5  01 00 00 77 BA 
    27)     14431.5  Rx     0001BB4A  7  01 00 00 0F 03 4A BB 
    28)     14431.5  Rx     0011BB4A  5  01 00 00 4A BB 
    29)     14436.5  Rx     000120F4  7  01 00 00 0F 03 F4 20 
    30)     14436.6  Rx     001120F4  5  01 00 00 F4 20 
    31)     14441.4  Rx     00014489  7  01 00 00 0F 03 89 44 
    32)     14441.6  Rx     00114489  5  01 00 00 89 44 
    33)     14446.4  Rx     0001B2AB  7  01 00 00 0F 03 AB B2 
    34)     14446.6  Rx     0011B2AB  5  01 00 00 AB B2 
    35)     14451.4  Rx     000143C4  7  01 00 00 0F 03 C4 43 
    36)     14451.6  Rx     001143C4  5  01 00 00 C4 43 
    37)     14456.5  Rx     00010732  7  01 00 00 0F 03 32 07 
    38)     14456.6  Rx     00110732  5  01 00 00 32 07 
    39)     14461.5  Rx     00019E00  7  01 00 00 0F 03 00 9E 
    40)     14461.6  Rx     00119E00  5  01 00 00 00 9E 
    41)     14466.5  Rx     0001A631  7  01 00 00 0F 03 31 A6 
    42)     14466.6  Rx     0011A631  5  01 00 00 31 A6 
    43)     14471.4  Rx     00013502  7  01 00 00 0F 03 02 35 
    44)     14471.6  Rx     00113502  5  01 00 00 02 35 
    45)     14476.4  Rx     000104EE  7  01 00 00 0F 03 EE 04 
    46)     14476.6  Rx     001104EE  5  01 00 00 EE 04 
    47)     14481.5  Rx     000115F2  7  01 00 00 0F 03 F2 15 
    48)     14481.6  Rx     001115F2  5  01 00 00 F2 15 
    49)     14486.5  Rx     00018E71  7  01 00 00 0F 03 71 8E 
    50)     14486.5  Rx     00118E71  5  01 00 00 71 8E 
    51)     14491.5  Rx     000121E9  7  01 00 00 0F 03 E9 21 
    52)     14491.6  Rx     001121E9  5  01 00 00 E9 21 
    53)     14496.4  Rx     0001A99F  7  01 00 00 0F 03 9F A9 
    54)     14496.6  Rx     0011A99F  5  01 00 00 9F A9 
    55)     14501.4  Rx     000144FD  7  01 00 00 0F 03 FD 44 
    56)     14501.6  Rx     001144FD  5  01 00 00 FD 44 
    57)     14506.4  Rx     00011977  7  01 00 00 0F 03 77 19 
    58)     14506.6  Rx     00111977  5  01 00 00 77 19 
    59)     14511.5  Rx     00015006  7  01 00 00 0F 03 06 50 
    60)     14511.5  Rx     00115006  5  01 00 00 06 50 
    61)     14516.5  Rx     0001B25B  7  01 00 00 0F 03 5B B2 
    62)     14516.5  Rx     0011B25B  5  01 00 00 5B B2 
    63)     14521.4  Rx     0001AB2B  7  01 00 00 0F 03 2B AB 
    64)     14521.6  Rx     0011AB2B  5  01 00 00 2B AB 
    65)     14526.4  Rx     00017811  7  01 00 00 0F 03 11 78 
    66)     14526.6  Rx     00117811  5  01 00 00 11 78 
    67)     14531.4  Rx     0001D701  7  01 00 00 0F 03 01 D7 
    68)     14531.6  Rx     0011D701  5  01 00 00 01 D7 
    69)     14536.4  Rx     000172D6  7  01 00 00 0F 03 D6 72 
    70)     14536.6  Rx     001172D6  5  01 00 00 D6 72 
    71)     14541.5  Rx     000133C0  7  01 00 00 0F 03 C0 33 
    72)     14541.5  Rx     001133C0  5  01 00 00 C0 33 
    73)     14546.4  Rx     000122BA  7  01 00 00 0F 03 BA 22 
    74)     14546.5  Rx     001122BA  5  01 00 00 BA 22 
    75)     14551.4  Rx     0001A1D2  7  01 00 00 0F 03 D2 A1 
    76)     14551.6  Rx     0011A1D2  5  01 00 00 D2 A1 
    77)     14556.4  Rx     0001FF25  7  01 00 00 0F 03 25 FF 
    78)     14556.6  Rx     0011FF25  5  01 00 00 25 FF 
    79)     14561.4  Rx     0001D0D3  7  01 00 00 0F 03 D3 D0 
    80)     14561.6  Rx     0011D0D3  5  01 00 00 D3 D0 
    81)     14566.5  Rx     0001B534  7  01 00 00 0F 03 34 B5 
    82)     14566.5  Rx     0011B534  5  01 00 00 34 B5 
    83)     14571.5  Rx     000191B5  7  01 00 00 0F 03 B5 91 
    84)     14571.5  Rx     001191B5  5  01 00 00 B5 91 
    85)     14576.4  Rx     0001AA46  7  01 00 00 0F 03 46 AA 
    86)     14576.6  Rx     0011AA46  5  01 00 00 46 AA 
    87)     14581.4  Rx     000112A3  7  01 00 00 0F 03 A3 12 
    88)     14581.6  Rx     001112A3  5  01 00 00 A3 12 
    89)     14586.4  Rx     0001B4F7  7  01 00 00 0F 03 F7 B4 
    90)     14586.6  Rx     0011B4F7  5  01 00 00 F7 B4 
    91)     14591.4  Rx     00017ADE  7  01 00 00 0F 03 DE 7A 
    92)     14591.5  Rx     00117ADE  5  01 00 00 DE 7A 
    93)     14596.5  Rx     00012D60  7  01 00 00 0F 03 60 2D 
    94)     14596.5  Rx     00112D60  5  01 00 00 60 2D 
    95)     14601.4  Rx     000196A6  7  01 00 00 0F 03 A6 96 
    96)     14601.5  Rx     001196A6  5  01 00 00 A6 96 
    97)     14606.4  Rx     00016E4C  7  01 00 00 0F 03 4C 6E 
    98)     14606.6  Rx     00116E4C  5  01 00 00 4C 6E 
    99)     14611.4  Rx     000136EC  7  01 00 00 0F 03 EC 36 
   100)     14611.6  Rx     001136EC  5  01 00 00 EC 36 
   101)     14616.4  Rx     00010FC9  7  01 00 00 0F 03 C9 0F 
   102)     14616.5  Rx     00110FC9  5  01 00 00 C9 0F 
   103)     14621.5  Rx     0001BE60  7  01 00 00 0F 03 60 BE 
   104)     14621.5  Rx     0011BE60  5  01 00 00 60 BE 
   105)     14626.4  Rx     0001B437  7  01 00 00 0F 03 37 B4 
   106)     14626.5  Rx     0011B437  5  01 00 00 37 B4 
   107)     14631.4  Rx     0001C51D  7  01 00 00 0F 03 1D C5 
   108)     14631.5  Rx     0011C51D  5  01 00 00 1D C5 
   109)     14636.4  Rx     0001EBCB  7  01 00 00 0F 03 CB EB 
   110)     14636.6  Rx     0011EBCB  5  01 00 00 CB EB 
   111)     14641.4  Rx     000129F9  7  01 00 00 0F 03 F9 29 
   112)     14641.6  Rx     001129F9  5  01 00 00 F9 29 
   113)     14646.4  Rx     0001C718  7  01 00 00 0F 03 18 C7 
   114)     14646.5  Rx     0011C718  5  01 00 00 18 C7 
   115)     14651.4  Rx     00015046  7  01 00 00 0F 03 46 50 
   116)     14651.5  Rx     00115046  5  01 00 00 46 50 
   117)     14656.4  Rx     0001C425  7  01 00 00 0F 03 25 C4 
   118)     14656.5  Rx     0011C425  5  01 00 00 25 C4 
   119)     14661.4  Rx     0001468C  7  01 00 00 0F 03 8C 46 
   120)     14661.6  Rx     0011468C  5  01 00 00 8C 46 
   121)     14666.4  Rx     0001FE10  7  01 00 00 0F 03 10 FE 
   122)     14666.6  Rx     0011FE10  5  01 00 00 10 FE 
   123)     14671.4  Rx     00013680  7  01 00 00 0F 03 80 36 
   124)     14671.5  Rx     00113680  5  01 00 00 80 36 
   125)     14676.4  Rx     00015E52  7  01 00 00 0F 03 52 5E 
   126)     14676.5  Rx     00115E52  5  01 00 00 52 5E 
   127)     14681.4  Rx     0001EC3F  7  01 00 00 0F 03 3F EC 
   128)     14681.5  Rx     0011EC3F  5  01 00 00 3F EC 
   129)     14686.4  Rx     0001C724  7  01 00 00 0F 03 24 C7 
   130)     14686.5  Rx     0011C724  5  01 00 00 24 C7 
   131)     14691.4  Rx     000122A1  7  01 00 00 0F 03 A1 22 
   132)     14691.6  Rx     001122A1  5  01 00 00 A1 22 
   133)     14696.4  Rx     0001718C  7  01 00 00 0F 03 8C 71 
   134)     14696.5  Rx     0011718C  5  01 00 00 8C 71 
   135)     14701.4  Rx     0001E417  7  01 00 00 0F 03 17 E4 
   136)     14701.5  Rx     0011E417  5  01 00 00 17 E4 
   137)     14706.4  Rx     00015223  7  01 00 00 0F 03 23 52 
   138)     14706.5  Rx     00115223  5  01 00 00 23 52 
   139)     14711.4  Rx     00011F70  7  01 00 00 0F 03 70 1F 
   140)     14711.5  Rx     00111F70  5  01 00 00 70 1F 
   141)     14716.4  Rx     00011A8E  7  01 00 00 0F 03 8E 1A 
   142)     14716.6  Rx     00111A8E  5  01 00 00 8E 1A 
   143)     14721.4  Rx     00017D87  7  01 00 00 0F 03 87 7D 
   144)     14721.6  Rx     00117D87  5  01 00 00 87 7D 
   145)     14726.4  Rx     00017247  7  01 00 00 0F 03 47 72 
   146)     14726.5  Rx     00117247  5  01 00 00 47 72 
   147)     14731.4  Rx     00019C97  7  01 00 00 0F 03 97 9C 
   148)     14731.5  Rx     00119C97  5  01 00 00 97 9C 
   149)     14736.4  Rx     0001181C  7  01 00 00 0F 03 1C 18 
   150)     14736.5  Rx     0011181C  5  01 00 00 1C 18 
   151)     14741.4  Rx     00010BCD  7  01 00 00 0F 03 CD 0B 
   152)     14741.5  Rx     00110BCD  5  01 00 00 CD 0B 
   153)     14746.4  Rx     00016A9C  7  01 00 00 0F 03 9C 6A 
   154)     14746.6  Rx     00116A9C  5  01 00 00 9C 6A 
   155)     14751.4  Rx     00018D57  7  01 00 00 0F 03 57 8D 
   156)     14751.5  Rx     00118D57  5  01 00 00 57 8D 
   157)     14756.4  Rx     00012044  7  01 00 00 0F 03 44 20 
   158)     14756.5  Rx     00112044  5  01 00 00 44 20 
   159)     14761.4  Rx     000196FC  7  01 00 00 0F 03 FC 96 
   160)     14761.5  Rx     001196FC  5  01 00 00 FC 96 
   161)     14766.4  Rx     0001B523  7  01 00 00 0F 03 23 B5 
   162)     14766.5  Rx     0011B523  5  01 00 00 23 B5 
   163)     14771.4  Rx     000160FE  7  01 00 00 0F 03 FE 60 
   164)     14771.6  Rx     001160FE  5  01 00 00 FE 60 
   165)     14776.4  Rx     00013260  7  01 00 00 0F 03 60 32 
   166)     14776.5  Rx     00113260  5  01 00 00 60 32 
   167)     14781.4  Rx     000150D8  7  01 00 00 0F 03 D8 50 
   168)     14781.5  Rx     001150D8  5  01 00 00 D8 50 
   169)     14786.4  Rx     0001E8B6  7  01 00 00 0F 03 B6 E8 
   170)     14786.5  Rx     0011E8B6  5  01 00 00 B6 E8 
   171)     14791.4  Rx     00013518  7  01 00 00 0F 03 18 35 
   172)     14791.5  Rx     00113518  5  01 00 00 18 35 
   173)     14796.4  Rx     0001E5E2  7  01 00 00 0F 03 E2 E5 
   174)     14796.5  Rx     0011E5E2  5  01 00 00 E2 E5 
   175)     14801.4  Rx     00013164  7  01 00 00 0F 03 64 31 
   176)     14801.5  Rx     00113164  5  01 00 00 64 31 
   177)     14806.4  Rx     000171A9  7  01 00 00 0F 03 A9 71 
   178)     14806.5  Rx     001171A9  5  01 00 00 A9 71 
   179)     14811.4  Rx     0001C167  7  01 00 00 0F 03 67 C1 
   180)     14811.5  Rx     0011C167  5  01 00 00 67 C1 
   181)     14816.4  Rx     0001ADCE  7  01 00 00 0F 03 CE AD 
   182)     14816.5  Rx     0011ADCE  5  01 00 00 CE AD 
   183)     14821.4  Rx     0001833B  7  01 00 00 0F 03 3B 83 
   184)     14821.5  Rx     0011833B  5  01 00 00 3B 83 
   185)     14826.4  Rx     00016934  7  01 00 00 0F 03 34 69 
   186)     14826.5  Rx     00116934  5  01 00 00 34 69 
   187)     14831.4  Rx     00018192  7  01 00 00 0F 03 92 81 
   188)     14831.5  Rx     00118192  5  01 00 00 92 81 
   189)     14836.4  Rx     00014505  7  01 00 00 0F 03 05 45 
   190)     14836.5  Rx     00114505  5  01 00 00 05 45 
   191)     14841.4  Rx     000173A2  7  01 00 00 0F 03 A2 73 
   192)     14841.5  Rx     001173A2  5  01 00 00 A2 73 
   193)     14846.4  Rx     00017392  7  01 00 00 0F 03 92 73 
   194)     14846.5  Rx     00117392  5  01 00 00 92 73 
   195)     14851.4  Rx     0001B89F  7  01 00 00 0F 03 9F B8 
   196)     14851.5  Rx     0011B89F  5  01 00 00 9F B8 
   197)     14856.4  Rx     0001E747  7  01 00 00 0F 03 47 E7 
   198)     14856.5  Rx     0011E747  5  01 00 00 47 E7 
   199)     14861.4  Rx     00019E59  7  01 00 00 0F 03 59 9E 
   200)     14861.5  Rx     00119E59  5  01 00 00 59 9E 
   201)     14866.4  Rx     000170E8  7  01 00 00 0F 03 E8 70 
   202)     14866.5  Rx     001170E8  5  01 00 00 E8 70 
   203)     14871.4  Rx     00018A22  7  01 00 00 0F 03 22 8A 
   204)     14871.5  Rx     00118A22  5  01 00 00 22 8A 
   205)     14876.4  Rx     00019AF6  7  01 00 00 0F 03 F6 9A 
   206)     14876.5  Rx     00119AF6  5  01 00 00 F6 9A 
   207)     14881.4  Rx     0001AD34  7  01 00 00 0F 03 34 AD 
   208)     14881.5  Rx     0011AD34  5  01 00 00 34 AD 
   209)     14886.4  Rx     000174E7  7  01 00 00 0F 03 E7 74 
   210)     14886.5  Rx     001174E7  5  01 00 00 E7 74 
   211)     14891.4  Rx     0001F932  7  01 00 00 0F 03 32 F9 
   212)     14891.5  Rx     0011F932  5  01 00 00 32 F9 
   213)     14896.4  Rx     00019F9A  7  01 00 00 0F 03 9A 9F 
   214)     14896.5  Rx     00119F9A  5  01 00 00 9A 9F 
   215)     14901.4  Rx     0001D36C  7  01 00 00 0F 03 6C D3 
   216)     14901.5  Rx     0011D36C  5  01 00 00 6C D3 
   217)     14906.4  Rx     00017530  7  01 00 00 0F 03 30 75 
   218)     14906.5  Rx     00117530  5  01 00 00 30 75 
   219)     14911.4  Rx     0001151E  7  01 00 00 0F 03 1E 15 
   220)     14911.5  Rx     0011151E  5  01 00 00 1E 15 
   221)     14916.4  Rx     0001A128  7  01 00 00 0F 03 28 A1 
   222)     14916.5  Rx     0011A128  5  01 00 00 28 A1 
   223)     14921.4  Rx     000164B5  7  01 00 00 0F 03 B5 64 
   224)     14921.5  Rx     001164B5  5  01 00 00 B5 64 
   225)     14926.4  Rx     00012A79  7  01 00 00 0F 03 79 2A 
   226)     14926.5  Rx     00112A79  5  01 00 00 79 2A 
   227)     14931.4  Rx     0001EBE3  7  01 00 00 0F 03 E3 EB 
   228)     14931.5  Rx     0011EBE3  5  01 00 00 E3 EB 
   229)     14936.4  Rx     00011801  7  01 00 00 0F 03 01 18 
   230)     14936.5  Rx     00111801  5  01 00 00 01 18 
   231)     14941.4  Rx     0001740E  7  01 00 00 0F 03 0E 74 
   232)     14941.5  Rx     0011740E  5  01 00 00 0E 74 
   233)     14946.4  Rx     0001DC73  7  01 00 00 0F 03 73 DC 
   234)     14946.5  Rx     0011DC73  5  01 00 00 73 DC 
   235)     14951.4  Rx     00019E5A  7  01 00 00 0F 03 5A 9E 
   236)     14951.5  Rx     00119E5A  5  01 00 00 5A 9E 
   237)     14956.4  Rx     000191BB  7  01 00 00 0F 03 BB 91 
   238)     14956.5  Rx     001191BB  5  01 00 00 BB 91 
   239)     14961.4  Rx     0001525B  7  01 00 00 0F 03 5B 52 
   240)     14961.5  Rx     0011525B  5  01 00 00 5B 52 
   241)     14966.4  Rx     0001306A  7  01 00 00 0F 03 6A 30 
   242)     14966.5  Rx     0011306A  5  01 00 00 6A 30 
   243)     14971.4  Rx     00019234  7  01 00 00 0F 03 34 92 
   244)     14971.5  Rx     00119234  5  01 00 00 34 92 
   245)     14976.4  Rx     0001FEA2  7  01 00 00 0F 03 A2 FE 
   246)     14976.5  Rx     0011FEA2  5  01 00 00 A2 FE 
   247)     14981.4  Rx     000118B4  7  01 00 00 0F 03 B4 18 
   248)     14981.5  Rx     001118B4  5  01 00 00 B4 18 
   249)     14986.4  Rx     0001FEA9  7  01 00 00 0F 03 A9 FE 
   250)     14986.5  Rx     0011FEA9  5  01 00 00 A9 FE 
   251)     14991.4  Rx     00014DA7  7  01 00 00 0F 03 A7 4D 
   252)     14991.5  Rx     00114DA7  5  01 00 00 A7 4D 
   253)     14996.4  Rx     00010BFC  7  01 00 00 0F 03 FC 0B 
   254)     14996.5  Rx     00110BFC  5  01 00 00 FC 0B 
   255)     15001.4  Rx     0001527A  7  01 00 00 0F 03 7A 52 
   256)     15001.5  Rx     0011527A  5  01 00 00 7A 52 
   257)     15006.4  Rx     00011AA2  7  01 00 00 0F 03 A2 1A 
   258)     15006.5  Rx     00111AA2  5  01 00 00 A2 1A 
   259)     15011.4  Rx     0001B4E4  7  01 00 00 0F 03 E4 B4 
   260)     15011.5  Rx     0011B4E4  5  01 00 00 E4 B4 
   261)     15016.4  Rx     0001670F  7  01 00 00 0F 03 0F 67 
   262)     15016.5  Rx     0011670F  5  01 00 00 0F 67 
   263)     15021.4  Rx     00017B2D  7  01 00 00 0F 03 2D 7B 
   264)     15021.5  Rx     00117B2D  5  01 00 00 2D 7B 
   265)     15026.4  Rx     000121D1  7  01 00 00 0F 03 D1 21 
   266)     15026.5  Rx     001121D1  5  01 00 00 D1 21 
   267)     15031.4  Rx     0001FD4F  7  01 00 00 0F 03 4F FD 
   268)     15031.5  Rx     0011FD4F  5  01 00 00 4F FD 
   269)     15036.4  Rx     00011CE3  7  01 00 00 0F 03 E3 1C 
   270)     15036.5  Rx     00111CE3  5  01 00 00 E3 1C 
   271)     15041.4  Rx     00018000  7  01 00 00 0F 03 00 80 
   272)     15041.5  Rx     00118000  5  01 00 00 00 80 
   273)     15046.4  Rx     00015D5B  7  01 00 00 0F 03 5B 5D 
   274)     15046.5  Rx     00115D5B  5  01 00 00 5B 5D 
   275)     15051.4  Rx     0001C66C  7  01 00 00 0F 03 6C C6 
   276)     15051.5  Rx     0011C66C  5  01 00 00 6C C6 
   277)     15056.4  Rx     0001DEC7  7  01 00 00 0F 03 C7 DE 
   278)     15056.5  Rx     0011DEC7  5  01 00 00 C7 DE 
   279)     15061.4  Rx     00018128  7  01 00 00 0F 03 28 81 
   280)     15061.5  Rx     00118128  5  01 00 00 28 81 
   281)     15066.4  Rx     00017E79  7  01 00 00 0F 03 79 7E 
   282)     15066.5  Rx     00117E79  5  01 00 00 79 7E 
   283)     15071.4  Rx     0001309A  7  01 00 00 0F 03 9A 30 
   284)     15071.5  Rx     0011309A  5  01 00 00 9A 30 
   285)     15076.4  Rx     00014F94  7  01 00 00 0F 03 94 4F 
   286)     15076.5  Rx     00114F94  5  01 00 00 94 4F 
   287)     15081.4  Rx     000122F7  7  01 00 00 0F 03 F7 22 
   288)     15081.5  Rx     001122F7  5  01 00 00 F7 22 
   289)     15086.4  Rx     00016D96  7  01 00 00 0F 03 96 6D 
   290)     15086.5  Rx     00116D96  5  01 00 00 96 6D 
   291)     15091.4  Rx     0001E582  7  01 00 00 0F 03 82 E5 
   292)     15091.5  Rx     0011E582  5  01 00 00 82 E5 
   293)     15096.4  Rx     00015DB3  7  01 00 00 0F 03 B3 5D 
   294)     15096.5  Rx     00115DB3  5  01 00 00 B3 5D 
   295)     15101.4  Rx     00014EAB  7  01 00 00 0F 03 AB 4E 
   296)     15101.5  Rx     00114EAB  5  01 00 00 AB 4E 
   297)     15106.4  Rx     00013039  7  01 00 00 0F 03 39 30 
   298)     15106.5  Rx     00113039  5  01 00 00 39 30 
   299)     15111.4  Rx     0001264C  7  01 00 00 0F 03 4C 26 
   300)     15111.5  Rx     0011264C  5  01 00 00 4C 26 
   301)     15116.4  Rx     000191DF  7  01 00 00 0F 03 DF 91 
   302)     15116.5  Rx     001191DF  5  01 00 00 DF 91 
   303)     15121.4  Rx     0001A706  7  01 00 00 0F 03 06 A7 
   304)     15121.5  Rx     0011A706  5  01 00 00 06 A7 
   305)     15126.4  Rx     0001A9A3  7  01 00 00 0F 03 A3 A9 
   306)     15126.5  Rx     0011A9A3  5  01 00 00 A3 A9 
   307)     15131.4  Rx     0001E396  7  01 00 00 0F 03 96 E3 
   308)     15131.5  Rx     0011E396  5  01 00 00 96 E3 
   309)     15136.4  Rx     000152AA  7  01 00 00 0F 03 AA 52 
   310)     15136.5  Rx     001152AA  5  01 00 00 AA 52 
   311)     15141.4  Rx     0001289D  7  01 00 00 0F 03 9D 28 
   312)     15141.5  Rx     0011289D  5  01 00 00 9D 28 
   313)     15146.4  Rx     00015E38  7  01 00 00 0F 03 38 5E 
   314)     15146.5  Rx     00115E38  5  01 00 00 38 5E 
   315)     15151.4  Rx     0001C325  7  01 00 00 0F 03 25 C3 
   316)     15151.5  Rx     0011C325  5  01 00 00 25 C3 
   317)     15156.4  Rx     000144C0  7  01 00 00 0F 03 C0 44 
   318)     15156.5  Rx     001144C0  5  01 00 00 C0 44 
   319)     15161.4  Rx     0001B5F0  7  01 00 00 0F 03 F0 B5 
   320)     15161.5  Rx     0011B5F0  5  01 00 00 F0 B5 
   321)     15166.4  Rx     00015D9E  7  01 00 00 0F 03 9E 5D 
   322)     15166.5  Rx     00115D9E  5  01 00 00 9E 5D 
   323)     15171.4  Rx     00013F58  7  01 00 00 0F 03 58 3F 
   324)     15171.5  Rx     00113F58  5  01 00 00 58 3F 
   325)     15176.4  Rx     000197ED  7  01 00 00 0F 03 ED 97 
   326)     15176.5  Rx     001197ED  5  01 00 00 ED 97 
   327)     15181.4  Rx     0001973D  7  01 00 00 0F 03 3D 97 
   328)     15181.5  Rx     0011973D  5  01 00 00 3D 97 
   329)     15186.4  Rx     000107A5  7  01 00 00 0F 03 A5 07 
   330)     15186.5  Rx     001107A5  5  01 00 00 A5 07 
   331)     15191.4  Rx     00019C5F  7  01 00 00 0F 03 5F 9C 
   332)     15191.5  Rx     00119C5F  5  01 00 00 5F 9C 
   333)     15196.4  Rx     000140DF  7  01 00 00 0F 03 DF 40 
   334)     15196.5  Rx     001140DF  5  01 00 00 DF 40 
   335)     15201.4  Rx     00012214  7  01 00 00 0F 03 14 22 
   336)     15201.5  Rx     00112214  5  01 00 00 14 22 
   337)     15206.4  Rx     0001CFEC  7  01 00 00 0F 03 EC CF 
   338)     15206.5  Rx     0011CFEC  5  01 00 00 EC CF 
   339)     15211.4  Rx     0001272F  7  01 00 00 0F 03 2F 27 
   340)     15211.5  Rx     0011272F  5  01 00 00 2F 27 
   341)     15216.4  Rx     000173AB  7  01 00 00 0F 03 AB 73 
   342)     15216.5  Rx     001173AB  5  01 00 00 AB 73 
   343)     15221.4  Rx     000138A9  7  01 00 00 0F 03 A9 38 
   344)     15221.5  Rx     001138A9  5  01 00 00 A9 38 
   345)     15226.4  Rx     00011C3F  7  01 00 00 0F 03 3F 1C 
   346)     15226.5  Rx     00111C3F  5  01 00 00 3F 1C 
   347)     15231.4  Rx     00010634  7  01 00 00 0F 03 34 06 
   348)     15231.5  Rx     00110634  5  01 00 00 34 06 
   349)     15236.4  Rx     0001C711  7  01 00 00 0F 03 11 C7 
   350)     15236.5  Rx     0011C711  5  01 00 00 11 C7 
   351)     15241.4  Rx     0001ECEB  7  01 00 00 0F 03 EB EC 
   352)     15241.5  Rx     0011ECEB  5  01 00 00 EB EC 
   353)     15246.4  Rx     00011DC2  7  01 00 00 0F 03 C2 1D 
   354)     15246.5  Rx     00111DC2  5  01 00 00 C2 1D 
   355)     15251.4  Rx     00017FC3  7  01 00 00 0F 03 C3 7F 
   356)     15251.5  Rx     00117FC3  5  01 00 00 C3 7F 
   357)     15256.4  Rx     0001A07E  7  01 00 00 0F 03 7E A0 
   358)     15256.5  Rx     0011A07E  5  01 00 00 7E A0 
   359)     15261.4  Rx     0001F758  7  01 00 00 0F 03 58 F7 
   360)     15261.5  Rx     0011F758  5  01 00 00 58 F7 
   361)     15266.4  Rx     000188CE  7  01 00 00 0F 03 CE 88 
   362)     15266.5  Rx     001188CE  5  01 00 00 CE 88 
   363)     15271.4  Rx     0001EA55  7  01 00 00 0F 03 55 EA 
   364)     15271.5  Rx     0011EA55  5  01 00 00 55 EA 
   365)     15276.4  Rx     000184D5  7  01 00 00 0F 03 D5 84 
   366)     15276.5  Rx     001184D5  5  01 00 00 D5 84 
   367)     15281.4  Rx     0001518D  7  01 00 00 0F 03 8D 51 
   368)     15281.5  Rx     0011518D  5  01 00 00 8D 51 
   369)     15286.4  Rx     0001779E  7  01 00 00 0F 03 9E 77 
   370)     15286.5  Rx     0011779E  5  01 00 00 9E 77 
   371)     15291.4  Rx     0001D675  7  01 00 00 0F 03 75 D6 
   372)     15291.5  Rx     0011D675  5  01 00 00 75 D6 
   373)     15296.4  Rx     000151EC  7  01 00 00 0F 03 EC 51 
   374)     15296.5  Rx     001151EC  5  01 00 00 EC 51 
   375)     15301.4  Rx     0001D49F  7  01 00 00 0F 03 9F D4 
   376)     15301.5  Rx     0011D49F  5  01 00 00 9F D4 
   377)     15306.4  Rx     00012BA8  7  01 00 00 0F 03 A8 2B 
   378)     15306.5  Rx     00112BA8  5  01 00 00 A8 2B 
   379)     15311.4  Rx     0001FA74  7  01 00 00 0F 03 74 FA 
   380)     15311.5  Rx     0011FA74  5  01 00 00 74 FA 
   381)     15316.4  Rx     0001A0D7  7  01 00 00 0F 03 D7 A0 
   382)     15316.5  Rx     0011A0D7  5  01 00 00 D7 A0 
   383)     15321.3  Rx     0001B72C  7  01 00 00 0F 03 2C B7 
   384)     15321.5  Rx     0011B72C  5  01 00 00 2C B7 
   385)     15326.4  Rx     0001E1CB  7  01 00 00 0F 03 CB E1 
   386)     15326.5  Rx     0011E1CB  5  01 00 00 CB E1 
   387)     15331.4  Rx     00016FE1  7  01 00 00 0F 03 E1 6F 
   388)     15331.5  Rx     00116FE1  5  01 00 00 E1 6F 
   389)     15336.4  Rx     000118E8  7  01 00 00 0F 03 E8 18 
   390)     15336.5  Rx     001118E8  5  01 00 00 E8 18 
   391)     15341.4  Rx     00011730  7  01 00 00 0F 03 30 17 
   392)     15341.5  Rx     00111730  5  01 00 00 30 17 
   393)     15346.4  Rx     0001B92D  7  01 00 00 0F 03 2D B9 
   394)     15346.5  Rx     0011B92D  5  01 00 00 2D B9 
   395)     15351.4  Rx     00018EBB  7  01 00 00 0F 03 BB 8E 
   396)     15351.5  Rx     00118EBB  5  01 00 00 BB 8E 
   397)     15356.4  Rx     0001AF71  7  01 00 00 0F 03 71 AF 
   398)     15356.5  Rx     0011AF71  5  01 00 00 71 AF 
   399)     15361.4  Rx     0001A797  7  01 00 00 0F 03 97 A7 
   400)     15361.5  Rx     0011A797  5  01 00 00 97 A7 
   401)     15366.4  Rx     000160E2  7  01 00 00 0F 03 E2 60 
   402)     15366.5  Rx     001160E2  5  01 00 00 E2 60 
   403)     15371.4  Rx     00013663  7  01 00 00 0F 03 63 36 
   404)     15371.5  Rx     00113663  5  01 00 00 63 36 
   405)     15376.3  Rx     0001004E  7  01 00 00 0F 03 4E 00 
   406)     15376.5  Rx     0011004E  5  01 00 00 4E 00 
   407)     15381.4  Rx     00012196  7  01 00 00 0F 03 96 21 
   408)     15381.5  Rx     00112196  5  01 00 00 96 21 
   409)     15386.4  Rx     0001F44B  7  01 00 00 0F 03 4B F4 
   410)     15386.5  Rx     0011F44B  5  01 00 00 4B F4 
   411)     15391.4  Rx     0001AC53  7  01 00 00 0F 03 53 AC 
   412)     15391.5  Rx     0011AC53  5  01 00 00 53 AC 
   413)     15396.4  Rx     0001AB25  7  01 00 00 0F 03 25 AB 
   414)     15396.5  Rx     0011AB25  5  01 00 00 25 AB 
   415)     15401.4  Rx     0001E9B9  7  01 00 00 0F 03 B9 E9 
   416)     15401.5  Rx     0011E9B9  5  01 00 00 B9 E9 
   417)     15406.4  Rx     0001DE44  7  01 00 00 0F 03 44 DE 
   418)     15406.5  Rx     0011DE44  5  01 00 00 44 DE 
   419)     15411.4  Rx     0001CC8F  7  01 00 00 0F 03 8F CC 
   420)     15411.5  Rx     0011CC8F  5  01 00 00 8F CC 
   421)     15416.4  Rx     0001896A  7  01 00 00 0F 03 6A 89 
   422)     15416.5  Rx     0011896A  5  01 00 00 6A 89 
   423)     15421.4  Rx     000194BB  7  01 00 00 0F 03 BB 94 
   424)     15421.5  Rx     001194BB  5  01 00 00 BB 94 
   425)     15426.4  Rx     000186FB  7  01 00 00 0F 03 FB 86 
   426)     15426.5  Rx     001186FB  5  01 00 00 FB 86 
   427)     15431.4  Rx     00010FDE  7  01 00 00 0F 03 DE 0F 
   428)     15431.5  Rx     00110FDE  5  01 00 00 DE 0F 
   429)     15436.4  Rx     00010D25  7  01 00 00 0F 03 25 0D 
   430)     15436.5  Rx     00110D25  5  01 00 00 25 0D 
   431)     15441.4  Rx     00017418  7  01 00 00 0F 03 18 74 
   432)     15441.5  Rx     00117418  5  01 00 00 18 74 
   433)     15446.4  Rx     000138A1  7  01 00 00 0F 03 A1 38 
   434)     15446.5  Rx     001138A1  5  01 00 00 A1 38 
   435)     15451.4  Rx     00018BB8  7  01 00 00 0F 03 B8 8B 
   436)     15451.5  Rx     00118BB8  5  01 00 00 B8 8B 
   437)     15456.4  Rx     00019472  7  01 00 00 0F 03 72 94 
   438)     15456.5  Rx     00119472  5  01 00 00 72 94 
   439)     15461.4  Rx     00013E62  7  01 00 00 0F 03 62 3E 
   440)     15461.5  Rx     00113E62  5  01 00 00 62 3E 
   441)     15466.4  Rx     0001FAC2  7  01 00 00 0F 03 C2 FA 
   442)     15466.5  Rx     0011FAC2  5  01 00 00 C2 FA 
   443)     15471.4  Rx     00011BFD  7  01 00 00 0F 03 FD 1B 
   444)     15471.5  Rx     00111BFD  5  01 00 00 FD 1B 
   445)     15476.4  Rx     0001B5CB  7  01 00 00 0F 03 CB B5 
   446)     15476.5  Rx     0011B5CB  5  01 00 00 CB B5 
   447)     15481.4  Rx     00017356  7  01 00 00 0F 03 56 73 
   448)     15481.5  Rx     00117356  5  01 00 00 56 73 
   449)     15486.4  Rx     00014474  7  01 00 00 0F 03 74 44 
   450)     15486.5  Rx     00114474  5  01 00 00 74 44 
   451)     15491.4  Rx     0001666A  7  01 00 00 0F 03 6A 66 
   452)     15491.5  Rx     0011666A  5  01 00 00 6A 66 
   453)     15496.4  Rx     00018907  7  01 00 00 0F 03 07 89 
   454)     15496.5  Rx     00118907  5  01 00 00 07 89 
   455)     15501.4  Rx     000117AE  7  01 00 00 0F 03 AE 17 
   456)     15501.5  Rx     001117AE  5  01 00 00 AE 17 
   457)     15506.4  Rx     0001E131  7  01 00 00 0F 03 31 E1 
   458)     15506.5  Rx     0011E131  5  01 00 00 31 E1 
   459)     15511.4  Rx     0001EBCA  7  01 00 00 0F 03 CA EB 
   460)     15511.5  Rx     0011EBCA  5  01 00 00 CA EB 
   461)     15516.4  Rx     0001F921  7  01 00 00 0F 03 21 F9 
   462)     15516.5  Rx     0011F921  5  01 00 00 21 F9 
   463)     15521.4  Rx     00012CB3  7  01 00 00 0F 03 B3 2C 
   464)     15521.5  Rx     00112CB3  5  01 00 00 B3 2C 
   465)     15526.4  Rx     0001B884  7  01 00 00 0F 03 84 B8 
   466)     15526.5  Rx     0011B884  5  01 00 00 84 B8 
   467)     15531.4  Rx     000116EF  7  01 00 00 0F 03 EF 16 
   468)     15531.5  Rx     001116EF  5  01 00 00 EF 16 
   469)     15536.4  Rx     000126B9  7  01 00 00 0F 03 B9 26 
   470)     15536.5  Rx     001126B9  5  01 00 00 B9 26 
   471)     15541.4  Rx     00015399  7  01 00 00 0F 03 99 53 
   472)     15541.5  Rx     00115399  5  01 00 00 99 53 
   473)     15546.4  Rx     0001A866  7  01 00 00 0F 03 66 A8 
   474)     15546.5  Rx     0011A866  5  01 00 00 66 A8 
   475)     15551.4  Rx     0001455F  7  01 00 00 0F 03 5F 45 
   476)     15551.5  Rx     0011455F  5  01 00 00 5F 45 
   477)     15556.4  Rx     00019B5A  7  01 00 00 0F 03 5A 9B 
   478)     15556.5  Rx     00119B5A  5  01 00 00 5A 9B 
   479)     15561.4  Rx     00013089  7  01 00 00 0F 03 89 30 
   480)     15561.5  Rx     00113089  5  01 00 00 89 30 
   481)     15566.4  Rx     00014A64  7  01 00 00 0F 03 64 4A 
   482)     15566.5  Rx     00114A64  5  01 00 00 64 4A 
   483)     15571.4  Rx     0001F5CE  7  01 00 00 0F 03 CE F5 
   484)     15571.5  Rx     0011F5CE  5  01 00 00 CE F5 
   485)     15576.4  Rx     0001AD80  7  01 00 00 0F 03 80 AD 
   486)     15576.5  Rx     0011AD80  5  01 00 00 80 AD 
   487)     15581.4  Rx     0001417D  7  01 00 00 0F 03 7D 41 
   488)     15581.5  Rx     0011417D  5  01 00 00 7D 41 
   489)     15586.4  Rx     0001C388  7  01 00 00 0F 03 88 C3 
   490)     15586.5  Rx     0011C388  5  01 00 00 88 C3 
   491)     15591.4  Rx     0001A84E  7  01 00 00 0F 03 4E A8 
   492)     15591.5  Rx     0011A84E  5  01 00 00 4E A8 
   493)     15596.4  Rx     0001C957  7  01 00 00 0F 03 57 C9 
   494)     15596.5  Rx     0011C957  5  01 00 00 57 C9 
   495)     15601.4  Rx     000130CF  7  01 00 00 0F 03 CF 30 
   496)     15601.5  Rx     001130CF  5  01 00 00 CF 30 
   497)     15606.4  Rx     000192F4  7  01 00 00 0F 03 F4 92 
   498)     15606.5  Rx     001192F4  5  01 00 00 F4 92 
   499)     15611.4  Rx     00011C47  7  01 00 00 0F 03 47 1C 
   500)     15611.5  Rx     00111C47  5  01 00 00 47 1C 
   501)     15616.4  Rx     0001C643  7  01 00 00 0F 03 43 C6 
   502)     15616.5  Rx     0011C643  5  01 00 00 43 C6 
   503)     15621.4  Rx     00017F8F  7  01 00 00 0F 03 8F 7F 
   504)     15621.5  Rx     00117F8F  5  01 00 00 8F 7F 
   505)     15626.4  Rx     00017B4E  7  01 00 00 0F 03 4E 7B 
   506)     15626.5  Rx     00117B4E  5  01 00 00 4E 7B 
   507)     15631.3  Rx     00013827  7  01 00 00 0F 03 27 38 
   508)     15631.5  Rx     00113827  5  01 00 00 27 38 
   509)     15636.4  Rx     00012923  7  01 00 00 0F 03 23 29 
   510)     15636.5  Rx     00112923  5  01 00 00 23 29 
   511)     15641.4  Rx     00010F97  7  01 00 00 0F 03 97 0F 
   512)     15641.5  Rx     00110F97  5  01 00 00 97 0F 
   513)     15646.4  Rx     000122DF  7  01 00 00 0F 03 DF 22 
   514)     15646.5  Rx     001122DF  5  01 00 00 DF 22 
   515)     15651.4  Rx     000146D8  7  01 00 00 0F 03 D8 46 
   516)     15651.5  Rx     001146D8  5  01 00 00 D8 46 
   517)     15656.3  Rx     00018B55  7  01 00 00 0F 03 55 8B 
   518)     15656.5  Rx     00118B55  5  01 00 00 55 8B 
   519)     15661.4  Rx     0001BD5E  7  01 00 00 0F 03 5E BD 
   520)     15661.5  Rx     0011BD5E  5  01 00 00 5E BD 
   521)     15666.4  Rx     00011A79  7  01 00 00 0F 03 79 1A 
   522)     15666.5  Rx     00111A79  5  01 00 00 79 1A 
   523)     15671.4  Rx     0001D2F5  7  01 00 00 0F 03 F5 D2 
   524)     15671.5  Rx     0011D2F5  5  01 00 00 F5 D2 
   525)     15676.4  Rx     0001CE77  7  01 00 00 0F 03 77 CE 
   526)     15676.5  Rx     0011CE77  5  01 00 00 77 CE 
   527)     15681.4  Rx     0001E18F  7  01 00 00 0F 03 8F E1 
   528)     15681.5  Rx     0011E18F  5  01 00 00 8F E1 
   529)     15686.3  Rx     00017B1B  7  01 00 00 0F 03 1B 7B 
   530)     15686.5  Rx     00117B1B  5  01 00 00 1B 7B 
   531)     15691.4  Rx     0001E7BC  7  01 00 00 0F 03 BC E7 
   532)     15691.5  Rx     0011E7BC  5  01 00 00 BC E7 
   533)     15696.4  Rx     000184F2  7  01 00 00 0F 03 F2 84 
   534)     15696.5  Rx     001184F2  5  01 00 00 F2 84 
   535)     15701.4  Rx     0001EA58  7  01 00 00 0F 03 58 EA 
   536)     15701.5  Rx     0011EA58  5  01 00 00 58 EA 
   537)     15706.4  Rx     0001DA55  7  01 00 00 0F 03 55 DA 
   538)     15706.5  Rx     0011DA55  5  01 00 00 55 DA 
   539)     15711.3  Rx     0001FBC1  7  01 00 00 0F 03 C1 FB 
   540)     15711.5  Rx     0011FBC1  5  01 00 00 C1 FB 
   541)     15716.3  Rx     00013737  7  01 00 00 0F 03 37 37 
   542)     15716.5  Rx     00113737  5  01 00 00 37 37 
   543)     15721.4  Rx     0001E883  7  01 00 00 0F 03 83 E8 
   544)     15721.5  Rx     0011E883  5  01 00 00 83 E8 
   545)     15726.4  Rx     0001056C  7  01 00 00 0F 03 6C 05 
   546)     15726.5  Rx     0011056C  5  01 00 00 6C 05 
   547)     15731.4  Rx     00011566  7  01 00 00 0F 03 66 15 
   548)     15731.5  Rx     00111566  5  01 00 00 66 15 
   549)     15736.3  Rx     0001B1C7  7  01 00 00 0F 03 C7 B1 
   550)     15736.5  Rx     0011B1C7  5  01 00 00 C7 B1 
   551)     15741.3  Rx     00012446  7  01 00 00 0F 03 46 24 
   552)     15741.5  Rx     00112446  5  01 00 00 46 24 
   553)     15746.4  Rx     0001DF3C  7  01 00 00 0F 03 3C DF 
   554)     15746.5  Rx     0011DF3C  5  01 00 00 3C DF 
   555)     15751.4  Rx     0001E50D  7  01 00 00 0F 03 0D E5 
   556)     15751.5  Rx     0011E50D  5  01 00 00 0D E5 
   557)     15756.4  Rx     00015BF3  7  01 00 00 0F 03 F3 5B 
   558)     15756.5  Rx     00115BF3  5  01 00 00 F3 5B 
   559)     15761.4  Rx     0001A1DA  7  01 00 00 0F 03 DA A1 
   560)     15761.5  Rx     0011A1DA  5  01 00 00 DA A1 
   561)     15766.3  Rx     000120E1  7  01 00 00 0F 03 E1 20 
   562)     15766.5  Rx     001120E1  5  01 00 00 E1 20 
   563)     15771.3  Rx     0001B10B  7  01 00 00 0F 03 0B B1 
   564)     15771.5  Rx     0011B10B  5  01 00 00 0B B1 
   565)     15776.4  Rx     00017B67  7  01 00 00 0F 03 67 7B 
   566)     15776.5  Rx     00117B67  5  01 00 00 67 7B 
   567)     15781.4  Rx     0001B9CC  7  01 00 00 0F 03 CC B9 
   568)     15781.4  Rx     0011B9CC  5  01 00 00 CC B9 
   569)     15786.4  Rx     00013D14  7  01 00 00 0F 03 14 3D 
   570)     15786.5  Rx     00113D14  5  01 00 00 14 3D 
   571)     15791.3  Rx     0001835A  7  01 00 00 0F 03 5A 83 
   572)     15791.5  Rx     0011835A  5  01 00 00 5A 83 
   573)     15796.3  Rx     00019467  7  01 00 00 0F 03 67 94 
   574)     15796.5  Rx     00119467  5  01 00 00 67 94 
   575)     15801.4  Rx     0001A914  7  01 00 00 0F 03 14 A9 
   576)     15801.5  Rx     0011A914  5  01 00 00 14 A9 
   577)     15806.4  Rx     00012255  7  01 00 00 0F 03 55 22 
   578)     15806.4  Rx     00112255  5  01 00 00 55 22 
   579)     15811.4  Rx     00012D15  7  01 00 00 0F 03 15 2D 
   580)     15811.4  Rx     00112D15  5  01 00 00 15 2D 
   581)     15816.3  Rx     0001BAD7  7  01 00 00 0F 03 D7 BA 
   582)     15816.5  Rx     0011BAD7  5  01 00 00 D7 BA 
   583)     15821.3  Rx     000124EA  7  01 00 00 0F 03 EA 24 
   584)     15821.5  Rx     001124EA  5  01 00 00 EA 24 
   585)     15826.3  Rx     000103CC  7  01 00 00 0F 03 CC 03 
   586)     15826.5  Rx     001103CC  5  01 00 00 CC 03 
   587)     15831.4  Rx     000167A3  7  01 00 00 0F 03 A3 67 
   588)     15831.5  Rx     001167A3  5  01 00 00 A3 67 
   589)     15836.4  Rx     0001C3FC  7  01 00 00 0F 03 FC C3 
   590)     15836.4  Rx     0011C3FC  5  01 00 00 FC C3 
   591)     15841.3  Rx     0001DA53  7  01 00 00 0F 03 53 DA 
   592)     15841.5  Rx     0011DA53  5  01 00 00 53 DA 
   593)     15846.3  Rx     00013CEF  7  01 00 00 0F 03 EF 3C 
   594)     15846.5  Rx     00113CEF  5  01 00 00 EF 3C 
   595)     15851.3  Rx     0001C7B1  7  01 00 00 0F 03 B1 C7 
   596)     15851.5  Rx     0011C7B1  5  01 00 00 B1 C7 
   597)     15856.3  Rx     0001B903  7  01 00 00 0F 03 03 B9 
   598)     15856.5  Rx     0011B903  5  01 00 00 03 B9 
   599)     15861.4  Rx     0001117D  7  01 00 00 0F 03 7D 11 
   600)     15861.4  Rx     0011117D  5  01 00 00 7D 11 
   601)     15866.4  Rx     000123E3  7  01 00 00 0F 03 E3 23 
   602)     15866.5  Rx     001123E3  5  01 00 00 E3 23 
   603)     15871.3  Rx     0001DDE0  7  01 00 00 0F 03 E0 DD 
   604)     15871.5  Rx     0011DDE0  5  01 00 00 E0 DD 
   605)     15876.3  Rx     00011E45  7  01 00 00 0F 03 45 1E 
   606)     15876.5  Rx     00111E45  5  01 00 00 45 1E 
   607)     15881.3  Rx     000130CF  7  01 00 00 0F 03 CF 30 
   608)     15881.5  Rx     001130CF  5  01 00 00 CF 30 
   609)     15886.4  Rx     0001AEA2  7  01 00 00 0F 03 A2 AE 
   610)     15886.4  Rx     0011AEA2  5  01 00 00 A2 AE 
   611)     15891.4  Rx     00015142  7  01 00 00 0F 03 42 51 
   612)     15891.4  Rx     00115142  5  01 00 00 42 51 
   613)     15896.3  Rx     00013746  7  01 00 00 0F 03 46 37 
   614)     15896.5  Rx     00113746  5  01 00 00 46 37 
   615)     15901.3  Rx     00015BBE  7  01 00 00 0F 03 BE 5B 
   616)     15901.5  Rx     00115BBE  5  01 00 00 BE 5B 
   617)     15906.3  Rx     00017EE1  7  01 00 00 0F 03 E1 7E 
   618)     15906.5  Rx     00117EE1  5  01 00 00 E1 7E 
   619)     15911.3  Rx     0001DF84  7  01 00 00 0F 03 84 DF 
   620)     15911.4  Rx     0011DF84  5  01 00 00 84 DF 
   621)     15916.4  Rx     00015F82  7  01 00 00 0F 03 82 5F 
   622)     15916.4  Rx     00115F82  5  01 00 00 82 5F 
   623)     15921.3  Rx     0001E960  7  01 00 00 0F 03 60 E9 
   624)     15921.4  Rx     0011E960  5  01 00 00 60 E9 
   625)     15926.3  Rx     000184AE  7  01 00 00 0F 03 AE 84 
   626)     15926.5  Rx     001184AE  5  01 00 00 AE 84 
   627)     15931.3  Rx     000166EB  7  01 00 00 0F 03 EB 66 
   628)     15931.5  Rx     001166EB  5  01 00 00 EB 66 
   629)     15936.3  Rx     000157E7  7  01 00 00 0F 03 E7 57 
   630)     15936.5  Rx     001157E7  5  01 00 00 E7 57 
   631)     15941.3  Rx     000112C2  7  01 00 00 0F 03 C2 12 
   632)     15941.4  Rx     001112C2  5  01 00 00 C2 12 
   633)     15946.4  Rx     0001EFDB  7  01 00 00 0F 03 DB EF 
   634)     15946.4  Rx     0011EFDB  5  01 00 00 DB EF 
   635)     15951.3  Rx     00010DFF  7  01 00 00 0F 03 FF 0D 
   636)     15951.5  Rx     00110DFF  5  01 00 00 FF 0D 
   637)     15956.3  Rx     0001A120  7  01 00 00 0F 03 20 A1 
   638)     15956.5  Rx     0011A120  5  01 00 00 20 A1 
   639)     15961.3  Rx     000164F8  7  01 00 00 0F 03 F8 64 
   640)     15961.5  Rx     001164F8  5  01 00 00 F8 64 
   641)     15966.3  Rx     0001D81D  7  01 00 00 0F 03 1D D8 
   642)     15966.4  Rx     0011D81D  5  01 00 00 1D D8 
   643)     15971.4  Rx     00014109  7  01 00 00 0F 03 09 41 
   644)     15971.4  Rx     00114109  5  01 00 00 09 41 
   645)     15976.3  Rx     0001BA96  7  01 00 00 0F 03 96 BA 
   646)     15976.4  Rx     0011BA96  5  01 00 00 96 BA 
   647)     15981.3  Rx     00016EF8  7  01 00 00 0F 03 F8 6E 
   648)     15981.5  Rx     00116EF8  5  01 00 00 F8 6E 
   649)     15986.3  Rx     00013FF3  7  01 00 00 0F 03 F3 3F 
   650)     15986.5  Rx     00113FF3  5  01 00 00 F3 3F 
   651)     15991.3  Rx     0001C93D  7  01 00 00 0F 03 3D C9 
   652)     15991.4  Rx     0011C93D  5  01 00 00 3D C9 
   653)     15996.3  Rx     00017E36  7  01 00 00 0F 03 36 7E 
   654)     15996.4  Rx     00117E36  5  01 00 00 36 7E 
   655)     16001.3  Rx     00013B27  7  01 00 00 0F 03 27 3B 
   656)     16001.4  Rx     00113B27  5  01 00 00 27 3B 
   657)     16006.3  Rx     0001AA47  7  01 00 00 0F 03 47 AA 
   658)     16006.4  Rx     0011AA47  5  01 00 00 47 AA 
   659)     16011.3  Rx     0001D5B6  7  01 00 00 0F 03 B6 D5 
   660)     16011.5  Rx     0011D5B6  5  01 00 00 B6 D5 
   661)     16016.3  Rx     000164F3  7  01 00 00 0F 03 F3 64 
   662)     16016.5  Rx     001164F3  5  01 00 00 F3 64 
   663)     16021.3  Rx     0001E0AE  7  01 00 00 0F 03 AE E0 
   664)     16021.4  Rx     0011E0AE  5  01 00 00 AE E0 
   665)     16026.3  Rx     000122D6  7  01 00 00 0F 03 D6 22 
   666)     16026.4  Rx     001122D6  5  01 00 00 D6 22 
   667)     16031.3  Rx     00011625  7  01 00 00 0F 03 25 16 
   668)     16031.4  Rx     00111625  5  01 00 00 25 16 
   669)     16036.3  Rx     0001F00A  7  01 00 00 0F 03 0A F0 
   670)     16036.5  Rx     0011F00A  5  01 00 00 0A F0 
   671)     16041.3  Rx     00012895  7  01 00 00 0F 03 95 28 
   672)     16041.5  Rx     00112895  5  01 00 00 95 28 
   673)     16046.3  Rx     0001E14F  7  01 00 00 0F 03 4F E1 
   674)     16046.4  Rx     0011E14F  5  01 00 00 4F E1 
   675)     16051.3  Rx     0001C747  7  01 00 00 0F 03 47 C7 
   676)     16051.4  Rx     0011C747  5  01 00 00 47 C7 
   677)     16056.3  Rx     0001DB07  7  01 00 00 0F 03 07 DB 
   678)     16056.4  Rx     0011DB07  5  01 00 00 07 DB 
   679)     16061.3  Rx     0001028D  7  01 00 00 0F 03 8D 02 
   680)     16061.4  Rx     0011028D  5  01 00 00 8D 02 
   681)     16066.3  Rx     00013F3C  7  01 00 00 0F 03 3C 3F 
   682)     16066.5  Rx     00113F3C  5  01 00 00 3C 3F 
   683)     16071.3  Rx     0001B11B  7  01 00 00 0F 03 1B B1 
   684)     16071.4  Rx     0011B11B  5  01 00 00 1B B1 
   685)     16076.3  Rx     0001768B  7  01 00 00 0F 03 8B 76 
   686)     16076.4  Rx     0011768B  5  01 00 00 8B 76 
   687)     16081.3  Rx     0001298B  7  01 00 00 0F 03 8B 29 
   688)     16081.4  Rx     0011298B  5  01 00 00 8B 29 
   689)     16086.3  Rx     000160A4  7  01 00 00 0F 03 A4 60 
   690)     16086.4  Rx     001160A4  5  01 00 00 A4 60 
   691)     16091.3  Rx     00015ACF  7  01 00 00 0F 03 CF 5A 
   692)     16091.4  Rx     00115ACF  5  01 00 00 CF 5A 
   693)     16096.3  Rx     0001FFC9  7  01 00 00 0F 03 C9 FF 
   694)     16096.4  Rx     0011FFC9  5  01 00 00 C9 FF 
   695)     16101.3  Rx     0001A019  7  01 00 00 0F 03 19 A0 
   696)     16101.4  Rx     0011A019  5  01 00 00 19 A0 
   697)     16106.3  Rx     00012B6C  7  01 00 00 0F 03 6C 2B 
   698)     16106.4  Rx     00112B6C  5  01 00 00 6C 2B 
   699)     16111.3  Rx     0001FC7E  7  01 00 00 0F 03 7E FC 
   700)     16111.4  Rx     0011FC7E  5  01 00 00 7E FC 
   701)     16116.3  Rx     0001E4D4  7  01 00 00 0F 03 D4 E4 
   702)     16116.4  Rx     0011E4D4  5  01 00 00 D4 E4 
   703)     16121.3  Rx     00015C6A  7  01 00 00 0F 03 6A 5C 
   704)     16121.5  Rx     00115C6A  5  01 00 00 6A 5C 
   705)     16126.3  Rx     0001F580  7  01 00 00 0F 03 80 F5 
   706)     16126.4  Rx     0011F580  5  01 00 00 80 F5 
   707)     16131.3  Rx     00019E9B  7  01 00 00 0F 03 9B 9E 
   708)     16131.4  Rx     00119E9B  5  01 00 00 9B 9E 
   709)     16136.3  Rx     0001299B  7  01 00 00 0F 03 9B 29 
   710)     16136.4  Rx     0011299B  5  01 00 00 9B 29 
   711)     16141.3  Rx     0001BC32  7  01 00 00 0F 03 32 BC 
   712)     16141.4  Rx     0011BC32  5  01 00 00 32 BC 
   713)     16146.3  Rx     00016DB6  7  01 00 00 0F 03 B6 6D 
   714)     16146.4  Rx     00116DB6  5  01 00 00 B6 6D 
   715)     16151.3  Rx     00011B2A  7  01 00 00 0F 03 2A 1B 
   716)     16151.4  Rx     00111B2A  5  01 00 00 2A 1B 
   717)     16156.3  Rx     000199AF  7  01 00 00 0F 03 AF 99 
   718)     16156.4  Rx     001199AF  5  01 00 00 AF 99 
   719)     16161.3  Rx     00011C32  7  01 00 00 0F 03 32 1C 
   720)     16161.4  Rx     00111C32  5  01 00 00 32 1C 
   721)     16166.3  Rx     00015F6C  7  01 00 00 0F 03 6C 5F 
   722)     16166.4  Rx     00115F6C  5  01 00 00 6C 5F 
   723)     16171.3  Rx     000138B4  7  01 00 00 0F 03 B4 38 
   724)     16171.4  Rx     001138B4  5  01 00 00 B4 38 
   725)     16176.3  Rx     00012ACA  7  01 00 00 0F 03 CA 2A 
   726)     16176.4  Rx     00112ACA  5  01 00 00 CA 2A 
   727)     16181.3  Rx     00017B95  7  01 00 00 0F 03 95 7B 
   728)     16181.4  Rx     00117B95  5  01 00 00 95 7B 
   729)     16186.3  Rx     00017CF6  7  01 00 00 0F 03 F6 7C 
   730)     16186.4  Rx     00117CF6  5  01 00 00 F6 7C 
   731)     16191.3  Rx     0001C6F7  7  01 00 00 0F 03 F7 C6 
   732)     16191.4  Rx     0011C6F7  5  01 00 00 F7 C6 
   733)     16196.3  Rx     00015010  7  01 00 00 0F 03 10 50 
   734)     16196.4  Rx     00115010  5  01 00 00 10 50 
   735)     16201.3  Rx     0001EEFD  7  01 00 00 0F 03 FD EE 
   736)     16201.4  Rx     0011EEFD  5  01 00 00 FD EE 
   737)     16206.3  Rx     000144BA  7  01 00 00 0F 03 BA 44 
   738)     16206.4  Rx     001144BA  5  01 00 00 BA 44 
   739)     16211.3  Rx     00019160  7  01 00 00 0F 03 60 91 
   740)     16211.4  Rx     00119160  5  01 00 00 60 91 
   741)     16216.3  Rx     00013E12  7  01 00 00 0F 03 12 3E 
   742)     16216.4  Rx     00113E12  5  01 00 00 12 3E 
   743)     16221.3  Rx     00013F5B  7  01 00 00 0F 03 5B 3F 
   744)     16221.4  Rx     00113F5B  5  01 00 00 5B 3F 
   745)     16226.3  Rx     0001BD18  7  01 00 00 0F 03 18 BD 
   746)     16226.4  Rx     0011BD18  5  01 00 00 18 BD 
   747)     16231.3  Rx     00018338  7  01 00 00 0F 03 38 83 
   748)     16231.4  Rx     00118338  5  01 00 00 38 83 
   749)     16236.3  Rx     00013F95  7  01 00 00 0F 03 95 3F 
   750)     16236.4  Rx     00113F95  5  01 00 00 95 3F 
   751)     16241.3  Rx     00017C81  7  01 00 00 0F 03 81 7C 
   752)     16241.4  Rx     00117C81  5  01 00 00 81 7C 
   753)     16246.3  Rx     0001530A  7  01 00 00 0F 03 0A 53 
   754)     16246.4  Rx     0011530A  5  01 00 00 0A 53 
   755)     16251.3  Rx     0001B1A0  7  01 00 00 0F 03 A0 B1 
   756)     16251.4  Rx     0011B1A0  5  01 00 00 A0 B1 
   757)     16256.3  Rx     00010B17  7  01 00 00 0F 03 17 0B 
   758)     16256.4  Rx     00110B17  5  01 00 00 17 0B 
   759)     16261.3  Rx     00018F78  7  01 00 00 0F 03 78 8F 
   760)     16261.4  Rx     00118F78  5  01 00 00 78 8F 
   761)     16266.3  Rx     00018F8E  7  01 00 00 0F 03 8E 8F 
   762)     16266.4  Rx     00118F8E  5  01 00 00 8E 8F 
   763)     16271.3  Rx     0001733E  7  01 00 00 0F 03 3E 73 
   764)     16271.4  Rx     0011733E  5  01 00 00 3E 73 
   765)     16276.3  Rx     0001050D  7  01 00 00 0F 03 0D 05 
   766)     16276.4  Rx     0011050D  5  01 00 00 0D 05 
   767)     16281.3  Rx     0001B492  7  01 00 00 0F 03 92 B4 
   768)     16281.4  Rx     0011B492  5  01 00 00 92 B4 
   769)     16286.3  Rx     00010BC6  7  01 00 00 0F 03 C6 0B 
   770)     16286.4  Rx     00110BC6  5  01 00 00 C6 0B 
   771)     16291.3  Rx     000161B3  7  01 00 00 0F 03 B3 61 
   772)     16291.4  Rx     001161B3  5  01 00 00 B3 61 
   773)     16296.3  Rx     0001AAED  7  01 00 00 0F 03 ED AA 
   774)     16296.4  Rx     0011AAED  5  01 00 00 ED AA 
   775)     16301.3  Rx     00012D3E  7  01 00 00 0F 03 3E 2D 
   776)     16301.4  Rx     00112D3E  5  01 00 00 3E 2D 
   777)     16306.3  Rx     00012BDC  7  01 00 00 0F 03 DC 2B 
   778)     16306.4  Rx     00112BDC  5  01 00 00 DC 2B 
   779)     16311.3  Rx     000170D3  7  01 00 00 0F 03 D3 70 
   780)     16311.4  Rx     001170D3  5  01 00 00 D3 70 
   781)     16316.3  Rx     0001BAEE  7  01 00 00 0F 03 EE BA 
   782)     16316.4  Rx     0011BAEE  5  01 00 00 EE BA 
   783)     16321.3  Rx     0001A99E  7  01 00 00 0F 03 9E A9 
   784)     16321.4  Rx     0011A99E  5  01 00 00 9E A9 
   785)     16326.3  Rx     0001F0A6  7  01 00 00 0F 03 A6 F0 
   786)     16326.4  Rx     0011F0A6  5  01 00 00 A6 F0 
   787)     16331.3  Rx     00010F92  7  01 00 00 0F 03 92 0F 
   788)     16331.4  Rx     00110F92  5  01 00 00 92 0F 
   789)     16336.3  Rx     0001A891  7  01 00 00 0F 03 91 A8 
   790)     16336.4  Rx     0011A891  5  01 00 00 91 A8 
   791)     16341.3  Rx     000101D8  7  01 00 00 0F 03 D8 01 
   792)     16341.4  Rx     001101D8  5  01 00 00 D8 01 
   793)     16346.3  Rx     0001D00D  7  01 00 00 0F 03 0D D0 
   794)     16346.4  Rx     0011D00D  5  01 00 00 0D D0 
   795)     16351.3  Rx     00010ABF  7  01 00 00 0F 03 BF 0A 
   796)     16351.4  Rx     00110ABF  5  01 00 00 BF 0A 
   797)     16356.3  Rx     0001D9DD  7  01 00 00 0F 03 DD D9 
   798)     16356.4  Rx     0011D9DD  5  01 00 00 DD D9 
   799)     16361.3  Rx     0001A32F  7  01 00 00 0F 03 2F A3 
   800)     16361.4  Rx     0011A32F  5  01 00 00 2F A3 
   801)     16366.3  Rx     0001742D  7  01 00 00 0F 03 2D 74 
   802)     16366.4  Rx     0011742D  5  01 00 00 2D 74 
   803)     16371.3  Rx     0001D572  7  01 00 00 0F 03 72 D5 
   804)     16371.4  Rx     0011D572  5  01 00 00 72 D5 
   805)     16376.3  Rx     0001016D  7  01 00 00 0F 03 6D 01 
   806)     16376.4  Rx     0011016D  5  01 00 00 6D 01 
   807)     16381.3  Rx     000128D0  7  01 00 00 0F 03 D0 28 
   808)     16381.4  Rx     001128D0  5  01 00 00 D0 28 
   809)     16386.3  Rx     0001A53B  7  01 00 00 0F 03 3B A5 
   810)     16386.4  Rx     0011A53B  5  01 00 00 3B A5 
   811)     16391.3  Rx     00016F46  7  01 00 00 0F 03 46 6F 
   812)     16391.4  Rx     00116F46  5  01 00 00 46 6F 
   813)     16396.3  Rx     00015D2B  7  01 00 00 0F 03 2B 5D 
   814)     16396.4  Rx     00115D2B  5  01 00 00 2B 5D 
   815)     16401.3  Rx     0001086C  7  01 00 00 0F 03 6C 08 
   816)     16401.4  Rx     0011086C  5  01 00 00 6C 08 
   817)     16406.3  Rx     0001F629  7  01 00 00 0F 03 29 F6 
   818)     16406.4  Rx     0011F629  5  01 00 00 29 F6 
   819)     16411.3  Rx     00018846  7  01 00 00 0F 03 46 88 
   820)     16411.4  Rx     00118846  5  01 00 00 46 88 
   821)     16416.3  Rx     00011DD8  7  01 00 00 0F 03 D8 1D 
   822)     16416.4  Rx     00111DD8  5  01 00 00 D8 1D 
   823)     16421.3  Rx     0001F689  7  01 00 00 0F 03 89 F6 
   824)     16421.4  Rx     0011F689  5  01 00 00 89 F6 
   825)     16426.3  Rx     0001B80B  7  01 00 00 0F 03 0B B8 
   826)     16426.4  Rx     0011B80B  5  01 00 00 0B B8 
   827)     16431.3  Rx     00018EA7  7  01 00 00 0F 03 A7 8E 
   828)     16431.4  Rx     00118EA7  5  01 00 00 A7 8E 
   829)     16436.2  Rx     0001A352  7  01 00 00 0F 03 52 A3 
   830)     16436.3  Rx     0011A352  5  01 00 00 52 A3 
   831)     16441.2  Rx     00018E98  7  01 00 00 0F 03 98 8E 
   832)     16441.3  Rx     00118E98  5  01 00 00 98 8E 
   833)     16446.2  Rx     0001BC37  7  01 00 00 0F 03 37 BC 
   834)     16446.3  Rx     0011BC37  5  01 00 00 37 BC 
   835)     16451.2  Rx     0001AE3A  7  01 00 00 0F 03 3A AE 
   836)     16451.3  Rx     0011AE3A  5  01 00 00 3A AE 
   837)     16456.2  Rx     0001D994  7  01 00 00 0F 03 94 D9 
   838)     16456.3  Rx     0011D994  5  01 00 00 94 D9 
   839)     16461.2  Rx     0001DEC5  7  01 00 00 0F 03 C5 DE 
   840)     16461.4  Rx     0011DEC5  5  01 00 00 C5 DE 
   841)     16466.2  Rx     00011D2E  7  01 00 00 0F 03 2E 1D 
   842)     16466.3  Rx     00111D2E  5  01 00 00 2E 1D 
   843)     16471.2  Rx     0001F99F  7  01 00 00 0F 03 9F F9 
   844)     16471.3  Rx     0011F99F  5  01 00 00 9F F9 
   845)     16476.2  Rx     00017E7B  7  01 00 00 0F 03 7B 7E 
   846)     16476.3  Rx     00117E7B  5  01 00 00 7B 7E 
   847)     16481.2  Rx     0001FF91  7  01 00 00 0F 03 91 FF 
   848)     16481.4  Rx     0011FF91  5  01 00 00 91 FF 
   849)     16486.2  Rx     00010E3D  7  01 00 00 0F 03 3D 0E 
   850)     16486.3  Rx     00110E3D  5  01 00 00 3D 0E 
   851)     16491.2  Rx     00017139  7  01 00 00 0F 03 39 71 
   852)     16491.3  Rx     00117139  5  01 00 00 39 71 
   853)     16496.2  Rx     00017C4E  7  01 00 00 0F 03 4E 7C 
   854)     16496.3  Rx     00117C4E  5  01 00 00 4E 7C 
   855)     16501.2  Rx     00019321  7  01 00 00 0F 03 21 93 
   856)     16501.3  Rx     00119321  5  01 00 00 21 93 
   857)     16506.2  Rx     0001BDE1  7  01 00 00 0F 03 E1 BD 
   858)     16506.3  Rx     0011BDE1  5  01 00 00 E1 BD 
   859)     16511.2  Rx     000103E4  7  01 00 00 0F 03 E4 03 
   860)     16511.4  Rx     001103E4  5  01 00 00 E4 03 
   861)     16516.2  Rx     000130FB  7  01 00 00 0F 03 FB 30 
   862)     16516.3  Rx     001130FB  5  01 00 00 FB 30 
   863)     16521.2  Rx     00016052  7  01 00 00 0F 03 52 60 
   864)     16521.3  Rx     00116052  5  01 00 00 52 60 
   865)     16526.2  Rx     000116EE  7  01 00 00 0F 03 EE 16 
   866)     16526.3  Rx     001116EE  5  01 00 00 EE 16 
   867)     16531.2  Rx     0001B167  7  01 00 00 0F 03 67 B1 
   868)     16531.3  Rx     0011B167  5  01 00 00 67 B1 
   869)     16536.2  Rx     0001C222  7  01 00 00 0F 03 22 C2 
   870)     16536.3  Rx     0011C222  5  01 00 00 22 C2 
   871)     16541.2  Rx     0001E994  7  01 00 00 0F 03 94 E9 
   872)     16541.3  Rx     0011E994  5  01 00 00 94 E9 
   873)     16546.2  Rx     0001886E  7  01 00 00 0F 03 6E 88 
   874)     16546.3  Rx     0011886E  5  01 00 00 6E 88 
   875)     16551.2  Rx     00019AAA  7  01 00 00 0F 03 AA 9A 
   876)     16551.3  Rx     00119AAA  5  01 00 00 AA 9A 
   877)     16556.2  Rx     00016DD2  7  01 00 00 0F 03 D2 6D 
   878)     16556.3  Rx     00116DD2  5  01 00 00 D2 6D 
   879)     16561.2  Rx     0001EF72  7  01 00 00 0F 03 72 EF 
   880)     16561.3  Rx     0011EF72  5  01 00 00 72 EF 
   881)     16566.2  Rx     0001F049  7  01 00 00 0F 03 49 F0 
   882)     16566.4  Rx     0011F049  5  01 00 00 49 F0 
   883)     16571.2  Rx     000103A8  7  01 00 00 0F 03 A8 03 
   884)     16571.3  Rx     001103A8  5  01 00 00 A8 03 
   885)     16576.2  Rx     0001D814  7  01 00 00 0F 03 14 D8 
   886)     16576.3  Rx     0011D814  5  01 00 00 14 D8 
   887)     16581.2  Rx     0001FAF3  7  01 00 00 0F 03 F3 FA 
   888)     16581.3  Rx     0011FAF3  5  01 00 00 F3 FA 
   889)     16586.2  Rx     000150A9  7  01 00 00 0F 03 A9 50 
   890)     16586.3  Rx     001150A9  5  01 00 00 A9 50 
   891)     16591.2  Rx     00016F22  7  01 00 00 0F 03 22 6F 
   892)     16591.3  Rx     00116F22  5  01 00 00 22 6F 
   893)     16596.2  Rx     0001592B  7  01 00 00 0F 03 2B 59 
   894)     16596.3  Rx     0011592B  5  01 00 00 2B 59 
   895)     16601.2  Rx     000103A4  7  01 00 00 0F 03 A4 03 
   896)     16601.3  Rx     001103A4  5  01 00 00 A4 03 
   897)     16606.2  Rx     0001B01A  7  01 00 00 0F 03 1A B0 
   898)     16606.3  Rx     0011B01A  5  01 00 00 1A B0 
   899)     16611.2  Rx     0001A017  7  01 00 00 0F 03 17 A0 
   900)     16611.3  Rx     0011A017  5  01 00 00 17 A0 
   901)     16616.2  Rx     00015498  7  01 00 00 0F 03 98 54 
   902)     16616.3  Rx     00115498  5  01 00 00 98 54 
   903)     16621.2  Rx     0001F570  7  01 00 00 0F 03 70 F5 
   904)     16621.3  Rx     0011F570  5  01 00 00 70 F5 
   905)     16626.2  Rx     0001DC73  7  01 00 00 0F 03 73 DC 
   906)     16626.3  Rx     0011DC73  5  01 00 00 73 DC 
   907)     16631.2  Rx     0001D0F6  7  01 00 00 0F 03 F6 D0 
   908)     16631.3  Rx     0011D0F6  5  01 00 00 F6 D0 
   909)     16636.2  Rx     000184DF  7  01 00 00 0F 03 DF 84 
   910)     16636.3  Rx     001184DF  5  01 00 00 DF 84 
   911)     16641.2  Rx     00013A35  7  01 00 00 0F 03 35 3A 
   912)     16641.3  Rx     00113A35  5  01 00 00 35 3A 
   913)     16646.2  Rx     00015078  7  01 00 00 0F 03 78 50 
   914)     16646.3  Rx     00115078  5  01 00 00 78 50 
   915)     16651.2  Rx     00018490  7  01 00 00 0F 03 90 84 
   916)     16651.3  Rx     00118490  5  01 00 00 90 84 
   917)     16656.2  Rx     0001480B  7  01 00 00 0F 03 0B 48 
   918)     16656.3  Rx     0011480B  5  01 00 00 0B 48 
   919)     16661.2  Rx     00014F16  7  01 00 00 0F 03 16 4F 
   920)     16661.3  Rx     00114F16  5  01 00 00 16 4F 
   921)     16666.2  Rx     0001E43B  7  01 00 00 0F 03 3B E4 
   922)     16666.3  Rx     0011E43B  5  01 00 00 3B E4 
   923)     16671.2  Rx     0001CCCE  7  01 00 00 0F 03 CE CC 
   924)     16671.3  Rx     0011CCCE  5  01 00 00 CE CC 
   925)     16676.2  Rx     0001F0F2  7  01 00 00 0F 03 F2 F0 
   926)     16676.3  Rx     0011F0F2  5  01 00 00 F2 F0 
   927)     16681.2  Rx     00015190  7  01 00 00 0F 03 90 51 
   928)     16681.3  Rx     00115190  5  01 00 00 90 51 
   929)     16686.2  Rx     0001C045  7  01 00 00 0F 03 45 C0 
   930)     16686.3  Rx     0011C045  5  01 00 00 45 C0 
   931)     16691.2  Rx     00014727  7  01 00 00 0F 03 27 47 
   932)     16691.3  Rx     00114727  5  01 00 00 27 47 
   933)     16696.2  Rx     00012537  7  01 00 00 0F 03 37 25 
   934)     16696.3  Rx     00112537  5  01 00 00 37 25 
   935)     16701.2  Rx     00019C4E  7  01 00 00 0F 03 4E 9C 
   936)     16701.3  Rx     00119C4E  5  01 00 00 4E 9C 
   937)     16706.2  Rx     00011378  7  01 00 00 0F 03 78 13 
   938)     16706.3  Rx     00111378  5  01 00 00 78 13 
   939)     16711.2  Rx     000122CE  7  01 00 00 0F 03 CE 22 
   940)     16711.3  Rx     001122CE  5  01 00 00 CE 22 
   941)     16716.2  Rx     00011413  7  01 00 00 0F 03 13 14 
   942)     16716.3  Rx     00111413  5  01 00 00 13 14 
   943)     16721.2  Rx     000147BD  7  01 00 00 0F 03 BD 47 
   944)     16721.3  Rx     001147BD  5  01 00 00 BD 47 
   945)     16726.2  Rx     0001E3B2  7  01 00 00 0F 03 B2 E3 
   946)     16726.3  Rx     0011E3B2  5  01 00 00 B2 E3 
   947)     16731.2  Rx     000138AE  7  01 00 00 0F 03 AE 38 
   948)     16731.3  Rx     001138AE  5  01 00 00 AE 38 
   949)     16736.2  Rx     0001DDD3  7  01 00 00 0F 03 D3 DD 
   950)     16736.3  Rx     0011DDD3  5  01 00 00 D3 DD 
   951)     16741.2  Rx     0001B65E  7  01 00 00 0F 03 5E B6 
   952)     16741.3  Rx     0011B65E  5  01 00 00 5E B6 
   953)     16746.2  Rx     0001F130  7  01 00 00 0F 03 30 F1 
   954)     16746.3  Rx     0011F130  5  01 00 00 30 F1 
   955)     16751.2  Rx     00012D16  7  01 00 00 0F 03 16 2D 
   956)     16751.3  Rx     00112D16  5  01 00 00 16 2D 
   957)     16756.2  Rx     0001CC20  7  01 00 00 0F 03 20 CC 
   958)     16756.3  Rx     0011CC20  5  01 00 00 20 CC 
   959)     16761.2  Rx     000134DD  7  01 00 00 0F 03 DD 34 
   960)     16761.3  Rx     001134DD  5  01 00 00 DD 34 
   961)     16766.2  Rx     000180B8  7  01 00 00 0F 03 B8 80 
   962)     16766.3  Rx     001180B8  5  01 00 00 B8 80 
   963)     16771.2  Rx     00016333  7  01 00 00 0F 03 33 63 
   964)     16771.3  Rx     00116333  5  01 00 00 33 63 
   965)     16776.2  Rx     0001C701  7  01 00 00 0F 03 01 C7 
   966)     16776.3  Rx     0011C701  5  01 00 00 01 C7 
   967)     16781.2  Rx     00018DE5  7  01 00 00 0F 03 E5 8D 
   968)     16781.3  Rx     00118DE5  5  01 00 00 E5 8D 
   969)     16786.2  Rx     00011475  7  01 00 00 0F 03 75 14 
   970)     16786.3  Rx     00111475  5  01 00 00 75 14 
   971)     16791.2  Rx     00011241  7  01 00 00 0F 03 41 12 
   972)     16791.3  Rx     00111241  5  01 00 00 41 12 
   973)     16796.2  Rx     000172A0  7  01 00 00 0F 03 A0 72 
   974)     16796.3  Rx     001172A0  5  01 00 00 A0 72 
   975)     16801.2  Rx     000179B0  7  01 00 00 0F 03 B0 79 
   976)     16801.3  Rx     001179B0  5  01 00 00 B0 79 
   977)     16806.2  Rx     00015BA0  7  01 00 00 0F 03 A0 5B 
   978)     16806.3  Rx     00115BA0  5  01 00 00 A0 5B 
   979)     16811.2  Rx     0001687F  7  01 00 00 0F 03 7F 68 
   980)     16811.3  Rx     0011687F  5  01 00 00 7F 68 
   981)     16816.2  Rx     0001ADCF  7  01 00 00 0F 03 CF AD 
   982)     16816.3  Rx     0011ADCF  5  01 00 00 CF AD 
   983)     16821.2  Rx     00015160  7  01 00 00 0F 03 60 51 
   984)     16821.3  Rx     00115160  5  01 00 00 60 51 
   985)     16826.2  Rx     0001E8E2  7  01 00 00 0F 03 E2 E8 
   986)     16826.3  Rx     0011E8E2  5  01 00 00 E2 E8 
   987)     16831.2  Rx     000193E6  7  01 00 00 0F 03 E6 93 
   988)     16831.3  Rx     001193E6  5  01 00 00 E6 93 
   989)     16836.2  Rx     0001C148  7  01 00 00 0F 03 48 C1 
   990)     16836.3  Rx     0011C148  5  01 00 00 48 C1 
   991)     16841.2  Rx     00019210  7  01 00 00 0F 03 10 92 
   992)     16841.3  Rx     00119210  5  01 00 00 10 92 
   993)     16846.2  Rx     00011F7C  7  01 00 00 0F 03 7C 1F 
   994)     16846.3  Rx     00111F7C  5  01 00 00 7C 1F 
   995)     16851.2  Rx     0001B499  7  01 00 00 0F 03 99 B4 
   996)     16851.3  Rx     0011B499  5  01 00 00 99 B4 
   997)     16856.2  Rx     0001CBB6  7  01 00 00 0F 03 B6 CB 
   998)     16856.3  Rx     0011CBB6  5  01 00 00 B6 CB 
   999)     16861.2  Rx     000167A8  7  01 00 00 0F 03 A8 67 
  1000)     16861.3  Rx     001167A8  5  01 00 00 A8 67 
  1001)     16866.2  Rx     0001DB22  7  01 00 00 0F 03 22 DB 
  1002)     16866.3  Rx     0011DB22  5  01 00 00 22 DB 
  1003)     16871.2  Rx     0001251A  7  01 00 00 0F 03 1A 25 
  1004)     16871.3  Rx     0011251A  5  01 00 00 1A 25 
  1005)     16876.2  Rx     0001EE77  7  01 00 00 0F 03 77 EE 
  1006)     16876.3  Rx     0011EE77  5  01 00 00 77 EE 
  1007)     16881.2  Rx     00013773  7  01 00 00 0F 03 73 37 
  1008)     16881.3  Rx     00113773  5  01 00 00 73 37 
  1009)     16886.2  Rx     00016AAB  7  01 00 00 0F 03 AB 6A 
  1010)     16886.3  Rx     00116AAB  5  01 00 00 AB 6A 
  1011)     16891.2  Rx     00015441  7  01 00 00 0F 03 41 54 
  1012)     16891.3  Rx     00115441  5  01 00 00 41 54 
  1013)     16896.2  Rx     0001CB1E  7  01 00 00 0F 03 1E CB 
  1014)     16896.3  Rx     0011CB1E  5  01 00 00 1E CB 
  1015)     16901.2  Rx     00014E71  7  01 00 00 0F 03 71 4E 
  1016)     16901.3  Rx     00114E71  5  01 00 00 71 4E 
  1017)     16906.2  Rx     00013D6A  7  01 00 00 0F 03 6A 3D 
  1018)     16906.3  Rx     00113D6A  5  01 00 00 6A 3D 
  1019)     16911.2  Rx     0001F4EC  7  01 00 00 0F 03 EC F4 
  1020)     16911.3  Rx     0011F4EC  5  01 00 00 EC F4 
  1021)     16916.2  Rx     00019DBA  7  01 00 00 0F 03 BA 9D 
  1022)     16916.3  Rx     00119DBA  5  01 00 00 BA 9D 
  1023)     16921.2  Rx     00014B6D  7  01 00 00 0F 03 6D 4B 
  1024)     16921.3  Rx     00114B6D  5  01 00 00 6D 4B 
  1025)     16926.2  Rx     0001CF59  7  01 00 00 0F 03 59 CF 
  1026)     16926.3  Rx     0011CF59  5  01 00 00 59 CF 
  1027)     16931.2  Rx     00010B75  7  01 00 00 0F 03 75 0B 
  1028)     16931.3  Rx     00110B75  5  01 00 00 75 0B 
  1029)     16936.2  Rx     0001C7D8  7  01 00 00 0F 03 D8 C7 
  1030)     16936.3  Rx     0011C7D8  5  01 00 00 D8 C7 
  1031)     16941.2  Rx     0001C8CD  7  01 00 00 0F 03 CD C8 
  1032)     16941.3  Rx     0011C8CD  5  01 00 00 CD C8 
  1033)     16946.2  Rx     00015BFA  7  01 00 00 0F 03 FA 5B 
  1034)     16946.3  Rx     00115BFA  5  01 00 00 FA 5B 
  1035)     16951.2  Rx     0001E0E7  7  01 00 00 0F 03 E7 E0 
  1036)     16951.3  Rx     0011E0E7  5  01 00 00 E7 E0 
  1037)     16956.2  Rx     0001E048  7  01 00 00 0F 03 48 E0 
  1038)     16956.3  Rx     0011E048  5  01 00 00 48 E0 
  1039)     16961.2  Rx     0001E22B  7  01 00 00 0F 03 2B E2 
  1040)     16961.3  Rx     0011E22B  5  01 00 00 2B E2 
  1041)     16966.2  Rx     0001C7FC  7  01 00 00 0F 03 FC C7 
  1042)     16966.3  Rx     0011C7FC  5  01 00 00 FC C7 
  1043)     16971.2  Rx     000143EF  7  01 00 00 0F 03 EF 43 
  1044)     16971.3  Rx     001143EF  5  01 00 00 EF 43 
  1045)     16976.2  Rx     000147A2  7  01 00 00 0F 03 A2 47 
  1046)     16976.3  Rx     001147A2  5  01 00 00 A2 47 
  1047)     16981.2  Rx     0001C5A7  7  01 00 00 0F 03 A7 C5 
  1048)     16981.3  Rx     0011C5A7  5  01 00 00 A7 C5 
  1049)     16986.2  Rx     000165A0  7  01 00 00 0F 03 A0 65 
  1050)     16986.3  Rx     001165A0  5  01 00 00 A0 65 
  1051)     16991.2  Rx     00016793  7  01 00 00 0F 03 93 67 
  1052)     16991.3  Rx     00116793  5  01 00 00 93 67 
  1053)     16996.2  Rx     00013987  7  01 00 00 0F 03 87 39 
  1054)     16996.3  Rx     00113987  5  01 00 00 87 39 
  1055)     17001.2  Rx     000140F9  7  01 00 00 0F 03 F9 40 
  1056)     17001.3  Rx     001140F9  5  01 00 00 F9 40 
  1057)     17006.2  Rx     0001C7D9  7  01 00 00 0F 03 D9 C7 
  1058)     17006.3  Rx     0011C7D9  5  01 00 00 D9 C7 
  1059)     17011.2  Rx     00011FA5  7  01 00 00 0F 03 A5 1F 
  1060)     17011.3  Rx     00111FA5  5  01 00 00 A5 1F 
  1061)     17016.2  Rx     00014AA7  7  01 00 00 0F 03 A7 4A 
  1062)     17016.3  Rx     00114AA7  5  01 00 00 A7 4A 
  1063)     17021.2  Rx     00015E48  7  01 00 00 0F 03 48 5E 
  1064)     17021.3  Rx     00115E48  5  01 00 00 48 5E 
  1065)     17026.2  Rx     00018434  7  01 00 00 0F 03 34 84 
  1066)     17026.3  Rx     00118434  5  01 00 00 34 84 
  1067)     17031.2  Rx     0001C6F5  7  01 00 00 0F 03 F5 C6 
  1068)     17031.3  Rx     0011C6F5  5  01 00 00 F5 C6 
  1069)     17036.1  Rx     00019F85  7  01 00 00 0F 03 85 9F 
  1070)     17036.3  Rx     00119F85  5  01 00 00 85 9F 
  1071)     17041.2  Rx     0001DCBD  7  01 00 00 0F 03 BD DC 
  1072)     17041.3  Rx     0011DCBD  5  01 00 00 BD DC 
  1073)     17046.2  Rx     0001277D  7  01 00 00 0F 03 7D 27 
  1074)     17046.3  Rx     0011277D  5  01 00 00 7D 27 
  1075)     17051.2  Rx     00016F48  7  01 00 00 0F 03 48 6F 
  1076)     17051.3  Rx     00116F48  5  01 00 00 48 6F 
  1077)     17056.2  Rx     00013FFC  7  01 00 00 0F 03 FC 3F 
  1078)     17056.3  Rx     00113FFC  5  01 00 00 FC 3F 
  1079)     17061.1  Rx     0001DCD6  7  01 00 00 0F 03 D6 DC 
  1080)     17061.3  Rx     0011DCD6  5  01 00 00 D6 DC 
  1081)     17066.2  Rx     0001D11D  7  01 00 00 0F 03 1D D1 
  1082)     17066.3  Rx     0011D11D  5  01 00 00 1D D1 
  1083)     17071.2  Rx     0001E70B  7  01 00 00 0F 03 0B E7 
  1084)     17071.3  Rx     0011E70B  5  01 00 00 0B E7 
  1085)     17076.2  Rx     00016B7F  7  01 00 00 0F 03 7F 6B 
  1086)     17076.3  Rx     00116B7F  5  01 00 00 7F 6B 
  1087)     17081.2  Rx     00015C7A  7  01 00 00 0F 03 7A 5C 
  1088)     17081.3  Rx     00115C7A  5  01 00 00 7A 5C 
  1089)     17086.2  Rx     00013944  7  01 00 00 0F 03 44 39 
  1090)     17086.3  Rx     00113944  5  01 00 00 44 39 
  1091)     17091.1  Rx     0001B8C6  7  01 00 00 0F 03 C6 B8 
  1092)     17091.3  Rx     0011B8C6  5  01 00 00 C6 B8 
  1093)     17096.2  Rx     0001F224  7  01 00 00 0F 03 24 F2 
  1094)     17096.3  Rx     0011F224  5  01 00 00 24 F2 
  1095)     17101.2  Rx     0001C6D0  7  01 00 00 0F 03 D0 C6 
  1096)     17101.3  Rx     0011C6D0  5  01 00 00 D0 C6 
  1097)     17106.2  Rx     000151CB  7  01 00 00 0F 03 CB 51 
  1098)     17106.3  Rx     001151CB  5  01 00 00 CB 51 
  1099)     17111.2  Rx     00015851  7  01 00 00 0F 03 51 58 
  1100)     17111.3  Rx     00115851  5  01 00 00 51 58 
  1101)     17116.1  Rx     0001765E  7  01 00 00 0F 03 5E 76 
  1102)     17116.3  Rx     0011765E  5  01 00 00 5E 76 
  1103)     17121.1  Rx     000193CE  7  01 00 00 0F 03 CE 93 
  1104)     17121.3  Rx     001193CE  5  01 00 00 CE 93 
  1105)     17126.2  Rx     000139D5  7  01 00 00 0F 03 D5 39 
  1106)     17126.3  Rx     001139D5  5  01 00 00 D5 39 
  1107)     17131.2  Rx     000125C8  7  01 00 00 0F 03 C8 25 
  1108)     17131.3  Rx     001125C8  5  01 00 00 C8 25 
  1109)     17136.2  Rx     0001BB8C  7  01 00 00 0F 03 8C BB 
  1110)     17136.3  Rx     0011BB8C  5  01 00 00 8C BB 
  1111)     17141.1  Rx     0001BF93  7  01 00 00 0F 03 93 BF 
  1112)     17141.3  Rx     0011BF93  5  01 00 00 93 BF 
  1113)     17146.1  Rx     0001F83A  7  01 00 00 0F 03 3A F8 
  1114)     17146.3  Rx     0011F83A  5  01 00 00 3A F8 
  1115)     17151.2  Rx     0001723E  7  01 00 00 0F 03 3E 72 
  1116)     17151.3  Rx     0011723E  5  01 00 00 3E 72 
  1117)     17156.2  Rx     00010135  7  01 00 00 0F 03 35 01 
  1118)     17156.3  Rx     00110135  5  01 00 00 35 01 
  1119)     17161.2  Rx     00017D75  7  01 00 00 0F 03 75 7D 
  1120)     17161.3  Rx     00117D75  5  01 00 00 75 7D 
  1121)     17166.1  Rx     000158A4  7  01 00 00 0F 03 A4 58 
  1122)     17166.3  Rx     001158A4  5  01 00 00 A4 58 
  1123)     17171.1  Rx     00019E34  7  01 00 00 0F 03 34 9E 
  1124)     17171.3  Rx     00119E34  5  01 00 00 34 9E 
  1125)     17176.1  Rx     00014F10  7  01 00 00 0F 03 10 4F 
  1126)     17176.3  Rx     00114F10  5  01 00 00 10 4F 
  1127)     17181.2  Rx     0001AAD8  7  01 00 00 0F 03 D8 AA 
  1128)     17181.3  Rx     0011AAD8  5  01 00 00 D8 AA 
  1129)     17186.2  Rx     0001B376  7  01 00 00 0F 03 76 B3 
  1130)     17186.2  Rx     0011B376  5  01 00 00 76 B3 
  1131)     17191.2  Rx     000121C7  7  01 00 00 0F 03 C7 21 
  1132)     17191.3  Rx     001121C7  5  01 00 00 C7 21 
  1133)     17196.1  Rx     0001BDC5  7  01 00 00 0F 03 C5 BD 
  1134)     17196.3  Rx     0011BDC5  5  01 00 00 C5 BD 
  1135)     17201.1  Rx     000159C3  7  01 00 00 0F 03 C3 59 
  1136)     17201.3  Rx     001159C3  5  01 00 00 C3 59 
  1137)     17206.2  Rx     0001B86F  7  01 00 00 0F 03 6F B8 
  1138)     17206.3  Rx     0011B86F  5  01 00 00 6F B8 
  1139)     17211.2  Rx     0001AAAC  7  01 00 00 0F 03 AC AA 
  1140)     17211.2  Rx     0011AAAC  5  01 00 00 AC AA 
  1141)     17216.2  Rx     0001D475  7  01 00 00 0F 03 75 D4 
  1142)     17216.2  Rx     0011D475  5  01 00 00 75 D4 
  1143)     17221.1  Rx     00018B33  7  01 00 00 0F 03 33 8B 
  1144)     17221.3  Rx     00118B33  5  01 00 00 33 8B 
  1145)     17226.1  Rx     00015012  7  01 00 00 0F 03 12 50 
  1146)     17226.3  Rx     00115012  5  01 00 00 12 50 
  1147)     17231.1  Rx     000117DB  7  01 00 00 0F 03 DB 17 
  1148)     17231.3  Rx     001117DB  5  01 00 00 DB 17 
  1149)     17236.2  Rx     0001D2F9  7  01 00 00 0F 03 F9 D2 
  1150)     17236.3  Rx     0011D2F9  5  01 00 00 F9 D2 
  1151)     17241.2  Rx     00018D2E  7  01 00 00 0F 03 2E 8D 
  1152)     17241.2  Rx     00118D2E  5  01 00 00 2E 8D 
  1153)     17246.1  Rx     000163C2  7  01 00 00 0F 03 C2 63 
  1154)     17246.3  Rx     001163C2  5  01 00 00 C2 63 
  1155)     17251.1  Rx     0001930D  7  01 00 00 0F 03 0D 93 
  1156)     17251.3  Rx     0011930D  5  01 00 00 0D 93 
  1157)     17256.1  Rx     0001F0ED  7  01 00 00 0F 03 ED F0 
  1158)     17256.3  Rx     0011F0ED  5  01 00 00 ED F0 
  1159)     17261.1  Rx     0001A496  7  01 00 00 0F 04 96 A4 
  1160)     17261.3  Rx     0011A496  5  01 00 00 96 A4 
  1161)     17266.2  Rx     00019CAF  7  01 00 00 0F 03 AF 9C 
  1162)     17266.2  Rx     00119CAF  5  01 00 00 AF 9C 
  1163)     17271.2  Rx     0001A3E6  7  01 00 00 0F 03 E6 A3 
  1164)     17271.3  Rx     0011A3E6  5  01 00 00 E6 A3 
  1165)     17276.1  Rx     0001CD6A  7  01 00 00 0F 03 6A CD 
  1166)     17276.3  Rx     0011CD6A  5  01 00 00 6A CD 
  1167)     17281.1  Rx     0001A6C2  7  01 00 00 0F 03 C2 A6 
  1168)     17281.3  Rx     0011A6C2  5  01 00 00 C2 A6 
  1169)     17286.1  Rx     00015573  7  01 00 00 0F 03 73 55 
  1170)     17286.3  Rx     00115573  5  01 00 00 73 55 
  1171)     17291.2  Rx     00013CF1  7  01 00 00 0F 03 F1 3C 
  1172)     17291.2  Rx     00113CF1  5  01 00 00 F1 3C 
  1173)     17296.2  Rx     0001A796  7  01 00 00 0F 03 96 A7 
  1174)     17296.2  Rx     0011A796  5  01 00 00 96 A7 
  1175)     17301.1  Rx     000166CC  7  01 00 00 0F 03 CC 66 
  1176)     17301.3  Rx     001166CC  5  01 00 00 CC 66 
  1177)     17306.1  Rx     00014A7B  7  01 00 00 0F 03 7B 4A 
  1178)     17306.3  Rx     00114A7B  5  01 00 00 7B 4A 
  1179)     17311.1  Rx     0001D24F  7  01 00 00 0F 03 4F D2 
  1180)     17311.3  Rx     0011D24F  5  01 00 00 4F D2 
  1181)     17316.1  Rx     0001B3DC  7  01 00 00 0F 03 DC B3 
  1182)     17316.2  Rx     0011B3DC  5  01 00 00 DC B3 
  1183)     17321.2  Rx     00016AAA  7  01 00 00 0F 03 AA 6A 
  1184)     17321.2  Rx     00116AAA  5  01 00 00 AA 6A 
  1185)     17326.1  Rx     00017D27  7  01 00 00 0F 03 27 7D 
  1186)     17326.2  Rx     00117D27  5  01 00 00 27 7D 
  1187)     17331.1  Rx     0001562D  7  01 00 00 0F 03 2D 56 
  1188)     17331.3  Rx     0011562D  5  01 00 00 2D 56 
  1189)     17336.1  Rx     00016DFA  7  01 00 00 0F 03 FA 6D 
  1190)     17336.3  Rx     00116DFA  5  01 00 00 FA 6D 
  1191)     17341.1  Rx     000167FE  7  01 00 00 0F 03 FE 67 
  1192)     17341.3  Rx     001167FE  5  01 00 00 FE 67 
  1193)     17346.2  Rx     000101AF  7  01 00 00 0F 03 AF 01 
  1194)     17346.2  Rx     001101AF  5  01 00 00 AF 01 
  1195)     17351.1  Rx     00015EF9  7  01 00 00 0F 03 F9 5E 
  1196)     17351.2  Rx     00115EF9  5  01 00 00 F9 5E 
  1197)     17356.1  Rx     0001F7BF  7  01 00 00 0F 03 BF F7 
  1198)     17356.3  Rx     0011F7BF  5  01 00 00 BF F7 
  1199)     17361.1  Rx     0001D0AE  7  01 00 00 0F 03 AE D0 
  1200)     17361.3  Rx     0011D0AE  5  01 00 00 AE D0 
  1201)     17366.1  Rx     0001C3CB  7  01 00 00 0F 03 CB C3 
  1202)     17366.3  Rx     0011C3CB  5  01 00 00 CB C3 
  1203)     17371.1  Rx     00012754  7  01 00 00 0F 03 54 27 
  1204)     17371.2  Rx     00112754  5  01 00 00 54 27 
  1205)     17376.2  Rx     00013891  7  01 00 00 0F 03 91 38 
  1206)     17376.2  Rx     00113891  5  01 00 00 91 38 
  1207)     17381.1  Rx     00017332  7  01 00 00 0F 03 32 73 
  1208)     17381.2  Rx     00117332  5  01 00 00 32 73 
  1209)     17386.1  Rx     00015A10  7  01 00 00 0F 03 10 5A 
  1210)     17386.3  Rx     00115A10  5  01 00 00 10 5A 
  1211)     17391.1  Rx     0001AFC5  7  01 00 00 0F 03 C5 AF 
  1212)     17391.3  Rx     0011AFC5  5  01 00 00 C5 AF 
  1213)     17396.1  Rx     000175AF  7  01 00 00 0F 03 AF 75 
  1214)     17396.2  Rx     001175AF  5  01 00 00 AF 75 
  1215)     17401.1  Rx     0001FAAF  7  01 00 00 0F 03 AF FA 
  1216)     17401.2  Rx     0011FAAF  5  01 00 00 AF FA 
  1217)     17406.1  Rx     0001E81B  7  01 00 00 0F 03 1B E8 
  1218)     17406.2  Rx     0011E81B  5  01 00 00 1B E8 
  1219)     17411.1  Rx     0001B232  7  01 00 00 0F 03 32 B2 
  1220)     17411.3  Rx     0011B232  5  01 00 00 32 B2 
  1221)     17416.1  Rx     00015F3B  7  01 00 00 0F 03 3B 5F 
  1222)     17416.3  Rx     00115F3B  5  01 00 00 3B 5F 
  1223)     17421.1  Rx     00018AC7  7  01 00 00 0F 03 C7 8A 
  1224)     17421.2  Rx     00118AC7  5  01 00 00 C7 8A 
  1225)     17426.1  Rx     0001DB6F  7  01 00 00 0F 03 6F DB 
  1226)     17426.2  Rx     0011DB6F  5  01 00 00 6F DB 
  1227)     17431.1  Rx     0001D70E  7  01 00 00 0F 03 0E D7 
  1228)     17431.2  Rx     0011D70E  5  01 00 00 0E D7 
  1229)     17436.1  Rx     000189F5  7  01 00 00 0F 03 F5 89 
  1230)     17436.2  Rx     001189F5  5  01 00 00 F5 89 
  1231)     17441.1  Rx     0001432D  7  01 00 00 0F 03 2D 43 
  1232)     17441.3  Rx     0011432D  5  01 00 00 2D 43 
  1233)     17446.1  Rx     0001B31E  7  01 00 00 0F 03 1E B3 
  1234)     17446.3  Rx     0011B31E  5  01 00 00 1E B3 
  1235)     17451.1  Rx     0001A452  7  01 00 00 0F 03 52 A4 
  1236)     17451.2  Rx     0011A452  5  01 00 00 52 A4 
  1237)     17456.1  Rx     0001A9C6  7  01 00 00 0F 03 C6 A9 
  1238)     17456.2  Rx     0011A9C6  5  01 00 00 C6 A9 
  1239)     17461.1  Rx     0001D6FA  7  01 00 00 0F 03 FA D6 
  1240)     17461.2  Rx     0011D6FA  5  01 00 00 FA D6 
  1241)     17466.1  Rx     0001F229  7  01 00 00 0F 03 29 F2 
  1242)     17466.2  Rx     0011F229  5  01 00 00 29 F2 
  1243)     17471.1  Rx     0001A62C  7  01 00 00 0F 03 2C A6 
  1244)     17471.3  Rx     0011A62C  5  01 00 00 2C A6 
  1245)     17476.1  Rx     0001ED03  7  01 00 00 0F 03 03 ED 
  1246)     17476.2  Rx     0011ED03  5  01 00 00 03 ED 
  1247)     17481.1  Rx     000127C1  7  01 00 00 0F 03 C1 27 
  1248)     17481.2  Rx     001127C1  5  01 00 00 C1 27 
  1249)     17486.1  Rx     0001D0A8  7  01 00 00 0F 03 A8 D0 
  1250)     17486.2  Rx     0011D0A8  5  01 00 00 A8 D0 
  1251)     17491.1  Rx     00016979  7  01 00 00 0F 03 79 69 
  1252)     17491.2  Rx     00116979  5  01 00 00 79 69 
  1253)     17496.1  Rx     0001506E  7  01 00 00 0F 03 6E 50 
  1254)     17496.3  Rx     0011506E  5  01 00 00 6E 50 
  1255)     17501.1  Rx     0001B464  7  01 00 00 0F 03 64 B4 
  1256)     17501.2  Rx     0011B464  5  01 00 00 64 B4 
  1257)     17506.1  Rx     000113A8  7  01 00 00 0F 03 A8 13 
  1258)     17506.2  Rx     001113A8  5  01 00 00 A8 13 
  1259)     17511.1  Rx     000197F2  7  01 00 00 0F 03 F2 97 
  1260)     17511.2  Rx     001197F2  5  01 00 00 F2 97 
  1261)     17516.1  Rx     0001DFFC  7  01 00 00 0F 03 FC DF 
  1262)     17516.2  Rx     0011DFFC  5  01 00 00 FC DF 
  1263)     17521.1  Rx     00015BA4  7  01 00 00 0F 03 A4 5B 
  1264)     17521.2  Rx     00115BA4  5  01 00 00 A4 5B 
  1265)     17526.1  Rx     0001DFD7  7  01 00 00 0F 03 D7 DF 
  1266)     17526.3  Rx     0011DFD7  5  01 00 00 D7 DF 
  1267)     17531.1  Rx     00010628  7  01 00 00 0F 03 28 06 
  1268)     17531.2  Rx     00110628  5  01 00 00 28 06 
  1269)     17536.1  Rx     00010458  7  01 00 00 0F 03 58 04 
  1270)     17536.2  Rx     00110458  5  01 00 00 58 04 
  1271)     17541.1  Rx     0001B679  7  01 00 00 0F 03 79 B6 
  1272)     17541.2  Rx     0011B679  5  01 00 00 79 B6 
  1273)     17546.1  Rx     00018AE0  7  01 00 00 0F 03 E0 8A 
  1274)     17546.2  Rx     00118AE0  5  01 00 00 E0 8A 
  1275)     17551.1  Rx     0001C731  7  01 00 00 0F 03 31 C7 
  1276)     17551.2  Rx     0011C731  5  01 00 00 31 C7 
  1277)     17556.1  Rx     0001F12A  7  01 00 00 0F 03 2A F1 
  1278)     17556.2  Rx     0011F12A  5  01 00 00 2A F1 
  1279)     17561.1  Rx     0001CA26  7  01 00 00 0F 03 26 CA 
  1280)     17561.2  Rx     0011CA26  5  01 00 00 26 CA 
  1281)     17566.1  Rx     00016F96  7  01 00 00 0F 03 96 6F 
  1282)     17566.2  Rx     00116F96  5  01 00 00 96 6F 
  1283)     17571.1  Rx     00013E1E  7  01 00 00 0F 03 1E 3E 
  1284)     17571.2  Rx     00113E1E  5  01 00 00 1E 3E 
  1285)     17576.1  Rx     0001DC16  7  01 00 00 0F 03 16 DC 
  1286)     17576.2  Rx     0011DC16  5  01 00 00 16 DC 
  1287)     17581.1  Rx     0001920B  7  01 00 00 0F 03 0B 92 
  1288)     17581.2  Rx     0011920B  5  01 00 00 0B 92 
  1289)     17586.1  Rx     0001A4D3  7  01 00 00 0F 03 D3 A4 
  1290)     17586.2  Rx     0011A4D3  5  01 00 00 D3 A4 
  1291)     17591.1  Rx     00011932  7  01 00 00 0F 03 32 19 
  1292)     17591.2  Rx     00111932  5  01 00 00 32 19 
  1293)     17596.1  Rx     00014485  7  01 00 00 0F 03 85 44 
  1294)     17596.2  Rx     00114485  5  01 00 00 85 44 
  1295)     17601.1  Rx     00018138  7  01 00 00 0F 03 38 81 
  1296)     17601.2  Rx     00118138  5  01 00 00 38 81 
  1297)     17606.1  Rx     0001FB1D  7  01 00 00 0F 03 1D FB 
  1298)     17606.2  Rx     0011FB1D  5  01 00 00 1D FB 
  1299)     17611.1  Rx     000182D4  7  01 00 00 0F 03 D4 82 
  1300)     17611.2  Rx     001182D4  5  01 00 00 D4 82 
  1301)     17616.1  Rx     00016026  7  01 00 00 0F 03 26 60 
  1302)     17616.2  Rx     00116026  5  01 00 00 26 60 
  1303)     17621.1  Rx     000133C5  7  01 00 00 0F 03 C5 33 
  1304)     17621.2  Rx     001133C5  5  01 00 00 C5 33 
  1305)     17626.1  Rx     0001950D  7  01 00 00 0F 03 0D 95 
  1306)     17626.2  Rx     0011950D  5  01 00 00 0D 95 
  1307)     17631.1  Rx     0001103F  7  01 00 00 0F 03 3F 10 
  1308)     17631.2  Rx     0011103F  5  01 00 00 3F 10 
  1309)     17636.1  Rx     00015433  7  01 00 00 0F 03 33 54 
  1310)     17636.2  Rx     00115433  5  01 00 00 33 54 
  1311)     17641.1  Rx     0001CFE3  7  01 00 00 0F 03 E3 CF 
  1312)     17641.2  Rx     0011CFE3  5  01 00 00 E3 CF 
  1313)     17646.1  Rx     0001F26F  7  01 00 00 0F 03 6F F2 
  1314)     17646.2  Rx     0011F26F  5  01 00 00 6F F2 
  1315)     17651.1  Rx     0001F1FF  7  01 00 00 0F 03 FF F1 
  1316)     17651.2  Rx     0011F1FF  5  01 00 00 FF F1 
  1317)     17656.1  Rx     00019373  7  01 00 00 0F 03 73 93 
  1318)     17656.2  Rx     00119373  5  01 00 00 73 93 
  1319)     17661.1  Rx     0001BAB0  7  01 00 00 0F 03 B0 BA 
  1320)     17661.2  Rx     0011BAB0  5  01 00 00 B0 BA 
  1321)     17666.1  Rx     00018629  7  01 00 00 0F 03 29 86 
  1322)     17666.2  Rx     00118629  5  01 00 00 29 86 
  1323)     17671.1  Rx     0001EA1B  7  01 00 00 0F 03 1B EA 
  1324)     17671.2  Rx     0011EA1B  5  01 00 00 1B EA 
  1325)     17676.1  Rx     00011902  7  01 00 00 0F 03 02 19 
  1326)     17676.2  Rx     00111902  5  01 00 00 02 19 
  1327)     17681.1  Rx     00011CCE  7  01 00 00 0F 03 CE 1C 
  1328)     17681.2  Rx     00111CCE  5  01 00 00 CE 1C 
  1329)     17686.1  Rx     0001B2DB  7  01 00 00 0F 03 DB B2 
  1330)     17686.2  Rx     0011B2DB  5  01 00 00 DB B2 
  1331)     17691.1  Rx     00016011  7  01 00 00 0F 03 11 60 
  1332)     17691.2  Rx     00116011  5  01 00 00 11 60 
  1333)     17696.1  Rx     0001D7D2  7  01 00 00 0F 03 D2 D7 
  1334)     17696.2  Rx     0011D7D2  5  01 00 00 D2 D7 
  1335)     17701.1  Rx     000172B2  7  01 00 00 0F 03 B2 72 
  1336)     17701.2  Rx     001172B2  5  01 00 00 B2 72 
  1337)     17706.1  Rx     0001864A  7  01 00 00 0F 03 4A 86 
  1338)     17706.2  Rx     0011864A  5  01 00 00 4A 86 
  1339)     17711.1  Rx     00018685  7  01 00 00 0F 03 85 86 
  1340)     17711.2  Rx     00118685  5  01 00 00 85 86 
  1341)     17716.1  Rx     0001EEF0  7  01 00 00 0F 03 F0 EE 
  1342)     17716.2  Rx     0011EEF0  5  01 00 00 F0 EE 
  1343)     17721.1  Rx     000114BC  7  01 00 00 0F 03 BC 14 
  1344)     17721.2  Rx     001114BC  5  01 00 00 BC 14 
  1345)     17726.1  Rx     00018F7C  7  01 00 00 0F 03 7C 8F 
  1346)     17726.2  Rx     00118F7C  5  01 00 00 7C 8F 
  1347)     17731.1  Rx     00014EB8  7  01 00 00 0F 03 B8 4E 
  1348)     17731.2  Rx     00114EB8  5  01 00 00 B8 4E 
  1349)     17736.1  Rx     00010A86  7  01 00 00 0F 03 86 0A 
  1350)     17736.2  Rx     00110A86  5  01 00 00 86 0A 
  1351)     17741.1  Rx     0001DB09  7  01 00 00 0F 03 09 DB 
  1352)     17741.2  Rx     0011DB09  5  01 00 00 09 DB 
  1353)     17746.1  Rx     0001A7A2  7  01 00 00 0F 03 A2 A7 
  1354)     17746.2  Rx     0011A7A2  5  01 00 00 A2 A7 
  1355)     17751.1  Rx     000185BA  7  01 00 00 0F 03 BA 85 
  1356)     17751.2  Rx     001185BA  5  01 00 00 BA 85 
  1357)     17756.1  Rx     0001A9A4  7  01 00 00 0F 03 A4 A9 
  1358)     17756.2  Rx     0011A9A4  5  01 00 00 A4 A9 
  1359)     17761.1  Rx     00018D0B  7  01 00 00 0F 03 0B 8D 
  1360)     17761.2  Rx     00118D0B  5  01 00 00 0B 8D 
  1361)     17766.1  Rx     0001C1B9  7  01 00 00 0F 03 B9 C1 
  1362)     17766.2  Rx     0011C1B9  5  01 00 00 B9 C1 
  1363)     17771.1  Rx     0001EB5E  7  01 00 00 0F 03 5E EB 
  1364)     17771.2  Rx     0011EB5E  5  01 00 00 5E EB 
  1365)     17776.1  Rx     000174BD  7  01 00 00 0F 03 BD 74 
  1366)     17776.2  Rx     001174BD  5  01 00 00 BD 74 
  1367)     17781.1  Rx     000198D5  7  01 00 00 0F 03 D5 98 
  1368)     17781.2  Rx     001198D5  5  01 00 00 D5 98 
  1369)     17786.1  Rx     0001D0EF  7  01 00 00 0F 03 EF D0 
  1370)     17786.2  Rx     0011D0EF  5  01 00 00 EF D0 
  1371)     17791.1  Rx     00012EF0  7  01 00 00 0F 03 F0 2E 
  1372)     17791.2  Rx     00112EF0  5  01 00 00 F0 2E 
  1373)     17796.1  Rx     00018CF2  7  01 00 00 0F 03 F2 8C 
  1374)     17796.2  Rx     00118CF2  5  01 00 00 F2 8C 
  1375)     17801.1  Rx     00018636  7  01 00 00 0F 03 36 86 
  1376)     17801.2  Rx     00118636  5  01 00 00 36 86 
  1377)     17806.1  Rx     00017DC6  7  01 00 00 0F 03 C6 7D 
  1378)     17806.2  Rx     00117DC6  5  01 00 00 C6 7D 
  1379)     17811.1  Rx     000115A7  7  01 00 00 0F 03 A7 15 
  1380)     17811.2  Rx     001115A7  5  01 00 00 A7 15 
  1381)     17816.1  Rx     0001D411  7  01 00 00 0F 03 11 D4 
  1382)     17816.2  Rx     0011D411  5  01 00 00 11 D4 
  1383)     17821.1  Rx     0001918B  7  01 00 00 0F 03 8B 91 
  1384)     17821.2  Rx     0011918B  5  01 00 00 8B 91 
  1385)     17826.1  Rx     0001F9F9  7  01 00 00 0F 03 F9 F9 
  1386)     17826.2  Rx     0011F9F9  5  01 00 00 F9 F9 
  1387)     17831.1  Rx     00017ADB  7  01 00 00 0F 03 DB 7A 
  1388)     17831.2  Rx     00117ADB  5  01 00 00 DB 7A 
  1389)     17836.1  Rx     0001495B  7  01 00 00 0F 03 5B 49 
  1390)     17836.2  Rx     0011495B  5  01 00 00 5B 49 
  1391)     17841.1  Rx     00013654  7  01 00 00 0F 03 54 36 
  1392)     17841.2  Rx     00113654  5  01 00 00 54 36 
  1393)     17846.1  Rx     0001DF21  7  01 00 00 0F 03 21 DF 
  1394)     17846.2  Rx     0011DF21  5  01 00 00 21 DF 
  1395)     17851.1  Rx     00015DF6  7  01 00 00 0F 03 F6 5D 
  1396)     17851.2  Rx     00115DF6  5  01 00 00 F6 5D 
  1397)     17856.1  Rx     00015308  7  01 00 00 0F 03 08 53 
  1398)     17856.2  Rx     00115308  5  01 00 00 08 53 
  1399)     17861.1  Rx     0001C983  7  01 00 00 0F 03 83 C9 
  1400)     17861.2  Rx     0011C983  5  01 00 00 83 C9 
  1401)     17866.1  Rx     0001EC15  7  01 00 00 0F 03 15 EC 
  1402)     17866.2  Rx     0011EC15  5  01 00 00 15 EC 
  1403)     17871.1  Rx     00010E2C  7  01 00 00 0F 03 2C 0E 
  1404)     17871.2  Rx     00110E2C  5  01 00 00 2C 0E 
  1405)     17876.1  Rx     0001048B  7  01 00 00 0F 03 8B 04 
  1406)     17876.2  Rx     0011048B  5  01 00 00 8B 04 
  1407)     17881.1  Rx     00010397  7  01 00 00 0F 03 97 03 
  1408)     17881.2  Rx     00110397  5  01 00 00 97 03 
  1409)     17886.1  Rx     0001ED15  7  01 00 00 0F 03 15 ED 
  1410)     17886.2  Rx     0011ED15  5  01 00 00 15 ED 
  1411)     17891.1  Rx     00010BE9  7  01 00 00 0F 03 E9 0B 
  1412)     17891.2  Rx     00110BE9  5  01 00 00 E9 0B 
  1413)     17896.1  Rx     00018594  7  01 00 00 0F 03 94 85 
  1414)     17896.2  Rx     00118594  5  01 00 00 94 85 
  1415)     17901.1  Rx     0001866B  7  01 00 00 0F 03 6B 86 
  1416)     17901.2  Rx     0011866B  5  01 00 00 6B 86 
  1417)     17906.1  Rx     000176A5  7  01 00 00 0F 03 A5 76 
  1418)     17906.2  Rx     001176A5  5  01 00 00 A5 76 
  1419)     17911.1  Rx     0001400D  7  01 00 00 0F 03 0D 40 
  1420)     17911.2  Rx     0011400D  5  01 00 00 0D 40 
  1421)     17916.1  Rx     00014DD9  7  01 00 00 0F 03 D9 4D 
  1422)     17916.2  Rx     00114DD9  5  01 00 00 D9 4D 
  1423)     17921.1  Rx     00017ECE  7  01 00 00 0F 03 CE 7E 
  1424)     17921.2  Rx     00117ECE  5  01 00 00 CE 7E 
  1425)     17926.1  Rx     0001B33A  7  01 00 00 0F 03 3A B3 
  1426)     17926.2  Rx     0011B33A  5  01 00 00 3A B3 
  1427)     17931.1  Rx     000104D8  7  01 00 00 0F 03 D8 04 
  1428)     17931.2  Rx     001104D8  5  01 00 00 D8 04 
  1429)     17936.1  Rx     00017D94  7  01 00 00 0F 03 94 7D 
  1430)     17936.2  Rx     00117D94  5  01 00 00 94 7D 
  1431)     17941.1  Rx     000129D1  7  01 00 00 0F 03 D1 29 
  1432)     17941.2  Rx     001129D1  5  01 00 00 D1 29 
  1433)     17946.1  Rx     00014B96  7  01 00 00 0F 03 96 4B 
  1434)     17946.2  Rx     00114B96  5  01 00 00 96 4B 
  1435)     17951.1  Rx     000120A6  7  01 00 00 0F 03 A6 20 
  1436)     17951.2  Rx     001120A6  5  01 00 00 A6 20 
  1437)     17956.1  Rx     00012ECA  7  01 00 00 0F 03 CA 2E 
  1438)     17956.2  Rx     00112ECA  5  01 00 00 CA 2E 
  1439)     17961.1  Rx     00016DE3  7  01 00 00 0F 03 E3 6D 
  1440)     17961.2  Rx     00116DE3  5  01 00 00 E3 6D 
  1441)     17966.1  Rx     000115F3  7  01 00 00 0F 03 F3 15 
  1442)     17966.2  Rx     001115F3  5  01 00 00 F3 15 
  1443)     17971.1  Rx     0001F25A  7  01 00 00 0F 03 5A F2 
  1444)     17971.2  Rx     0011F25A  5  01 00 00 5A F2 
  1445)     17976.1  Rx     0001B750  7  01 00 00 0F 03 50 B7 
  1446)     17976.2  Rx     0011B750  5  01 00 00 50 B7 
  1447)     17981.1  Rx     00015B9E  7  01 00 00 0F 03 9E 5B 
  1448)     17981.2  Rx     00115B9E  5  01 00 00 9E 5B 
  1449)     17986.1  Rx     00010FE1  7  01 00 00 0F 03 E1 0F 
  1450)     17986.2  Rx     00110FE1  5  01 00 00 E1 0F 
  1451)     17991.1  Rx     0001679B  7  01 00 00 0F 03 9B 67 
  1452)     17991.2  Rx     0011679B  5  01 00 00 9B 67 
  1453)     17996.1  Rx     00010F8E  7  01 00 00 0F 03 8E 0F 
  1454)     17996.2  Rx     00110F8E  5  01 00 00 8E 0F 
  1455)     18001.1  Rx     0001C65E  7  01 00 00 0F 03 5E C6 
  1456)     18001.2  Rx     0011C65E  5  01 00 00 5E C6 
  1457)     18006.1  Rx     0001FAEF  7  01 00 00 0F 03 EF FA 
  1458)     18006.2  Rx     0011FAEF  5  01 00 00 EF FA 
  1459)     18011.1  Rx     00011CC0  7  01 00 00 0F 03 C0 1C 
  1460)     18011.2  Rx     00111CC0  5  01 00 00 C0 1C 
  1461)     18016.1  Rx     00011201  7  01 00 00 0F 03 01 12 
  1462)     18016.2  Rx     00111201  5  01 00 00 01 12 
  1463)     18021.1  Rx     0001DC95  7  01 00 00 0F 03 95 DC 
  1464)     18021.2  Rx     0011DC95  5  01 00 00 95 DC 
  1465)     18026.1  Rx     0001580B  7  01 00 00 0F 03 0B 58 
  1466)     18026.2  Rx     0011580B  5  01 00 00 0B 58 
  1467)     18031.1  Rx     0001768B  7  01 00 00 0F 03 8B 76 
  1468)     18031.2  Rx     0011768B  5  01 00 00 8B 76 
  1469)     18036.1  Rx     0001D781  7  01 00 00 0F 03 81 D7 
  1470)     18036.2  Rx     0011D781  5  01 00 00 81 D7 
  1471)     18041.1  Rx     0001AFE0  7  01 00 00 0F 03 E0 AF 
  1472)     18041.2  Rx     0011AFE0  5  01 00 00 E0 AF 
  1473)     18046.1  Rx     00012DA8  7  01 00 00 0F 03 A8 2D 
  1474)     18046.2  Rx     00112DA8  5  01 00 00 A8 2D 
  1475)     18051.1  Rx     00018D98  7  01 00 00 0F 03 98 8D 
  1476)     18051.2  Rx     00118D98  5  01 00 00 98 8D 
  1477)     18056.1  Rx     0001F047  7  01 00 00 0F 03 47 F0 
  1478)     18056.2  Rx     0011F047  5  01 00 00 47 F0 
  1479)     18061.1  Rx     0001B0D8  7  01 00 00 0F 03 D8 B0 
  1480)     18061.2  Rx     0011B0D8  5  01 00 00 D8 B0 
  1481)     18066.1  Rx     0001B4A4  7  01 00 00 0F 03 A4 B4 
  1482)     18066.2  Rx     0011B4A4  5  01 00 00 A4 B4 
  1483)     18071.1  Rx     00016B93  7  01 00 00 0F 03 93 6B 
  1484)     18071.2  Rx     00116B93  5  01 00 00 93 6B 
  1485)     18076.0  Rx     0001D9AC  7  01 00 00 0F 03 AC D9 
  1486)     18076.2  Rx     0011D9AC  5  01 00 00 AC D9 
  1487)     18081.1  Rx     000176A8  7  01 00 00 0F 03 A8 76 
  1488)     18081.2  Rx     001176A8  5  01 00 00 A8 76 
  1489)     18086.1  Rx     00016BE7  7  01 00 00 0F 03 E7 6B 
  1490)     18086.2  Rx     00116BE7  5  01 00 00 E7 6B 
  1491)     18091.1  Rx     0001F22B  7  01 00 00 0F 03 2B F2 
  1492)     18091.2  Rx     0011F22B  5  01 00 00 2B F2 
  1493)     18096.1  Rx     000120B1  7  01 00 00 0F 03 B1 20 
  1494)     18096.2  Rx     001120B1  5  01 00 00 B1 20 
  1495)     18101.0  Rx     00010663  7  01 00 00 0F 03 63 06 
  1496)     18101.2  Rx     00110663  5  01 00 00 63 06 
  1497)     18106.1  Rx     00019ACB  7  01 00 00 0F 03 CB 9A 
  1498)     18106.2  Rx     00119ACB  5  01 00 00 CB 9A 
  1499)     18111.1  Rx     00010BC9  7  01 00 00 0F 03 C9 0B 
  1500)     18111.2  Rx     00110BC9  5  01 00 00 C9 0B 
  1501)     18116.1  Rx     0001D942  7  01 00 00 0F 03 42 D9 
  1502)     18116.2  Rx     0011D942  5  01 00 00 42 D9 
  1503)     18121.1  Rx     0001A212  7  01 00 00 0F 03 12 A2 
  1504)     18121.2  Rx     0011A212  5  01 00 00 12 A2 
  1505)     18126.1  Rx     0001623F  7  01 00 00 0F 03 3F 62 
  1506)     18126.2  Rx     0011623F  5  01 00 00 3F 62 
  1507)     18131.0  Rx     0001A600  7  01 00 00 0F 03 00 A6 
  1508)     18131.2  Rx     0011A600  5  01 00 00 00 A6 
  1509)     18136.1  Rx     0001D639  7  01 00 00 0F 03 39 D6 
  1510)     18136.2  Rx     0011D639  5  01 00 00 39 D6 
  1511)     18141.1  Rx     0001378F  7  01 00 00 0F 03 8F 37 
  1512)     18141.2  Rx     0011378F  5  01 00 00 8F 37 
  1513)     18146.1  Rx     000164A9  7  01 00 00 0F 03 A9 64 
  1514)     18146.2  Rx     001164A9  5  01 00 00 A9 64 
  1515)     18151.1  Rx     0001D1C2  7  01 00 00 0F 03 C2 D1 
  1516)     18151.2  Rx     0011D1C2  5  01 00 00 C2 D1 
  1517)     18156.0  Rx     00010623  7  01 00 00 0F 03 23 06 
  1518)     18156.2  Rx     00110623  5  01 00 00 23 06 
  1519)     18161.1  Rx     0001EF13  7  01 00 00 0F 03 13 EF 
  1520)     18161.2  Rx     0011EF13  5  01 00 00 13 EF 
  1521)     18166.1  Rx     0001B08D  7  01 00 00 0F 03 8D B0 
  1522)     18166.2  Rx     0011B08D  5  01 00 00 8D B0 
  1523)     18171.1  Rx     0001BD57  7  01 00 00 0F 03 57 BD 
  1524)     18171.1  Rx     0011BD57  5  01 00 00 57 BD 
  1525)     18176.1  Rx     0001BCC5  7  01 00 00 0F 03 C5 BC 
  1526)     18176.2  Rx     0011BCC5  5  01 00 00 C5 BC 
  1527)     18181.0  Rx     0001C990  7  01 00 00 0F 03 90 C9 
  1528)     18181.2  Rx     0011C990  5  01 00 00 90 C9 
  1529)     18186.0  Rx     000175F1  7  01 00 00 0F 03 F1 75 
  1530)     18186.2  Rx     001175F1  5  01 00 00 F1 75 
  1531)     18191.1  Rx     0001E00C  7  01 00 00 0F 03 0C E0 
  1532)     18191.2  Rx     0011E00C  5  01 00 00 0C E0 
  1533)     18196.1  Rx     0001055C  7  01 00 00 0F 03 5C 05 
  1534)     18196.2  Rx     0011055C  5  01 00 00 5C 05 
  1535)     18201.1  Rx     000136BF  7  01 00 00 0F 03 BF 36 
  1536)     18201.2  Rx     001136BF  5  01 00 00 BF 36 
  1537)     18206.0  Rx     0001E67E  7  01 00 00 0F 03 7E E6 
  1538)     18206.2  Rx     0011E67E  5  01 00 00 7E E6 
  1539)     18211.0  Rx     0001FBAE  7  01 00 00 0F 03 AE FB 
  1540)     18211.2  Rx     0011FBAE  5  01 00 00 AE FB 
  1541)     18216.0  Rx     0001EDA7  7  01 00 00 0F 03 A7 ED 
  1542)     18216.2  Rx     0011EDA7  5  01 00 00 A7 ED 
  1543)     18221.1  Rx     000186F7  7  01 00 00 0F 03 F7 86 
  1544)     18221.2  Rx     001186F7  5  01 00 00 F7 86 
  1545)     18226.1  Rx     00010C67  7  01 00 00 0F 03 67 0C 
  1546)     18226.1  Rx     00110C67  5  01 00 00 67 0C 
  1547)     18231.1  Rx     00011FB5  7  01 00 00 0F 03 B5 1F 
  1548)     18231.2  Rx     00111FB5  5  01 00 00 B5 1F 
  1549)     18236.0  Rx     0001E5A5  7  01 00 00 0F 03 A5 E5 
  1550)     18236.2  Rx     0011E5A5  5  01 00 00 A5 E5 
  1551)     18241.0  Rx     000190C3  7  01 00 00 0F 03 C3 90 
  1552)     18241.2  Rx     001190C3  5  01 00 00 C3 90 
  1553)     18246.1  Rx     00018409  7  01 00 00 0F 03 09 84 
  1554)     18246.2  Rx     00118409  5  01 00 00 09 84 
  1555)     18251.1  Rx     0001CE3F  7  01 00 00 0F 03 3F CE 
  1556)     18251.1  Rx     0011CE3F  5  01 00 00 3F CE 
  1557)     18256.1  Rx     0001F81E  7  01 00 00 0F 03 1E F8 
  1558)     18256.2  Rx     0011F81E  5  01 00 00 1E F8 
  1559)     18261.0  Rx     00014E31  7  01 00 00 0F 03 31 4E 
  1560)     18261.2  Rx     00114E31  5  01 00 00 31 4E 
  1561)     18266.0  Rx     00016056  7  01 00 00 0F 03 56 60 
  1562)     18266.2  Rx     00116056  5  01 00 00 56 60 
  1563)     18271.0  Rx     000106C2  7  01 00 00 0F 03 C2 06 
  1564)     18271.2  Rx     001106C2  5  01 00 00 C2 06 
  1565)     18276.1  Rx     000133E2  7  01 00 00 0F 03 E2 33 
  1566)     18276.1  Rx     001133E2  5  01 00 00 E2 33 
  1567)     18281.1  Rx     000145EB  7  01 00 00 0F 03 EB 45 
  1568)     18281.1  Rx     001145EB  5  01 00 00 EB 45 
  1569)     18286.0  Rx     0001F5F1  7  01 00 00 0F 03 F1 F5 
  1570)     18286.2  Rx     0011F5F1  5  01 00 00 F1 F5 
  1571)     18291.0  Rx     00015280  7  01 00 00 0F 03 80 52 
  1572)     18291.2  Rx     00115280  5  01 00 00 80 52 
  1573)     18296.0  Rx     0001D5D3  7  01 00 00 0F 03 D3 D5 
  1574)     18296.2  Rx     0011D5D3  5  01 00 00 D3 D5 
  1575)     18301.1  Rx     00014007  7  01 00 00 0F 03 07 40 
  1576)     18301.2  Rx     00114007  5  01 00 00 07 40 
  1577)     18306.1  Rx     00019D18  7  01 00 00 0F 03 18 9D 
  1578)     18306.1  Rx     00119D18  5  01 00 00 18 9D 
  1579)     18311.1  Rx     0001D6B8  7  01 00 00 0F 03 B8 D6 
  1580)     18311.1  Rx     0011D6B8  5  01 00 00 B8 D6 
  1581)     18316.0  Rx     0001D3A3  7  01 00 00 0F 03 A3 D3 
  1582)     18316.2  Rx     0011D3A3  5  01 00 00 A3 D3 
  1583)     18321.0  Rx     0001CA9D  7  01 00 00 0F 03 9D CA 
  1584)     18321.2  Rx     0011CA9D  5  01 00 00 9D CA 
  1585)     18326.0  Rx     00019A45  7  01 00 00 0F 03 45 9A 
  1586)     18326.2  Rx     00119A45  5  01 00 00 45 9A 
  1587)     18331.1  Rx     00015CA1  7  01 00 00 0F 03 A1 5C 
  1588)     18331.1  Rx     00115CA1  5  01 00 00 A1 5C 
  1589)     18336.1  Rx     0001EF5C  7  01 00 00 0F 03 5C EF 
  1590)     18336.1  Rx     0011EF5C  5  01 00 00 5C EF 
  1591)     18341.0  Rx     0001B21C  7  01 00 00 0F 03 1C B2 
  1592)     18341.2  Rx     0011B21C  5  01 00 00 1C B2 
  1593)     18346.0  Rx     0001D592  7  01 00 00 0F 03 92 D5 
  1594)     18346.2  Rx     0011D592  5  01 00 00 92 D5 
  1595)     18351.0  Rx     00017717  7  01 00 00 0F 03 17 77 
  1596)     18351.2  Rx     00117717  5  01 00 00 17 77 
  1597)     18356.0  Rx     00012FA4  7  01 00 00 0F 03 A4 2F 
  1598)     18356.1  Rx     00112FA4  5  01 00 00 A4 2F 
  1599)     18361.1  Rx     0001BD5C  7  01 00 00 0F 03 5C BD 
  1600)     18361.1  Rx     0011BD5C  5  01 00 00 5C BD 
  1601)     18366.0  Rx     0001C0DF  7  01 00 00 0F 03 DF C0 
  1602)     18366.2  Rx     0011C0DF  5  01 00 00 DF C0 
  1603)     18371.0  Rx     00017212  7  01 00 00 0F 03 12 72 
  1604)     18371.2  Rx     00117212  5  01 00 00 12 72 
  1605)     18376.0  Rx     00011CBC  7  01 00 00 0F 03 BC 1C 
  1606)     18376.2  Rx     00111CBC  5  01 00 00 BC 1C 
  1607)     18381.0  Rx     00011972  7  01 00 00 0F 03 72 19 
  1608)     18381.2  Rx     00111972  5  01 00 00 72 19 
  1609)     18386.0  Rx     000110B5  7  01 00 00 0F 03 B5 10 
  1610)     18386.1  Rx     001110B5  5  01 00 00 B5 10 
  1611)     18391.0  Rx     00017FDA  7  01 00 00 0F 03 DA 7F 
  1612)     18391.1  Rx     00117FDA  5  01 00 00 DA 7F 
  1613)     18396.0  Rx     00011A4D  7  01 00 00 0F 03 4D 1A 
  1614)     18396.2  Rx     00111A4D  5  01 00 00 4D 1A 
  1615)     18401.0  Rx     0001F546  7  01 00 00 0F 03 46 F5 
  1616)     18401.2  Rx     0011F546  5  01 00 00 46 F5 
  1617)     18406.0  Rx     0001A7E8  7  01 00 00 0F 03 E8 A7 
  1618)     18406.2  Rx     0011A7E8  5  01 00 00 E8 A7 
  1619)     18411.0  Rx     0001BBFB  7  01 00 00 0F 03 FB BB 
  1620)     18411.1  Rx     0011BBFB  5  01 00 00 FB BB 
  1621)     18416.1  Rx     0001A9E1  7  01 00 00 0F 03 E1 A9 
  1622)     18416.1  Rx     0011A9E1  5  01 00 00 E1 A9 
  1623)     18421.0  Rx     00011CE5  7  01 00 00 0F 03 E5 1C 
  1624)     18421.1  Rx     00111CE5  5  01 00 00 E5 1C 
  1625)     18426.0  Rx     000145FE  7  01 00 00 0F 03 FE 45 
  1626)     18426.2  Rx     001145FE  5  01 00 00 FE 45 
  1627)     18431.0  Rx     000137F8  7  01 00 00 0F 03 F8 37 
  1628)     18431.2  Rx     001137F8  5  01 00 00 F8 37 
  1629)     18436.0  Rx     0001D232  7  01 00 00 0F 03 32 D2 
  1630)     18436.1  Rx     0011D232  5  01 00 00 32 D2 
  1631)     18441.0  Rx     00017896  7  01 00 00 0F 03 96 78 
