;$FILEVERSION=1.1
;$STARTTIME=46290.6173577894
;
;   Start time: 25/09/2026 14:48:59.713.0
;   Generated by PCAN-View v5.3.3.958
;
;   Message Number
;   |         Time Offset (ms)
;   |         |        Type
;   |         |        |        ID (hex)
;   |         |        |        |     Data Length
;   |         |        |        |     |   Data Bytes (hex) ...
;   |         |        |        |     |   |
;---+--   ----+----  --+--  ----+---  +  -+ -- -- -- -- -- -- --
     1)     12574.1  Rx     00010A2A  7  01 00 00 0F 00 2A 0A 
     2)     12574.2  Rx     00110A2A  5  01 00 00 2A 0A 
     3)     12579.1  Rx     00014DAC  7  01 00 00 0F 03 AC 4D 
     4)     12579.2  Rx     00114DAC  5  01 00 00 AC 4D 
     5)     12584.1  Rx     0001BFC2  7  01 00 00 0F 03 C2 BF 
     6)     12584.2  Rx     0011BFC2  5  01 00 00 C2 BF 
     7)     12589.1  Rx     0001DFE0  7  01 00 00 0F 03 E0 DF 
     8)     12589.2  Rx     0011DFE0  5  01 00 00 E0 DF 
     9)     12594.1  Rx     00018E51  7  01 00 00 0F 03 51 8E 
    10)     12594.2  Rx     00118E51  5  01 00 00 51 8E 
    11)     12599.1  Rx     00014D87  7  01 00 00 0F 03 87 4D 
    12)     12599.2  Rx     00114D87  5  01 00 00 87 4D 
    13)     12604.1  Rx     000174F0  7  01 00 00 0F 03 F0 74 
    14)     12604.2  Rx     001174F0  5  01 00 00 F0 74 
    15)     12609.1  Rx     00018103  7  01 00 00 0F 03 03 81 
    16)     12609.2  Rx     00118103  5  01 00 00 03 81 
    17)     12614.1  Rx     00019374  7  01 00 00 0F 03 74 93 
    18)     12614.2  Rx     00119374  5  01 00 00 74 93 
    19)     12619.1  Rx     0001B9AD  7  01 00 00 0F 03 AD B9 
    20)     12619.2  Rx     0011B9AD  5  01 00 00 AD B9 
    21)     12624.1  Rx     0001983C  7  01 00 00 0F 03 3C 98 
    22)     12624.2  Rx     0011983C  5  01 00 00 3C 98 
    23)     12629.1  Rx     00018C31  7  01 00 00 0F 03 31 8C 
    24)     12629.2  Rx     00118C31  5  01 00 00 31 8C 
    25)     12634.1  Rx     00014A7B  7  01 00 00 0F 03 7B 4A 
    26)     12634.2  Rx     00114A7B  5  01 00 00 7B 4A 
    27)     12639.1  Rx     00015F0F  7  01 00 00 0F 03 0F 5F 
    28)     12639.2  Rx     00115F0F  5  01 00 00 0F 5F 
    29)     12644.1  Rx     00010D3C  7  01 00 00 0F 03 3C 0D 
    30)     12644.2  Rx     00110D3C  5  01 00 00 3C 0D 
    31)     12649.1  Rx     0001EA24  7  01 00 00 0F 03 24 EA 
    32)     12649.2  Rx     0011EA24  5  01 00 00 24 EA 
    33)     12654.1  Rx     0001D135  7  01 00 00 0F 03 35 D1 
    34)     12654.2  Rx     0011D135  5  01 00 00 35 D1 
    35)     12659.1  Rx     00018CE6  7  01 00 00 0F 03 E6 8C 
    36)     12659.2  Rx     00118CE6  5  01 00 00 E6 8C 
    37)     12664.1  Rx     0001871F  7  01 00 00 0F 03 1F 87 
    38)     12664.2  Rx     0011871F  5  01 00 00 1F 87 
    39)     12669.1  Rx     0001FDBA  7  01 00 00 0F 03 BA FD 
    40)     12669.2  Rx     0011FDBA  5  01 00 00 BA FD 
    41)     12674.1  Rx     0001C230  7  01 00 00 0F 03 30 C2 
    42)     12674.2  Rx     0011C230  5  01 00 00 30 C2 
    43)     12679.1  Rx     0001D992  7  01 00 00 0F 03 92 D9 
    44)     12679.2  Rx     0011D992  5  01 00 00 92 D9 
    45)     12684.1  Rx     000191E6  7  01 00 00 0F 03 E6 91 
    46)     12684.2  Rx     001191E6  5  01 00 00 E6 91 
    47)     12689.1  Rx     000109B0  7  01 00 00 0F 03 B0 09 
    48)     12689.2  Rx     001109B0  5  01 00 00 B0 09 
    49)     12694.1  Rx     0001A04B  7  01 00 00 0F 03 4B A0 
    50)     12694.2  Rx     0011A04B  5  01 00 00 4B A0 
    51)     12699.1  Rx     0001063F  7  01 00 00 0F 03 3F 06 
    52)     12699.2  Rx     0011063F  5  01 00 00 3F 06 
    53)     12704.1  Rx     0001AD55  7  01 00 00 0F 03 55 AD 
    54)     12704.2  Rx     0011AD55  5  01 00 00 55 AD 
    55)     12709.1  Rx     0001772A  7  01 00 00 0F 03 2A 77 
    56)     12709.2  Rx     0011772A  5  01 00 00 2A 77 
    57)     12714.1  Rx     0001A20C  7  01 00 00 0F 03 0C A2 
    58)     12714.2  Rx     0011A20C  5  01 00 00 0C A2 
    59)     12719.1  Rx     0001B94D  7  01 00 00 0F 03 4D B9 
    60)     12719.2  Rx     0011B94D  5  01 00 00 4D B9 
    61)     12724.1  Rx     00014DA6  7  01 00 00 0F 03 A6 4D 
    62)     12724.2  Rx     00114DA6  5  01 00 00 A6 4D 
    63)     12729.1  Rx     00011CF9  7  01 00 00 0F 03 F9 1C 
    64)     12729.2  Rx     00111CF9  5  01 00 00 F9 1C 
    65)     12734.1  Rx     000104B1  7  01 00 00 0F 03 B1 04 
    66)     12734.2  Rx     001104B1  5  01 00 00 B1 04 
    67)     12739.1  Rx     00015B6C  7  01 00 00 0F 03 6C 5B 
    68)     12739.2  Rx     00115B6C  5  01 00 00 6C 5B 
    69)     12744.1  Rx     0001F602  7  01 00 00 0F 03 02 F6 
    70)     12744.2  Rx     0011F602  5  01 00 00 02 F6 
    71)     12749.1  Rx     0001AF9B  7  01 00 00 0F 03 9B AF 
    72)     12749.2  Rx     0011AF9B  5  01 00 00 9B AF 
    73)     12754.1  Rx     0001CB07  7  01 00 00 0F 03 07 CB 
    74)     12754.2  Rx     0011CB07  5  01 00 00 07 CB 
    75)     12759.1  Rx     0001DF89  7  01 00 00 0F 03 89 DF 
    76)     12759.2  Rx     0011DF89  5  01 00 00 89 DF 
    77)     12764.1  Rx     00013CB0  7  01 00 00 0F 03 B0 3C 
    78)     12764.2  Rx     00113CB0  5  01 00 00 B0 3C 
    79)     12769.1  Rx     0001E202  7  01 00 00 0F 03 02 E2 
    80)     12769.2  Rx     0011E202  5  01 00 00 02 E2 
    81)     12774.1  Rx     000133FE  7  01 00 00 0F 03 FE 33 
    82)     12774.2  Rx     001133FE  5  01 00 00 FE 33 
    83)     12779.1  Rx     00019D6B  7  01 00 00 0F 03 6B 9D 
    84)     12779.2  Rx     00119D6B  5  01 00 00 6B 9D 
    85)     12784.1  Rx     0001ED09  7  01 00 00 0F 03 09 ED 
    86)     12784.2  Rx     0011ED09  5  01 00 00 09 ED 
    87)     12789.1  Rx     0001D714  7  01 00 00 0F 03 14 D7 
    88)     12789.2  Rx     0011D714  5  01 00 00 14 D7 
    89)     12794.1  Rx     000144F8  7  01 00 00 0F 03 F8 44 
    90)     12794.2  Rx     001144F8  5  01 00 00 F8 44 
    91)     12799.1  Rx     0001231C  7  01 00 00 0F 03 1C 23 
    92)     12799.2  Rx     0011231C  5  01 00 00 1C 23 
    93)     12804.0  Rx     00010732  7  01 00 00 0F 03 32 07 
    94)     12804.2  Rx     00110732  5  01 00 00 32 07 
    95)     12809.1  Rx     00016FF4  7  01 00 00 0F 03 F4 6F 
    96)     12809.2  Rx     00116FF4  5  01 00 00 F4 6F 
    97)     12814.1  Rx     000187E3  7  01 00 00 0F 03 E3 87 
    98)     12814.2  Rx     001187E3  5  01 00 00 E3 87 
    99)     12819.1  Rx     0001E908  7  01 00 00 0F 03 08 E9 
   100)     12819.2  Rx     0011E908  5  01 00 00 08 E9 
   101)     12824.1  Rx     0001D588  7  01 00 00 0F 03 88 D5 
   102)     12824.2  Rx     0011D588  5  01 00 00 88 D5 
   103)     12829.0  Rx     00018B05  7  01 00 00 0F 03 05 8B 
   104)     12829.2  Rx     00118B05  5  01 00 00 05 8B 
   105)     12834.0  Rx     0001510D  7  01 00 00 0F 03 0D 51 
   106)     12834.2  Rx     0011510D  5  01 00 00 0D 51 
   107)     12839.1  Rx     000148E6  7  01 00 00 0F 03 E6 48 
   108)     12839.2  Rx     001148E6  5  01 00 00 E6 48 
   109)     12844.1  Rx     000103D9  7  01 00 00 0F 03 D9 03 
   110)     12844.2  Rx     001103D9  5  01 00 00 D9 03 
   111)     12849.1  Rx     00015FAA  7  01 00 00 0F 03 AA 5F 
   112)     12849.2  Rx     00115FAA  5  01 00 00 AA 5F 
   113)     12854.1  Rx     000198B1  7  01 00 00 0F 03 B1 98 
   114)     12854.2  Rx     001198B1  5  01 00 00 B1 98 
   115)     12859.0  Rx     0001375A  7  01 00 00 0F 03 5A 37 
   116)     12859.2  Rx     0011375A  5  01 00 00 5A 37 
   117)     12864.1  Rx     00019C57  7  01 00 00 0F 03 57 9C 
   118)     12864.2  Rx     00119C57  5  01 00 00 57 9C 
   119)     12869.1  Rx     0001CECE  7  01 00 00 0F 03 CE CE 
   120)     12869.2  Rx     0011CECE  5  01 00 00 CE CE 
   121)     12874.1  Rx     00015854  7  01 00 00 0F 03 54 58 
   122)     12874.2  Rx     00115854  5  01 00 00 54 58 
   123)     12879.1  Rx     00010C56  7  01 00 00 0F 03 56 0C 
   124)     12879.2  Rx     00110C56  5  01 00 00 56 0C 
   125)     12884.0  Rx     00013A4C  7  01 00 00 0F 03 4C 3A 
   126)     12884.2  Rx     00113A4C  5  01 00 00 4C 3A 
   127)     12889.0  Rx     0001AC27  7  01 00 00 0F 03 27 AC 
   128)     12889.2  Rx     0011AC27  5  01 00 00 27 AC 
   129)     12894.1  Rx     000133D2  7  01 00 00 0F 03 D2 33 
   130)     12894.2  Rx     001133D2  5  01 00 00 D2 33 
   131)     12899.1  Rx     00017243  7  01 00 00 0F 03 43 72 
   132)     12899.1  Rx     00117243  5  01 00 00 43 72 
   133)     12904.1  Rx     0001EA8D  7  01 00 00 0F 03 8D EA 
   134)     12904.2  Rx     0011EA8D  5  01 00 00 8D EA 
   135)     12909.0  Rx     00011C38  7  01 00 00 0F 03 38 1C 
   136)     12909.2  Rx     00111C38  5  01 00 00 38 1C 
   137)     12914.0  Rx     0001FA35  7  01 00 00 0F 03 35 FA 
   138)     12914.2  Rx     0011FA35  5  01 00 00 35 FA 
   139)     12919.1  Rx     000113E3  7  01 00 00 0F 03 E3 13 
   140)     12919.2  Rx     001113E3  5  01 00 00 E3 13 
   141)     12924.1  Rx     000161AF  7  01 00 00 0F 03 AF 61 
   142)     12924.2  Rx     001161AF  5  01 00 00 AF 61 
   143)     12929.1  Rx     0001D31A  7  01 00 00 0F 03 1A D3 
   144)     12929.2  Rx     0011D31A  5  01 00 00 1A D3 
   145)     12934.1  Rx     0001464B  7  01 00 00 0F 03 4B 46 
   146)     12934.2  Rx     0011464B  5  01 00 00 4B 46 
   147)     12939.0  Rx     00017CF3  7  01 00 00 0F 03 F3 7C 
   148)     12939.2  Rx     00117CF3  5  01 00 00 F3 7C 
   149)     12944.0  Rx     000103FB  7  01 00 00 0F 03 FB 03 
   150)     12944.2  Rx     001103FB  5  01 00 00 FB 03 
   151)     12949.1  Rx     000167FA  7  01 00 00 0F 03 FA 67 
   152)     12949.2  Rx     001167FA  5  01 00 00 FA 67 
   153)     12954.1  Rx     0001FEF5  7  01 00 00 0F 03 F5 FE 
   154)     12954.1  Rx     0011FEF5  5  01 00 00 F5 FE 
   155)     12959.1  Rx     0001ED93  7  01 00 00 0F 03 93 ED 
   156)     12959.2  Rx     0011ED93  5  01 00 00 93 ED 
   157)     12964.0  Rx     0001E721  7  01 00 00 0F 03 21 E7 
   158)     12964.2  Rx     0011E721  5  01 00 00 21 E7 
   159)     12969.0  Rx     0001AD61  7  01 00 00 0F 03 61 AD 
   160)     12969.2  Rx     0011AD61  5  01 00 00 61 AD 
   161)     12974.1  Rx     0001F740  7  01 00 00 0F 03 40 F7 
   162)     12974.2  Rx     0011F740  5  01 00 00 40 F7 
   163)     12979.1  Rx     00012465  7  01 00 00 0F 03 65 24 
   164)     12979.1  Rx     00112465  5  01 00 00 65 24 
   165)     12984.1  Rx     0001F1AE  7  01 00 00 0F 03 AE F1 
   166)     12984.2  Rx     0011F1AE  5  01 00 00 AE F1 
   167)     12989.0  Rx     00010236  7  01 00 00 0F 03 36 02 
   168)     12989.2  Rx     00110236  5  01 00 00 36 02 
   169)     12994.0  Rx     00016635  7  01 00 00 0F 03 35 66 
   170)     12994.2  Rx     00116635  5  01 00 00 35 66 
   171)     12999.0  Rx     00012B77  7  01 00 00 0F 03 77 2B 
   172)     12999.2  Rx     00112B77  5  01 00 00 77 2B 
   173)     13004.1  Rx     0001DC3E  7  01 00 00 0F 03 3E DC 
   174)     13004.2  Rx     0011DC3E  5  01 00 00 3E DC 
   175)     13009.1  Rx     00019783  7  01 00 00 0F 03 83 97 
   176)     13009.1  Rx     00119783  5  01 00 00 83 97 
   177)     13014.0  Rx     00019670  7  01 00 00 0F 03 70 96 
   178)     13014.2  Rx     00119670  5  01 00 00 70 96 
   179)     13019.0  Rx     00012BE0  7  01 00 00 0F 03 E0 2B 
   180)     13019.2  Rx     00112BE0  5  01 00 00 E0 2B 
   181)     13024.0  Rx     00016071  7  01 00 00 0F 03 71 60 
   182)     13024.2  Rx     00116071  5  01 00 00 71 60 
   183)     13029.0  Rx     0001BAF9  7  01 00 00 0F 03 F9 BA 
   184)     13029.1  Rx     0011BAF9  5  01 00 00 F9 BA 
   185)     13034.0  Rx     00015D71  7  01 00 00 0F 03 71 5D 
   186)     13034.1  Rx     00115D71  5  01 00 00 71 5D 
   187)     13039.0  Rx     0001382C  7  01 00 00 0F 03 2C 38 
   188)     13039.2  Rx     0011382C  5  01 00 00 2C 38 
   189)     13044.0  Rx     0001159F  7  01 00 00 0F 03 9F 15 
   190)     13044.2  Rx     0011159F  5  01 00 00 9F 15 
   191)     13049.0  Rx     00014634  7  01 00 00 0F 03 34 46 
   192)     13049.2  Rx     00114634  5  01 00 00 34 46 
   193)     13054.0  Rx     0001AEB4  7  01 00 00 0F 03 B4 AE 
   194)     13054.1  Rx     0011AEB4  5  01 00 00 B4 AE 
   195)     13059.1  Rx     00013978  7  01 00 00 0F 03 78 39 
   196)     13059.1  Rx     00113978  5  01 00 00 78 39 
   197)     13064.0  Rx     0001B34A  7  01 00 00 0F 03 4A B3 
   198)     13064.1  Rx     0011B34A  5  01 00 00 4A B3 
   199)     13069.0  Rx     0001CEBE  7  01 00 00 0F 03 BE CE 
   200)     13069.2  Rx     0011CEBE  5  01 00 00 BE CE 
   201)     13074.0  Rx     00013A82  7  01 00 00 0F 03 82 3A 
   202)     13074.2  Rx     00113A82  5  01 00 00 82 3A 
   203)     13079.0  Rx     0001875C  7  01 00 00 0F 03 5C 87 
   204)     13079.1  Rx     0011875C  5  01 00 00 5C 87 
   205)     13084.0  Rx     00010155  7  01 00 00 0F 03 55 01 
   206)     13084.1  Rx     00110155  5  01 00 00 55 01 
   207)     13089.0  Rx     0001FAD5  7  01 00 00 0F 03 D5 FA 
   208)     13089.1  Rx     0011FAD5  5  01 00 00 D5 FA 
   209)     13094.0  Rx     0001F084  7  01 00 00 0F 03 84 F0 
   210)     13094.1  Rx     0011F084  5  01 00 00 84 F0 
   211)     13099.0  Rx     0001EE8B  7  01 00 00 0F 03 8B EE 
   212)     13099.2  Rx     0011EE8B  5  01 00 00 8B EE 
   213)     13104.0  Rx     0001F9F8  7  01 00 00 0F 03 F8 F9 
   214)     13104.1  Rx     0011F9F8  5  01 00 00 F8 F9 
   215)     13109.0  Rx     0001DEEC  7  01 00 00 0F 03 EC DE 
   216)     13109.1  Rx     0011DEEC  5  01 00 00 EC DE 
   217)     13114.0  Rx     0001921C  7  01 00 00 0F 03 1C 92 
   218)     13114.1  Rx     0011921C  5  01 00 00 1C 92 
   219)     13119.0  Rx     0001663B  7  01 00 00 0F 03 3B 66 
   220)     13119.1  Rx     0011663B  5  01 00 00 3B 66 
   221)     13124.0  Rx     0001C972  7  01 00 00 0F 03 72 C9 
   222)     13124.1  Rx     0011C972  5  01 00 00 72 C9 
   223)     13129.0  Rx     00014BF1  7  01 00 00 0F 03 F1 4B 
   224)     13129.2  Rx     00114BF1  5  01 00 00 F1 4B 
   225)     13134.0  Rx     00014473  7  01 00 00 0F 03 73 44 
   226)     13134.1  Rx     00114473  5  01 00 00 73 44 
   227)     13139.0  Rx     0001DC45  7  01 00 00 0F 03 45 DC 
   228)     13139.1  Rx     0011DC45  5  01 00 00 45 DC 
   229)     13144.0  Rx     0001F37B  7  01 00 00 0F 03 7B F3 
   230)     13144.1  Rx     0011F37B  5  01 00 00 7B F3 
   231)     13149.0  Rx     00010E53  7  01 00 00 0F 03 53 0E 
   232)     13149.1  Rx     00110E53  5  01 00 00 53 0E 
   233)     13154.0  Rx     00011E50  7  01 00 00 0F 03 50 1E 
   234)     13154.2  Rx     00111E50  5  01 00 00 50 1E 
   235)     13159.0  Rx     00011C0B  7  01 00 00 0F 03 0B 1C 
   236)     13159.1  Rx     00111C0B  5  01 00 00 0B 1C 
   237)     13164.0  Rx     00014A80  7  01 00 00 0F 03 80 4A 
   238)     13164.1  Rx     00114A80  5  01 00 00 80 4A 
   239)     13169.0  Rx     000151C1  7  01 00 00 0F 03 C1 51 
   240)     13169.1  Rx     001151C1  5  01 00 00 C1 51 
   241)     13174.0  Rx     0001B9AE  7  01 00 00 0F 03 AE B9 
   242)     13174.1  Rx     0011B9AE  5  01 00 00 AE B9 
   243)     13179.0  Rx     0001801C  7  01 00 00 0F 03 1C 80 
   244)     13179.2  Rx     0011801C  5  01 00 00 1C 80 
   245)     13184.0  Rx     0001108C  7  01 00 00 0F 03 8C 10 
   246)     13184.1  Rx     0011108C  5  01 00 00 8C 10 
   247)     13189.0  Rx     0001E1B3  7  01 00 00 0F 03 B3 E1 
   248)     13189.1  Rx     0011E1B3  5  01 00 00 B3 E1 
   249)     13194.0  Rx     0001C90B  7  01 00 00 0F 03 0B C9 
   250)     13194.1  Rx     0011C90B  5  01 00 00 0B C9 
   251)     13199.0  Rx     0001E298  7  01 00 00 0F 03 98 E2 
   252)     13199.1  Rx     0011E298  5  01 00 00 98 E2 
   253)     13204.0  Rx     00010A07  7  01 00 00 0F 03 07 0A 
   254)     13204.1  Rx     00110A07  5  01 00 00 07 0A 
   255)     13209.0  Rx     00018EAA  7  01 00 00 0F 03 AA 8E 
   256)     13209.1  Rx     00118EAA  5  01 00 00 AA 8E 
   257)     13214.0  Rx     00019881  7  01 00 00 0F 03 81 98 
   258)     13214.1  Rx     00119881  5  01 00 00 81 98 
   259)     13219.0  Rx     00014C54  7  01 00 00 0F 03 54 4C 
   260)     13219.1  Rx     00114C54  5  01 00 00 54 4C 
   261)     13224.0  Rx     00017621  7  01 00 00 0F 03 21 76 
   262)     13224.1  Rx     00117621  5  01 00 00 21 76 
   263)     13229.0  Rx     00015835  7  01 00 00 0F 03 35 58 
   264)     13229.1  Rx     00115835  5  01 00 00 35 58 
   265)     13234.0  Rx     0001B295  7  01 00 00 0F 03 95 B2 
   266)     13234.1  Rx     0011B295  5  01 00 00 95 B2 
   267)     13239.0  Rx     0001DEBD  7  01 00 00 0F 03 BD DE 
   268)     13239.1  Rx     0011DEBD  5  01 00 00 BD DE 
   269)     13244.0  Rx     00013D0B  7  01 00 00 0F 03 0B 3D 
   270)     13244.1  Rx     00113D0B  5  01 00 00 0B 3D 
   271)     13249.0  Rx     0001F3BA  7  01 00 00 0F 03 BA F3 
   272)     13249.1  Rx     0011F3BA  5  01 00 00 BA F3 
   273)     13254.0  Rx     000154D1  7  01 00 00 0F 03 D1 54 
   274)     13254.1  Rx     001154D1  5  01 00 00 D1 54 
   275)     13259.0  Rx     0001987C  7  01 00 00 0F 03 7C 98 
   276)     13259.1  Rx     0011987C  5  01 00 00 7C 98 
   277)     13264.0  Rx     0001EFEB  7  01 00 00 0F 03 EB EF 
   278)     13264.1  Rx     0011EFEB  5  01 00 00 EB EF 
   279)     13269.0  Rx     0001DFF0  7  01 00 00 0F 03 F0 DF 
   280)     13269.1  Rx     0011DFF0  5  01 00 00 F0 DF 
   281)     13274.0  Rx     00012013  7  01 00 00 0F 03 13 20 
   282)     13274.1  Rx     00112013  5  01 00 00 13 20 
   283)     13279.0  Rx     000124DD  7  01 00 00 0F 03 DD 24 
   284)     13279.1  Rx     001124DD  5  01 00 00 DD 24 
   285)     13284.0  Rx     0001D28C  7  01 00 00 0F 03 8C D2 
   286)     13284.1  Rx     0011D28C  5  01 00 00 8C D2 
   287)     13289.0  Rx     0001E12E  7  01 00 00 0F 03 2E E1 
   288)     13289.1  Rx     0011E12E  5  01 00 00 2E E1 
   289)     13294.0  Rx     000190A3  7  01 00 00 0F 03 A3 90 
   290)     13294.1  Rx     001190A3  5  01 00 00 A3 90 
   291)     13299.0  Rx     0001B5EF  7  01 00 00 0F 03 EF B5 
   292)     13299.1  Rx     0011B5EF  5  01 00 00 EF B5 
   293)     13304.0  Rx     0001FED7  7  01 00 00 0F 03 D7 FE 
   294)     13304.1  Rx     0011FED7  5  01 00 00 D7 FE 
   295)     13309.0  Rx     00014666  7  01 00 00 0F 03 66 46 
   296)     13309.1  Rx     00114666  5  01 00 00 66 46 
   297)     13314.0  Rx     00019606  7  01 00 00 0F 03 06 96 
   298)     13314.1  Rx     00119606  5  01 00 00 06 96 
   299)     13319.0  Rx     0001C16B  7  01 00 00 0F 03 6B C1 
   300)     13319.1  Rx     0011C16B  5  01 00 00 6B C1 
   301)     13324.0  Rx     00016204  7  01 00 00 0F 03 04 62 
   302)     13324.1  Rx     00116204  5  01 00 00 04 62 
   303)     13329.0  Rx     000132EE  7  01 00 00 0F 03 EE 32 
   304)     13329.1  Rx     001132EE  5  01 00 00 EE 32 
   305)     13334.0  Rx     00012694  7  01 00 00 0F 03 94 26 
   306)     13334.1  Rx     00112694  5  01 00 00 94 26 
   307)     13339.0  Rx     0001E054  7  01 00 00 0F 03 54 E0 
   308)     13339.1  Rx     0011E054  5  01 00 00 54 E0 
   309)     13344.0  Rx     0001D790  7  01 00 00 0F 03 90 D7 
   310)     13344.1  Rx     0011D790  5  01 00 00 90 D7 
   311)     13349.0  Rx     0001E104  7  01 00 00 0F 03 04 E1 
   312)     13349.1  Rx     0011E104  5  01 00 00 04 E1 
   313)     13354.0  Rx     0001C2CA  7  01 00 00 0F 03 CA C2 
   314)     13354.1  Rx     0011C2CA  5  01 00 00 CA C2 
   315)     13359.0  Rx     0001A562  7  01 00 00 0F 03 62 A5 
   316)     13359.1  Rx     0011A562  5  01 00 00 62 A5 
   317)     13364.0  Rx     00012DED  7  01 00 00 0F 03 ED 2D 
   318)     13364.1  Rx     00112DED  5  01 00 00 ED 2D 
   319)     13369.0  Rx     00011D0F  7  01 00 00 0F 03 0F 1D 
   320)     13369.1  Rx     00111D0F  5  01 00 00 0F 1D 
   321)     13374.0  Rx     0001105F  7  01 00 00 0F 03 5F 10 
   322)     13374.1  Rx     0011105F  5  01 00 00 5F 10 
   323)     13379.0  Rx     00014E1F  7  01 00 00 0F 03 1F 4E 
   324)     13379.1  Rx     00114E1F  5  01 00 00 1F 4E 
   325)     13384.0  Rx     000150FB  7  01 00 00 0F 03 FB 50 
   326)     13384.1  Rx     001150FB  5  01 00 00 FB 50 
   327)     13389.0  Rx     000169A6  7  01 00 00 0F 03 A6 69 
   328)     13389.1  Rx     001169A6  5  01 00 00 A6 69 
   329)     13394.0  Rx     00017518  7  01 00 00 0F 03 18 75 
   330)     13394.1  Rx     00117518  5  01 00 00 18 75 
   331)     13399.0  Rx     0001B6CD  7  01 00 00 0F 03 CD B6 
   332)     13399.1  Rx     0011B6CD  5  01 00 00 CD B6 
   333)     13404.0  Rx     00013639  7  01 00 00 0F 03 39 36 
   334)     13404.1  Rx     00113639  5  01 00 00 39 36 
   335)     13409.0  Rx     00015C51  7  01 00 00 0F 03 51 5C 
   336)     13409.1  Rx     00115C51  5  01 00 00 51 5C 
   337)     13414.0  Rx     00018D5B  7  01 00 00 0F 03 5B 8D 
   338)     13414.1  Rx     00118D5B  5  01 00 00 5B 8D 
   339)     13419.0  Rx     0001150E  7  01 00 00 0F 03 0E 15 
   340)     13419.1  Rx     0011150E  5  01 00 00 0E 15 
   341)     13424.0  Rx     000106B9  7  01 00 00 0F 03 B9 06 
   342)     13424.1  Rx     001106B9  5  01 00 00 B9 06 
   343)     13429.0  Rx     00010710  7  01 00 00 0F 03 10 07 
   344)     13429.1  Rx     00110710  5  01 00 00 10 07 
   345)     13434.0  Rx     0001CA84  7  01 00 00 0F 03 84 CA 
   346)     13434.1  Rx     0011CA84  5  01 00 00 84 CA 
   347)     13439.0  Rx     0001D141  7  01 00 00 0F 03 41 D1 
   348)     13439.1  Rx     0011D141  5  01 00 00 41 D1 
   349)     13444.0  Rx     000122D7  7  01 00 00 0F 03 D7 22 
   350)     13444.1  Rx     001122D7  5  01 00 00 D7 22 
   351)     13449.0  Rx     0001169F  7  01 00 00 0F 03 9F 16 
   352)     13449.1  Rx     0011169F  5  01 00 00 9F 16 
   353)     13454.0  Rx     0001FCFA  7  01 00 00 0F 03 FA FC 
   354)     13454.1  Rx     0011FCFA  5  01 00 00 FA FC 
   355)     13459.0  Rx     00014AAC  7  01 00 00 0F 03 AC 4A 
   356)     13459.1  Rx     00114AAC  5  01 00 00 AC 4A 
   357)     13464.0  Rx     000133A9  7  01 00 00 0F 03 A9 33 
   358)     13464.1  Rx     001133A9  5  01 00 00 A9 33 
   359)     13469.0  Rx     00015176  7  01 00 00 0F 03 76 51 
   360)     13469.1  Rx     00115176  5  01 00 00 76 51 
   361)     13474.0  Rx     0001F5FF  7  01 00 00 0F 03 FF F5 
   362)     13474.1  Rx     0011F5FF  5  01 00 00 FF F5 
   363)     13479.0  Rx     0001B65E  7  01 00 00 0F 03 5E B6 
   364)     13479.1  Rx     0011B65E  5  01 00 00 5E B6 
   365)     13484.0  Rx     00014635  7  01 00 00 0F 03 35 46 
   366)     13484.1  Rx     00114635  5  01 00 00 35 46 
   367)     13489.0  Rx     0001D392  7  01 00 00 0F 03 92 D3 
   368)     13489.1  Rx     0011D392  5  01 00 00 92 D3 
   369)     13494.0  Rx     0001F54A  7  01 00 00 0F 03 4A F5 
   370)     13494.1  Rx     0011F54A  5  01 00 00 4A F5 
   371)     13499.0  Rx     0001E8D1  7  01 00 00 0F 03 D1 E8 
   372)     13499.1  Rx     0011E8D1  5  01 00 00 D1 E8 
   373)     13504.0  Rx     0001C864  7  01 00 00 0F 03 64 C8 
   374)     13504.1  Rx     0011C864  5  01 00 00 64 C8 
   375)     13509.0  Rx     00015AF5  7  01 00 00 0F 03 F5 5A 
   376)     13509.1  Rx     00115AF5  5  01 00 00 F5 5A 
   377)     13514.0  Rx     00016256  7  01 00 00 0F 03 56 62 
   378)     13514.1  Rx     00116256  5  01 00 00 56 62 
   379)     13519.0  Rx     00012252  7  01 00 00 0F 03 52 22 
   380)     13519.1  Rx     00112252  5  01 00 00 52 22 
   381)     13524.0  Rx     0001ABB8  7  01 00 00 0F 03 B8 AB 
   382)     13524.1  Rx     0011ABB8  5  01 00 00 B8 AB 
   383)     13529.0  Rx     000198ED  7  01 00 00 0F 03 ED 98 
   384)     13529.1  Rx     001198ED  5  01 00 00 ED 98 
   385)     13534.0  Rx     00013977  7  01 00 00 0F 03 77 39 
   386)     13534.1  Rx     00113977  5  01 00 00 77 39 
   387)     13539.0  Rx     0001DE20  7  01 00 00 0F 03 20 DE 
   388)     13539.1  Rx     0011DE20  5  01 00 00 20 DE 
   389)     13544.0  Rx     000165BF  7  01 00 00 0F 03 BF 65 
   390)     13544.1  Rx     001165BF  5  01 00 00 BF 65 
   391)     13549.0  Rx     00019417  7  01 00 00 0F 03 17 94 
   392)     13549.1  Rx     00119417  5  01 00 00 17 94 
   393)     13554.0  Rx     0001B0B1  7  01 00 00 0F 03 B1 B0 
   394)     13554.1  Rx     0011B0B1  5  01 00 00 B1 B0 
   395)     13559.0  Rx     0001B056  7  01 00 00 0F 03 56 B0 
   396)     13559.1  Rx     0011B056  5  01 00 00 56 B0 
   397)     13564.0  Rx     00010E45  7  01 00 00 0F 03 45 0E 
   398)     13564.1  Rx     00110E45  5  01 00 00 45 0E 
   399)     13569.0  Rx     0001E322  7  01 00 00 0F 03 22 E3 
   400)     13569.1  Rx     0011E322  5  01 00 00 22 E3 
   401)     13574.0  Rx     0001BC48  7  01 00 00 0F 03 48 BC 
   402)     13574.1  Rx     0011BC48  5  01 00 00 48 BC 
   403)     13579.0  Rx     00010A88  7  01 00 00 0F 03 88 0A 
   404)     13579.1  Rx     00110A88  5  01 00 00 88 0A 
   405)     13584.0  Rx     00015F4C  7  01 00 00 0F 03 4C 5F 
   406)     13584.1  Rx     00115F4C  5  01 00 00 4C 5F 
   407)     13589.0  Rx     0001F053  7  01 00 00 0F 03 53 F0 
   408)     13589.1  Rx     0011F053  5  01 00 00 53 F0 
   409)     13594.0  Rx     0001AF15  7  01 00 00 0F 03 15 AF 
   410)     13594.1  Rx     0011AF15  5  01 00 00 15 AF 
   411)     13599.0  Rx     0001072E  7  01 00 00 0F 03 2E 07 
   412)     13599.1  Rx     0011072E  5  01 00 00 2E 07 
   413)     13604.0  Rx     0001D2BC  7  01 00 00 0F 03 BC D2 
   414)     13604.1  Rx     0011D2BC  5  01 00 00 BC D2 
   415)     13609.0  Rx     000185CC  7  01 00 00 0F 03 CC 85 
   416)     13609.1  Rx     001185CC  5  01 00 00 CC 85 
   417)     13614.0  Rx     0001AA9E  7  01 00 00 0F 03 9E AA 
   418)     13614.1  Rx     0011AA9E  5  01 00 00 9E AA 
   419)     13619.0  Rx     00013FC4  7  01 00 00 0F 03 C4 3F 
   420)     13619.1  Rx     00113FC4  5  01 00 00 C4 3F 
   421)     13624.0  Rx     0001B1D9  7  01 00 00 0F 03 D9 B1 
   422)     13624.1  Rx     0011B1D9  5  01 00 00 D9 B1 
   423)     13629.0  Rx     0001CA8B  7  01 00 00 0F 03 8B CA 
   424)     13629.1  Rx     0011CA8B  5  01 00 00 8B CA 
   425)     13634.0  Rx     000152E3  7  01 00 00 0F 03 E3 52 
   426)     13634.1  Rx     001152E3  5  01 00 00 E3 52 
   427)     13639.0  Rx     00019DAD  7  01 00 00 0F 03 AD 9D 
   428)     13639.1  Rx     00119DAD  5  01 00 00 AD 9D 
   429)     13644.0  Rx     00011678  7  01 00 00 0F 03 78 16 
   430)     13644.1  Rx     00111678  5  01 00 00 78 16 
   431)     13649.0  Rx     0001D833  7  01 00 00 0F 03 33 D8 
   432)     13649.1  Rx     0011D833  5  01 00 00 33 D8 
   433)     13654.0  Rx     00014DF8  7  01 00 00 0F 03 F8 4D 
   434)     13654.1  Rx     00114DF8  5  01 00 00 F8 4D 
   435)     13659.0  Rx     000131DB  7  01 00 00 0F 03 DB 31 
   436)     13659.1  Rx     001131DB  5  01 00 00 DB 31 
   437)     13664.0  Rx     00010DF0  7  01 00 00 0F 03 F0 0D 
   438)     13664.1  Rx     00110DF0  5  01 00 00 F0 0D 
   439)     13669.0  Rx     0001E98C  7  01 00 00 0F 03 8C E9 
   440)     13669.1  Rx     0011E98C  5  01 00 00 8C E9 
   441)     13674.0  Rx     0001CF57  7  01 00 00 0F 03 57 CF 
   442)     13674.1  Rx     0011CF57  5  01 00 00 57 CF 
   443)     13679.0  Rx     0001F72F  7  01 00 00 0F 03 2F F7 
   444)     13679.1  Rx     0011F72F  5  01 00 00 2F F7 
   445)     13684.0  Rx     00019DD1  7  01 00 00 0F 03 D1 9D 
   446)     13684.1  Rx     00119DD1  5  01 00 00 D1 9D 
   447)     13689.0  Rx     0001A5CB  7  01 00 00 0F 03 CB A5 
   448)     13689.1  Rx     0011A5CB  5  01 00 00 CB A5 
   449)     13694.0  Rx     000132F2  7  01 00 00 0F 03 F2 32 
   450)     13694.1  Rx     001132F2  5  01 00 00 F2 32 
   451)     13699.0  Rx     00019BA0  7  01 00 00 0F 03 A0 9B 
   452)     13699.1  Rx     00119BA0  5  01 00 00 A0 9B 
   453)     13703.9  Rx     0001D656  7  01 00 00 0F 03 56 D6 
   454)     13704.1  Rx     0011D656  5  01 00 00 56 D6 
   455)     13709.0  Rx     00018492  7  01 00 00 0F 03 92 84 
   456)     13709.1  Rx     00118492  5  01 00 00 92 84 
   457)     13714.0  Rx     00017C0A  7  01 00 00 0F 03 0A 7C 
   458)     13714.1  Rx     00117C0A  5  01 00 00 0A 7C 
   459)     13719.0  Rx     00016C1D  7  01 00 00 0F 03 1D 6C 
   460)     13719.1  Rx     00116C1D  5  01 00 00 1D 6C 
   461)     13724.0  Rx     0001E29A  7  01 00 00 0F 03 9A E2 
   462)     13724.1  Rx     0011E29A  5  01 00 00 9A E2 
   463)     13729.0  Rx     000116B5  7  01 00 00 0F 03 B5 16 
   464)     13729.1  Rx     001116B5  5  01 00 00 B5 16 
   465)     13734.0  Rx     000107C1  7  01 00 00 0F 03 C1 07 
   466)     13734.1  Rx     001107C1  5  01 00 00 C1 07 
   467)     13739.0  Rx     00011733  7  01 00 00 0F 03 33 17 
   468)     13739.1  Rx     00111733  5  01 00 00 33 17 
   469)     13744.0  Rx     0001168C  7  01 00 00 0F 03 8C 16 
   470)     13744.1  Rx     0011168C  5  01 00 00 8C 16 
   471)     13749.0  Rx     00014BC1  7  01 00 00 0F 03 C1 4B 
   472)     13749.1  Rx     00114BC1  5  01 00 00 C1 4B 
   473)     13754.0  Rx     0001EF70  7  01 00 00 0F 03 70 EF 
   474)     13754.1  Rx     0011EF70  5  01 00 00 70 EF 
   475)     13758.9  Rx     0001626D  7  01 00 00 0F 03 6D 62 
   476)     13759.1  Rx     0011626D  5  01 00 00 6D 62 
   477)     13764.0  Rx     00010AA3  7  01 00 00 0F 03 A3 0A 
   478)     13764.1  Rx     00110AA3  5  01 00 00 A3 0A 
   479)     13769.0  Rx     0001CC3D  7  01 00 00 0F 03 3D CC 
   480)     13769.1  Rx     0011CC3D  5  01 00 00 3D CC 
   481)     13774.0  Rx     0001B2B8  7  01 00 00 0F 03 B8 B2 
   482)     13774.1  Rx     0011B2B8  5  01 00 00 B8 B2 
   483)     13779.0  Rx     00012E7E  7  01 00 00 0F 03 7E 2E 
   484)     13779.1  Rx     00112E7E  5  01 00 00 7E 2E 
   485)     13783.9  Rx     00019550  7  01 00 00 0F 03 50 95 
   486)     13784.1  Rx     00119550  5  01 00 00 50 95 
   487)     13788.9  Rx     000154AD  7  01 00 00 0F 03 AD 54 
   488)     13789.1  Rx     001154AD  5  01 00 00 AD 54 
   489)     13794.0  Rx     0001D55A  7  01 00 00 0F 03 5A D5 
   490)     13794.1  Rx     0011D55A  5  01 00 00 5A D5 
   491)     13799.0  Rx     00011620  7  01 00 00 0F 03 20 16 
   492)     13799.1  Rx     00111620  5  01 00 00 20 16 
   493)     13804.0  Rx     0001F237  7  01 00 00 0F 03 37 F2 
   494)     13804.1  Rx     0011F237  5  01 00 00 37 F2 
   495)     13808.9  Rx     0001E55A  7  01 00 00 0F 03 5A E5 
   496)     13809.1  Rx     0011E55A  5  01 00 00 5A E5 
   497)     13813.9  Rx     00014CC6  7  01 00 00 0F 03 C6 4C 
   498)     13814.1  Rx     00114CC6  5  01 00 00 C6 4C 
   499)     13819.0  Rx     000167B9  7  01 00 00 0F 03 B9 67 
   500)     13819.1  Rx     001167B9  5  01 00 00 B9 67 
   501)     13824.0  Rx     0001C31D  7  01 00 00 0F 03 1D C3 
   502)     13824.1  Rx     0011C31D  5  01 00 00 1D C3 
   503)     13829.0  Rx     00012ED3  7  01 00 00 0F 03 D3 2E 
   504)     13829.0  Rx     00112ED3  5  01 00 00 D3 2E 
   505)     13834.0  Rx     00012575  7  01 00 00 0F 03 75 25 
   506)     13834.1  Rx     00112575  5  01 00 00 75 25 
   507)     13838.9  Rx     0001C1C2  7  01 00 00 0F 03 C2 C1 
   508)     13839.1  Rx     0011C1C2  5  01 00 00 C2 C1 
   509)     13843.9  Rx     0001229F  7  01 00 00 0F 03 9F 22 
   510)     13844.1  Rx     0011229F  5  01 00 00 9F 22 
   511)     13849.0  Rx     0001DB32  7  01 00 00 0F 03 32 DB 
   512)     13849.1  Rx     0011DB32  5  01 00 00 32 DB 
   513)     13854.0  Rx     000117F6  7  01 00 00 0F 03 F6 17 
   514)     13854.1  Rx     001117F6  5  01 00 00 F6 17 
   515)     13859.0  Rx     000125E7  7  01 00 00 0F 03 E7 25 
   516)     13859.1  Rx     001125E7  5  01 00 00 E7 25 
   517)     13863.9  Rx     0001B8A7  7  01 00 00 0F 03 A7 B8 
   518)     13864.1  Rx     0011B8A7  5  01 00 00 A7 B8 
   519)     13868.9  Rx     0001D01E  7  01 00 00 0F 03 1E D0 
   520)     13869.1  Rx     0011D01E  5  01 00 00 1E D0 
   521)     13873.9  Rx     0001FDC9  7  01 00 00 0F 03 C9 FD 
   522)     13874.1  Rx     0011FDC9  5  01 00 00 C9 FD 
   523)     13879.0  Rx     00018EED  7  01 00 00 0F 03 ED 8E 
   524)     13879.0  Rx     00118EED  5  01 00 00 ED 8E 
   525)     13884.0  Rx     0001D09D  7  01 00 00 0F 03 9D D0 
   526)     13884.0  Rx     0011D09D  5  01 00 00 9D D0 
   527)     13888.9  Rx     00019D93  7  01 00 00 0F 03 93 9D 
   528)     13889.1  Rx     00119D93  5  01 00 00 93 9D 
   529)     13893.9  Rx     000185EE  7  01 00 00 0F 03 EE 85 
   530)     13894.1  Rx     001185EE  5  01 00 00 EE 85 
   531)     13898.9  Rx     0001D557  7  01 00 00 0F 03 57 D5 
   532)     13899.1  Rx     0011D557  5  01 00 00 57 D5 
   533)     13904.0  Rx     00015160  7  01 00 00 0F 03 60 51 
   534)     13904.1  Rx     00115160  5  01 00 00 60 51 
   535)     13909.0  Rx     0001A963  7  01 00 00 0F 03 63 A9 
   536)     13909.0  Rx     0011A963  5  01 00 00 63 A9 
   537)     13914.0  Rx     0001A53B  7  01 00 00 0F 03 3B A5 
   538)     13914.1  Rx     0011A53B  5  01 00 00 3B A5 
   539)     13918.9  Rx     00018AC6  7  01 00 00 0F 03 C6 8A 
   540)     13919.1  Rx     00118AC6  5  01 00 00 C6 8A 
   541)     13923.9  Rx     0001E6F2  7  01 00 00 0F 03 F2 E6 
   542)     13924.1  Rx     0011E6F2  5  01 00 00 F2 E6 
   543)     13928.9  Rx     0001977A  7  01 00 00 0F 03 7A 97 
   544)     13929.1  Rx     0011977A  5  01 00 00 7A 97 
   545)     13934.0  Rx     00013E70  7  01 00 00 0F 03 70 3E 
   546)     13934.0  Rx     00113E70  5  01 00 00 70 3E 
   547)     13939.0  Rx     0001B823  7  01 00 00 0F 03 23 B8 
   548)     13939.0  Rx     0011B823  5  01 00 00 23 B8 
   549)     13943.9  Rx     000105F6  7  01 00 00 0F 03 F6 05 
   550)     13944.1  Rx     001105F6  5  01 00 00 F6 05 
   551)     13948.9  Rx     00018EE5  7  01 00 00 0F 03 E5 8E 
   552)     13949.1  Rx     00118EE5  5  01 00 00 E5 8E 
   553)     13953.9  Rx     00019A0C  7  01 00 00 0F 03 0C 9A 
   554)     13954.1  Rx     00119A0C  5  01 00 00 0C 9A 
   555)     13959.0  Rx     0001C27E  7  01 00 00 0F 03 7E C2 
   556)     13959.0  Rx     0011C27E  5  01 00 00 7E C2 
   557)     13964.0  Rx     0001FCD9  7  01 00 00 0F 03 D9 FC 
   558)     13964.0  Rx     0011FCD9  5  01 00 00 D9 FC 
   559)     13968.9  Rx     00019390  7  01 00 00 0F 03 90 93 
   560)     13969.1  Rx     00119390  5  01 00 00 90 93 
   561)     13973.9  Rx     000111DC  7  01 00 00 0F 03 DC 11 
   562)     13974.1  Rx     001111DC  5  01 00 00 DC 11 
   563)     13978.9  Rx     00011AB4  7  01 00 00 0F 03 B4 1A 
   564)     13979.1  Rx     00111AB4  5  01 00 00 B4 1A 
   565)     13983.9  Rx     00010AD2  7  01 00 00 0F 03 D2 0A 
   566)     13984.1  Rx     00110AD2  5  01 00 00 D2 0A 
   567)     13989.0  Rx     0001CCD1  7  01 00 00 0F 03 D1 CC 
   568)     13989.0  Rx     0011CCD1  5  01 00 00 D1 CC 
   569)     13993.9  Rx     00018858  7  01 00 00 0F 03 58 88 
   570)     13994.0  Rx     00118858  5  01 00 00 58 88 
   571)     13998.9  Rx     00012FD3  7  01 00 00 0F 03 D3 2F 
   572)     13999.1  Rx     00112FD3  5  01 00 00 D3 2F 
   573)     14003.9  Rx     00015C8A  7  01 00 00 0F 03 8A 5C 
   574)     14004.1  Rx     00115C8A  5  01 00 00 8A 5C 
   575)     14008.9  Rx     0001D8A8  7  01 00 00 0F 03 A8 D8 
   576)     14009.1  Rx     0011D8A8  5  01 00 00 A8 D8 
   577)     14014.0  Rx     00010BAC  7  01 00 00 0F 03 AC 0B 
   578)     14014.0  Rx     00110BAC  5  01 00 00 AC 0B 
   579)     14019.0  Rx     0001203C  7  01 00 00 0F 03 3C 20 
   580)     14019.0  Rx     0011203C  5  01 00 00 3C 20 
   581)     14023.9  Rx     00013A9A  7  01 00 00 0F 03 9A 3A 
   582)     14024.0  Rx     00113A9A  5  01 00 00 9A 3A 
   583)     14028.9  Rx     00011FC3  7  01 00 00 0F 03 C3 1F 
   584)     14029.1  Rx     00111FC3  5  01 00 00 C3 1F 
   585)     14033.9  Rx     00015097  7  01 00 00 0F 03 97 50 
   586)     14034.1  Rx     00115097  5  01 00 00 97 50 
   587)     14038.9  Rx     0001AD8C  7  01 00 00 0F 03 8C AD 
   588)     14039.0  Rx     0011AD8C  5  01 00 00 8C AD 
   589)     14044.0  Rx     0001FDB8  7  01 00 00 0F 03 B8 FD 
   590)     14044.0  Rx     0011FDB8  5  01 00 00 B8 FD 
   591)     14048.9  Rx     00011A43  7  01 00 00 0F 03 43 1A 
   592)     14049.0  Rx     00111A43  5  01 00 00 43 1A 
   593)     14053.9  Rx     000158F7  7  01 00 00 0F 03 F7 58 
   594)     14054.1  Rx     001158F7  5  01 00 00 F7 58 
   595)     14058.9  Rx     0001EB3B  7  01 00 00 0F 03 3B EB 
   596)     14059.1  Rx     0011EB3B  5  01 00 00 3B EB 
   597)     14063.9  Rx     000128B0  7  01 00 00 0F 03 B0 28 
   598)     14064.0  Rx     001128B0  5  01 00 00 B0 28 
   599)     14068.9  Rx     0001AD40  7  01 00 00 0F 03 40 AD 
   600)     14069.0  Rx     0011AD40  5  01 00 00 40 AD 
   601)     14073.9  Rx     0001FA1F  7  01 00 00 0F 03 1F FA 
   602)     14074.0  Rx     0011FA1F  5  01 00 00 1F FA 
   603)     14079.0  Rx     00011C01  7  01 00 00 0F 03 01 1C 
   604)     14079.0  Rx     00111C01  5  01 00 00 01 1C 
   605)     14083.9  Rx     00018414  7  01 00 00 0F 03 14 84 
   606)     14084.1  Rx     00118414  5  01 00 00 14 84 
   607)     14088.9  Rx     0001790C  7  01 00 00 0F 03 0C 79 
   608)     14089.1  Rx     0011790C  5  01 00 00 0C 79 
   609)     14093.9  Rx     000166EF  7  01 00 00 0F 03 EF 66 
   610)     14094.1  Rx     001166EF  5  01 00 00 EF 66 
   611)     14098.9  Rx     000185FB  7  01 00 00 0F 03 FB 85 
   612)     14099.0  Rx     001185FB  5  01 00 00 FB 85 
   613)     14104.0  Rx     00011FB1  7  01 00 00 0F 03 B1 1F 
   614)     14104.0  Rx     00111FB1  5  01 00 00 B1 1F 
   615)     14108.9  Rx     00011439  7  01 00 00 0F 03 39 14 
   616)     14109.0  Rx     00111439  5  01 00 00 39 14 
   617)     14113.9  Rx     0001C1A0  7  01 00 00 0F 03 A0 C1 
   618)     14114.1  Rx     0011C1A0  5  01 00 00 A0 C1 
   619)     14118.9  Rx     00013D90  7  01 00 00 0F 03 90 3D 
   620)     14119.1  Rx     00113D90  5  01 00 00 90 3D 
   621)     14123.9  Rx     000155C7  7  01 00 00 0F 03 C7 55 
   622)     14124.0  Rx     001155C7  5  01 00 00 C7 55 
   623)     14129.0  Rx     0001875C  7  01 00 00 0F 03 5C 87 
   624)     14129.0  Rx     0011875C  5  01 00 00 5C 87 
   625)     14133.9  Rx     0001BD62  7  01 00 00 0F 03 62 BD 
   626)     14134.0  Rx     0011BD62  5  01 00 00 62 BD 
   627)     14138.9  Rx     0001F714  7  01 00 00 0F 03 14 F7 
   628)     14139.1  Rx     0011F714  5  01 00 00 14 F7 
   629)     14143.9  Rx     0001FFF7  7  01 00 00 0F 03 F7 FF 
   630)     14144.1  Rx     0011FFF7  5  01 00 00 F7 FF 
   631)     14148.9  Rx     0001618F  7  01 00 00 0F 03 8F 61 
   632)     14149.1  Rx     0011618F  5  01 00 00 8F 61 
   633)     14153.9  Rx     000117A7  7  01 00 00 0F 03 A7 17 
   634)     14154.0  Rx     001117A7  5  01 00 00 A7 17 
   635)     14159.0  Rx     0001CF29  7  01 00 00 0F 03 29 CF 
   636)     14159.0  Rx     0011CF29  5  01 00 00 29 CF 
   637)     14163.9  Rx     000169FB  7  01 00 00 0F 03 FB 69 
   638)     14164.1  Rx     001169FB  5  01 00 00 FB 69 
   639)     14168.9  Rx     000145B7  7  01 00 00 0F 03 B7 45 
   640)     14169.1  Rx     001145B7  5  01 00 00 B7 45 
   641)     14173.9  Rx     00012D3C  7  01 00 00 0F 03 3C 2D 
   642)     14174.1  Rx     00112D3C  5  01 00 00 3C 2D 
   643)     14178.9  Rx     000125E8  7  01 00 00 0F 03 E8 25 
   644)     14179.0  Rx     001125E8  5  01 00 00 E8 25 
   645)     14183.9  Rx     00017218  7  01 00 00 0F 03 18 72 
   646)     14184.0  Rx     00117218  5  01 00 00 18 72 
   647)     14188.9  Rx     00010889  7  01 00 00 0F 03 89 08 
   648)     14189.0  Rx     00110889  5  01 00 00 89 08 
   649)     14193.9  Rx     0001971C  7  01 00 00 0F 03 1C 97 
   650)     14194.1  Rx     0011971C  5  01 00 00 1C 97 
   651)     14198.9  Rx     00016CC3  7  01 00 00 0F 03 C3 6C 
   652)     14199.1  Rx     00116CC3  5  01 00 00 C3 6C 
   653)     14203.9  Rx     00018753  7  01 00 00 0F 03 53 87 
   654)     14204.0  Rx     00118753  5  01 00 00 53 87 
   655)     14208.9  Rx     00012B4D  7  01 00 00 0F 03 4D 2B 
   656)     14209.0  Rx     00112B4D  5  01 00 00 4D 2B 
   657)     14213.9  Rx     0001A704  7  01 00 00 0F 03 04 A7 
   658)     14214.0  Rx     0011A704  5  01 00 00 04 A7 
   659)     14218.9  Rx     0001F728  7  01 00 00 0F 03 28 F7 
   660)     14219.0  Rx     0011F728  5  01 00 00 28 F7 
   661)     14223.9  Rx     0001C565  7  01 00 00 0F 03 65 C5 
   662)     14224.1  Rx     0011C565  5  01 00 00 65 C5 
   663)     14228.9  Rx     0001FF5F  7  01 00 00 0F 03 5F FF 
   664)     14229.1  Rx     0011FF5F  5  01 00 00 5F FF 
   665)     14233.9  Rx     000107C5  7  01 00 00 0F 03 C5 07 
   666)     14234.0  Rx     001107C5  5  01 00 00 C5 07 
   667)     14238.9  Rx     0001B5E5  7  01 00 00 0F 03 E5 B5 
   668)     14239.0  Rx     0011B5E5  5  01 00 00 E5 B5 
   669)     14243.9  Rx     00010E6E  7  01 00 00 0F 03 6E 0E 
   670)     14244.0  Rx     00110E6E  5  01 00 00 6E 0E 
   671)     14248.9  Rx     0001167A  7  01 00 00 0F 03 7A 16 
   672)     14249.0  Rx     0011167A  5  01 00 00 7A 16 
   673)     14253.9  Rx     0001495B  7  01 00 00 0F 03 5B 49 
   674)     14254.1  Rx     0011495B  5  01 00 00 5B 49 
   675)     14258.9  Rx     0001314D  7  01 00 00 0F 03 4D 31 
   676)     14259.0  Rx     0011314D  5  01 00 00 4D 31 
   677)     14263.9  Rx     0001FE6C  7  01 00 00 0F 03 6C FE 
   678)     14264.0  Rx     0011FE6C  5  01 00 00 6C FE 
   679)     14268.9  Rx     000193B3  7  01 00 00 0F 03 B3 93 
   680)     14269.0  Rx     001193B3  5  01 00 00 B3 93 
   681)     14273.9  Rx     00016CC0  7  01 00 00 0F 03 C0 6C 
   682)     14274.0  Rx     00116CC0  5  01 00 00 C0 6C 
   683)     14278.9  Rx     00012E1E  7  01 00 00 0F 03 1E 2E 
   684)     14279.1  Rx     00112E1E  5  01 00 00 1E 2E 
   685)     14283.9  Rx     00011469  7  01 00 00 0F 03 69 14 
   686)     14284.0  Rx     00111469  5  01 00 00 69 14 
   687)     14288.9  Rx     00015946  7  01 00 00 0F 03 46 59 
   688)     14289.0  Rx     00115946  5  01 00 00 46 59 
   689)     14293.9  Rx     00017380  7  01 00 00 0F 03 80 73 
   690)     14294.0  Rx     00117380  5  01 00 00 80 73 
   691)     14298.9  Rx     00019920  7  01 00 00 0F 03 20 99 
   692)     14299.0  Rx     00119920  5  01 00 00 20 99 
   693)     14303.9  Rx     0001C576  7  01 00 00 0F 03 76 C5 
   694)     14304.0  Rx     0011C576  5  01 00 00 76 C5 
   695)     14308.9  Rx     00019313  7  01 00 00 0F 03 13 93 
   696)     14309.0  Rx     00119313  5  01 00 00 13 93 
   697)     14313.9  Rx     0001EF0C  7  01 00 00 0F 03 0C EF 
   698)     14314.0  Rx     0011EF0C  5  01 00 00 0C EF 
   699)     14318.9  Rx     0001498D  7  01 00 00 0F 03 8D 49 
   700)     14319.0  Rx     0011498D  5  01 00 00 8D 49 
   701)     14323.9  Rx     00016D5A  7  01 00 00 0F 03 5A 6D 
   702)     14324.0  Rx     00116D5A  5  01 00 00 5A 6D 
   703)     14328.9  Rx     0001BDE6  7  01 00 00 0F 03 E6 BD 
   704)     14329.0  Rx     0011BDE6  5  01 00 00 E6 BD 
   705)     14333.9  Rx     00019FCF  7  01 00 00 0F 03 CF 9F 
   706)     14334.1  Rx     00119FCF  5  01 00 00 CF 9F 
   707)     14338.9  Rx     0001DA33  7  01 00 00 0F 03 33 DA 
   708)     14339.0  Rx     0011DA33  5  01 00 00 33 DA 
   709)     14343.9  Rx     00018109  7  01 00 00 0F 03 09 81 
   710)     14344.0  Rx     00118109  5  01 00 00 09 81 
   711)     14348.9  Rx     00013B79  7  01 00 00 0F 03 79 3B 
   712)     14349.0  Rx     00113B79  5  01 00 00 79 3B 
   713)     14353.9  Rx     0001EC01  7  01 00 00 0F 03 01 EC 
   714)     14354.0  Rx     0011EC01  5  01 00 00 01 EC 
   715)     14358.9  Rx     0001715A  7  01 00 00 0F 03 5A 71 
   716)     14359.0  Rx     0011715A  5  01 00 00 5A 71 
   717)     14363.9  Rx     00018ED5  7  01 00 00 0F 03 D5 8E 
   718)     14364.0  Rx     00118ED5  5  01 00 00 D5 8E 
   719)     14368.9  Rx     00016F39  7  01 00 00 0F 03 39 6F 
   720)     14369.0  Rx     00116F39  5  01 00 00 39 6F 
   721)     14373.9  Rx     0001863D  7  01 00 00 0F 03 3D 86 
   722)     14374.0  Rx     0011863D  5  01 00 00 3D 86 
   723)     14378.9  Rx     00019766  7  01 00 00 0F 03 66 97 
   724)     14379.0  Rx     00119766  5  01 00 00 66 97 
   725)     14383.9  Rx     00014066  7  01 00 00 0F 03 66 40 
   726)     14384.0  Rx     00114066  5  01 00 00 66 40 
   727)     14388.9  Rx     000133CA  7  01 00 00 0F 03 CA 33 
   728)     14389.0  Rx     001133CA  5  01 00 00 CA 33 
   729)     14393.9  Rx     0001F3D3  7  01 00 00 0F 03 D3 F3 
   730)     14394.0  Rx     0011F3D3  5  01 00 00 D3 F3 
   731)     14398.9  Rx     0001FC3B  7  01 00 00 0F 03 3B FC 
   732)     14399.0  Rx     0011FC3B  5  01 00 00 3B FC 
   733)     14403.9  Rx     0001966A  7  01 00 00 0F 03 6A 96 
   734)     14404.0  Rx     0011966A  5  01 00 00 6A 96 
   735)     14408.9  Rx     00010D4C  7  01 00 00 0F 03 4C 0D 
   736)     14409.0  Rx     00110D4C  5  01 00 00 4C 0D 
   737)     14413.9  Rx     00010EDD  7  01 00 00 0F 03 DD 0E 
   738)     14414.0  Rx     00110EDD  5  01 00 00 DD 0E 
   739)     14418.9  Rx     00015B63  7  01 00 00 0F 03 63 5B 
   740)     14419.0  Rx     00115B63  5  01 00 00 63 5B 
   741)     14423.9  Rx     0001C60C  7  01 00 00 0F 03 0C C6 
   742)     14424.0  Rx     0011C60C  5  01 00 00 0C C6 
   743)     14428.9  Rx     0001985A  7  01 00 00 0F 03 5A 98 
   744)     14429.0  Rx     0011985A  5  01 00 00 5A 98 
   745)     14433.9  Rx     0001B813  7  01 00 00 0F 03 13 B8 
   746)     14434.0  Rx     0011B813  5  01 00 00 13 B8 
   747)     14438.9  Rx     00012EF0  7  01 00 00 0F 03 F0 2E 
   748)     14439.0  Rx     00112EF0  5  01 00 00 F0 2E 
   749)     14443.9  Rx     00016425  7  01 00 00 0F 03 25 64 
   750)     14444.0  Rx     00116425  5  01 00 00 25 64 
   751)     14448.9  Rx     0001B5D6  7  01 00 00 0F 03 D6 B5 
   752)     14449.0  Rx     0011B5D6  5  01 00 00 D6 B5 
   753)     14453.9  Rx     0001485E  7  01 00 00 0F 03 5E 48 
   754)     14454.0  Rx     0011485E  5  01 00 00 5E 48 
   755)     14458.9  Rx     0001A121  7  01 00 00 0F 03 21 A1 
   756)     14459.0  Rx     0011A121  5  01 00 00 21 A1 
   757)     14463.9  Rx     00017E34  7  01 00 00 0F 03 34 7E 
   758)     14464.0  Rx     00117E34  5  01 00 00 34 7E 
   759)     14468.9  Rx     0001F767  7  01 00 00 0F 03 67 F7 
   760)     14469.0  Rx     0011F767  5  01 00 00 67 F7 
   761)     14473.9  Rx     0001322E  7  01 00 00 0F 03 2E 32 
   762)     14474.0  Rx     0011322E  5  01 00 00 2E 32 
   763)     14478.9  Rx     000140C7  7  01 00 00 0F 03 C7 40 
   764)     14479.0  Rx     001140C7  5  01 00 00 C7 40 
   765)     14483.9  Rx     0001850E  7  01 00 00 0F 03 0E 85 
   766)     14484.0  Rx     0011850E  5  01 00 00 0E 85 
   767)     14488.9  Rx     0001E0BD  7  01 00 00 0F 03 BD E0 
   768)     14489.0  Rx     0011E0BD  5  01 00 00 BD E0 
   769)     14493.9  Rx     00017E8B  7  01 00 00 0F 03 8B 7E 
   770)     14494.0  Rx     00117E8B  5  01 00 00 8B 7E 
   771)     14498.9  Rx     0001DC65  7  01 00 00 0F 03 65 DC 
   772)     14499.0  Rx     0011DC65  5  01 00 00 65 DC 
   773)     14503.9  Rx     00018D53  7  01 00 00 0F 03 53 8D 
   774)     14504.0  Rx     00118D53  5  01 00 00 53 8D 
   775)     14508.9  Rx     00014599  7  01 00 00 0F 03 99 45 
   776)     14509.0  Rx     00114599  5  01 00 00 99 45 
   777)     14513.9  Rx     000175EC  7  01 00 00 0F 03 EC 75 
   778)     14514.0  Rx     001175EC  5  01 00 00 EC 75 
   779)     14518.9  Rx     00015418  7  01 00 00 0F 03 18 54 
   780)     14519.0  Rx     00115418  5  01 00 00 18 54 
   781)     14523.9  Rx     00012DA7  7  01 00 00 0F 03 A7 2D 
   782)     14524.0  Rx     00112DA7  5  01 00 00 A7 2D 
   783)     14528.9  Rx     0001848F  7  01 00 00 0F 03 8F 84 
   784)     14529.0  Rx     0011848F  5  01 00 00 8F 84 
   785)     14533.9  Rx     000120C9  7  01 00 00 0F 03 C9 20 
   786)     14534.0  Rx     001120C9  5  01 00 00 C9 20 
   787)     14538.9  Rx     00016E3C  7  01 00 00 0F 03 3C 6E 
   788)     14539.0  Rx     00116E3C  5  01 00 00 3C 6E 
   789)     14543.9  Rx     0001BE9C  7  01 00 00 0F 03 9C BE 
   790)     14544.0  Rx     0011BE9C  5  01 00 00 9C BE 
   791)     14548.9  Rx     0001EE89  7  01 00 00 0F 03 89 EE 
   792)     14549.0  Rx     0011EE89  5  01 00 00 89 EE 
   793)     14553.9  Rx     0001D7F2  7  01 00 00 0F 03 F2 D7 
   794)     14554.0  Rx     0011D7F2  5  01 00 00 F2 D7 
   795)     14558.9  Rx     00018ACA  7  01 00 00 0F 03 CA 8A 
   796)     14559.0  Rx     00118ACA  5  01 00 00 CA 8A 
   797)     14563.9  Rx     00014470  7  01 00 00 0F 03 70 44 
   798)     14564.0  Rx     00114470  5  01 00 00 70 44 
   799)     14568.9  Rx     0001070A  7  01 00 00 0F 03 0A 07 
   800)     14569.0  Rx     0011070A  5  01 00 00 0A 07 
   801)     14573.9  Rx     0001D09D  7  01 00 00 0F 03 9D D0 
   802)     14574.0  Rx     0011D09D  5  01 00 00 9D D0 
   803)     14578.9  Rx     00019D82  7  01 00 00 0F 03 82 9D 
   804)     14579.0  Rx     00119D82  5  01 00 00 82 9D 
   805)     14583.9  Rx     0001967B  7  01 00 00 0F 03 7B 96 
   806)     14584.0  Rx     0011967B  5  01 00 00 7B 96 
   807)     14588.9  Rx     0001D137  7  01 00 00 0F 03 37 D1 
   808)     14589.0  Rx     0011D137  5  01 00 00 37 D1 
   809)     14593.9  Rx     0001C840  7  01 00 00 0F 03 40 C8 
   810)     14594.0  Rx     0011C840  5  01 00 00 40 C8 
   811)     14598.9  Rx     0001E2CD  7  01 00 00 0F 03 CD E2 
   812)     14599.0  Rx     0011E2CD  5  01 00 00 CD E2 
   813)     14603.9  Rx     00016466  7  01 00 00 0F 03 66 64 
   814)     14604.0  Rx     00116466  5  01 00 00 66 64 
   815)     14608.9  Rx     00013195  7  01 00 00 0F 03 95 31 
   816)     14609.0  Rx     00113195  5  01 00 00 95 31 
   817)     14613.9  Rx     00016824  7  01 00 00 0F 03 24 68 
   818)     14614.0  Rx     00116824  5  01 00 00 24 68 
   819)     14618.9  Rx     0001AF5F  7  01 00 00 0F 03 5F AF 
   820)     14619.0  Rx     0011AF5F  5  01 00 00 5F AF 
   821)     14623.9  Rx     0001451B  7  01 00 00 0F 03 1B 45 
   822)     14624.0  Rx     0011451B  5  01 00 00 1B 45 
   823)     14628.9  Rx     00013091  7  01 00 00 0F 03 91 30 
   824)     14629.0  Rx     00113091  5  01 00 00 91 30 
   825)     14633.9  Rx     0001FCB4  7  01 00 00 0F 03 B4 FC 
   826)     14634.0  Rx     0011FCB4  5  01 00 00 B4 FC 
   827)     14638.9  Rx     00014E9E  7  01 00 00 0F 03 9E 4E 
   828)     14639.0  Rx     00114E9E  5  01 00 00 9E 4E 
   829)     14643.9  Rx     0001D77F  7  01 00 00 0F 03 7F D7 
   830)     14644.0  Rx     0011D77F  5  01 00 00 7F D7 
   831)     14648.9  Rx     000151C4  7  01 00 00 0F 03 C4 51 
   832)     14649.0  Rx     001151C4  5  01 00 00 C4 51 
   833)     14653.9  Rx     0001EC99  7  01 00 00 0F 03 99 EC 
   834)     14654.0  Rx     0011EC99  5  01 00 00 99 EC 
   835)     14658.9  Rx     0001CFC5  7  01 00 00 0F 03 C5 CF 
   836)     14659.0  Rx     0011CFC5  5  01 00 00 C5 CF 
   837)     14663.9  Rx     0001ACE1  7  01 00 00 0F 03 E1 AC 
   838)     14664.0  Rx     0011ACE1  5  01 00 00 E1 AC 
   839)     14668.9  Rx     0001D3F3  7  01 00 00 0F 03 F3 D3 
   840)     14669.0  Rx     0011D3F3  5  01 00 00 F3 D3 
   841)     14673.9  Rx     00015786  7  01 00 00 0F 03 86 57 
   842)     14674.0  Rx     00115786  5  01 00 00 86 57 
   843)     14678.9  Rx     0001BDC7  7  01 00 00 0F 03 C7 BD 
   844)     14679.0  Rx     0011BDC7  5  01 00 00 C7 BD 
   845)     14683.9  Rx     00018D2F  7  01 00 00 0F 03 2F 8D 
   846)     14684.0  Rx     00118D2F  5  01 00 00 2F 8D 
   847)     14688.9  Rx     000111D8  7  01 00 00 0F 03 D8 11 
   848)     14689.0  Rx     001111D8  5  01 00 00 D8 11 
   849)     14693.9  Rx     000190D2  7  01 00 00 0F 03 D2 90 
   850)     14694.0  Rx     001190D2  5  01 00 00 D2 90 
   851)     14698.9  Rx     000119F3  7  01 00 00 0F 03 F3 19 
   852)     14699.0  Rx     001119F3  5  01 00 00 F3 19 
   853)     14703.9  Rx     00015CEE  7  01 00 00 0F 03 EE 5C 
   854)     14704.0  Rx     00115CEE  5  01 00 00 EE 5C 
   855)     14708.9  Rx     0001D7A2  7  01 00 00 0F 03 A2 D7 
   856)     14709.0  Rx     0011D7A2  5  01 00 00 A2 D7 
   857)     14713.9  Rx     0001D5CA  7  01 00 00 0F 03 CA D5 
   858)     14714.0  Rx     0011D5CA  5  01 00 00 CA D5 
   859)     14718.9  Rx     0001015B  7  01 00 00 0F 03 5B 01 
   860)     14719.0  Rx     0011015B  5  01 00 00 5B 01 
   861)     14723.9  Rx     000138E7  7  01 00 00 0F 03 E7 38 
   862)     14724.0  Rx     001138E7  5  01 00 00 E7 38 
   863)     14728.9  Rx     0001953C  7  01 00 00 0F 03 3C 95 
   864)     14729.0  Rx     0011953C  5  01 00 00 3C 95 
   865)     14733.9  Rx     0001B7C3  7  01 00 00 0F 03 C3 B7 
   866)     14734.0  Rx     0011B7C3  5  01 00 00 C3 B7 
   867)     14738.9  Rx     0001A0F5  7  01 00 00 0F 03 F5 A0 
   868)     14739.0  Rx     0011A0F5  5  01 00 00 F5 A0 
   869)     14743.9  Rx     000193A1  7  01 00 00 0F 03 A1 93 
   870)     14744.0  Rx     001193A1  5  01 00 00 A1 93 
   871)     14748.9  Rx     0001D950  7  01 00 00 0F 03 50 D9 
   872)     14749.0  Rx     0011D950  5  01 00 00 50 D9 
   873)     14753.9  Rx     0001BDF1  7  01 00 00 0F 03 F1 BD 
   874)     14754.0  Rx     0011BDF1  5  01 00 00 F1 BD 
   875)     14758.9  Rx     0001E47E  7  01 00 00 0F 03 7E E4 
   876)     14759.0  Rx     0011E47E  5  01 00 00 7E E4 
   877)     14763.9  Rx     00012C91  7  01 00 00 0F 03 91 2C 
   878)     14764.0  Rx     00112C91  5  01 00 00 91 2C 
   879)     14768.9  Rx     00017509  7  01 00 00 0F 03 09 75 
   880)     14769.0  Rx     00117509  5  01 00 00 09 75 
   881)     14773.9  Rx     0001F2F9  7  01 00 00 0F 03 F9 F2 
   882)     14774.0  Rx     0011F2F9  5  01 00 00 F9 F2 
   883)     14778.9  Rx     00016021  7  01 00 00 0F 03 21 60 
   884)     14779.0  Rx     00116021  5  01 00 00 21 60 
   885)     14783.9  Rx     00014112  7  01 00 00 0F 03 12 41 
   886)     14784.0  Rx     00114112  5  01 00 00 12 41 
   887)     14788.9  Rx     0001E89B  7  01 00 00 0F 03 9B E8 
   888)     14789.0  Rx     0011E89B  5  01 00 00 9B E8 
   889)     14793.9  Rx     00017648  7  01 00 00 0F 03 48 76 
   890)     14794.0  Rx     00117648  5  01 00 00 48 76 
   891)     14798.9  Rx     000118DB  7  01 00 00 0F 03 DB 18 
   892)     14799.0  Rx     001118DB  5  01 00 00 DB 18 
   893)     14803.9  Rx     00017716  7  01 00 00 0F 03 16 77 
   894)     14804.0  Rx     00117716  5  01 00 00 16 77 
   895)     14808.9  Rx     0001A884  7  01 00 00 0F 03 84 A8 
   896)     14809.0  Rx     0011A884  5  01 00 00 84 A8 
   897)     14813.9  Rx     00010D20  7  01 00 00 0F 03 20 0D 
   898)     14814.0  Rx     00110D20  5  01 00 00 20 0D 
   899)     14818.9  Rx     00014B9C  7  01 00 00 0F 03 9C 4B 
   900)     14819.0  Rx     00114B9C  5  01 00 00 9C 4B 
   901)     14823.9  Rx     00010998  7  01 00 00 0F 03 98 09 
   902)     14824.0  Rx     00110998  5  01 00 00 98 09 
   903)     14828.8  Rx     00017F8E  7  01 00 00 0F 03 8E 7F 
   904)     14829.0  Rx     00117F8E  5  01 00 00 8E 7F 
   905)     14833.9  Rx     0001A777  7  01 00 00 0F 03 77 A7 
   906)     14834.0  Rx     0011A777  5  01 00 00 77 A7 
   907)     14838.9  Rx     0001472C  7  01 00 00 0F 03 2C 47 
   908)     14839.0  Rx     0011472C  5  01 00 00 2C 47 
   909)     14843.9  Rx     0001CAD8  7  01 00 00 0F 03 D8 CA 
   910)     14844.0  Rx     0011CAD8  5  01 00 00 D8 CA 
   911)     14848.9  Rx     0001B19B  7  01 00 00 0F 03 9B B1 
   912)     14849.0  Rx     0011B19B  5  01 00 00 9B B1 
   913)     14853.9  Rx     0001F47F  7  01 00 00 0F 03 7F F4 
   914)     14854.0  Rx     0011F47F  5  01 00 00 7F F4 
   915)     14858.8  Rx     000138D3  7  01 00 00 0F 03 D3 38 
   916)     14859.0  Rx     001138D3  5  01 00 00 D3 38 
   917)     14863.9  Rx     00013845  7  01 00 00 0F 03 45 38 
   918)     14864.0  Rx     00113845  5  01 00 00 45 38 
   919)     14868.9  Rx     0001831F  7  01 00 00 0F 03 1F 83 
   920)     14869.0  Rx     0011831F  5  01 00 00 1F 83 
   921)     14873.9  Rx     00010F03  7  01 00 00 0F 03 03 0F 
   922)     14874.0  Rx     00110F03  5  01 00 00 03 0F 
   923)     14878.9  Rx     000107B6  7  01 00 00 0F 03 B6 07 
   924)     14879.0  Rx     001107B6  5  01 00 00 B6 07 
   925)     14883.8  Rx     00019037  7  01 00 00 0F 03 37 90 
   926)     14884.0  Rx     00119037  5  01 00 00 37 90 
   927)     14888.9  Rx     0001616B  7  01 00 00 0F 03 6B 61 
   928)     14889.0  Rx     0011616B  5  01 00 00 6B 61 
   929)     14893.9  Rx     0001D577  7  01 00 00 0F 03 77 D5 
   930)     14894.0  Rx     0011D577  5  01 00 00 77 D5 
   931)     14898.9  Rx     00010302  7  01 00 00 0F 03 02 03 
   932)     14899.0  Rx     00110302  5  01 00 00 02 03 
   933)     14903.9  Rx     0001D565  7  01 00 00 0F 03 65 D5 
   934)     14904.0  Rx     0011D565  5  01 00 00 65 D5 
   935)     14908.8  Rx     000153AF  7  01 00 00 0F 03 AF 53 
   936)     14909.0  Rx     001153AF  5  01 00 00 AF 53 
   937)     14913.8  Rx     0001B1CC  7  01 00 00 0F 03 CC B1 
   938)     14914.0  Rx     0011B1CC  5  01 00 00 CC B1 
   939)     14918.9  Rx     0001DACB  7  01 00 00 0F 03 CB DA 
   940)     14919.0  Rx     0011DACB  5  01 00 00 CB DA 
   941)     14923.9  Rx     0001E410  7  01 00 00 0F 03 10 E4 
   942)     14924.0  Rx     0011E410  5  01 00 00 10 E4 
   943)     14928.9  Rx     000118BC  7  01 00 00 0F 03 BC 18 
   944)     14929.0  Rx     001118BC  5  01 00 00 BC 18 
   945)     14933.9  Rx     00010107  7  01 00 00 0F 03 07 01 
   946)     14934.0  Rx     00110107  5  01 00 00 07 01 
   947)     14938.8  Rx     00015BB1  7  01 00 00 0F 03 B1 5B 
   948)     14939.0  Rx     00115BB1  5  01 00 00 B1 5B 
   949)     14943.9  Rx     00018902  7  01 00 00 0F 03 02 89 
   950)     14944.0  Rx     00118902  5  01 00 00 02 89 
   951)     14948.9  Rx     0001B58D  7  01 00 00 0F 03 8D B5 
   952)     14949.0  Rx     0011B58D  5  01 00 00 8D B5 
   953)     14953.9  Rx     0001BA90  7  01 00 00 0F 03 90 BA 
   954)     14954.0  Rx     0011BA90  5  01 00 00 90 BA 
   955)     14958.9  Rx     00013D46  7  01 00 00 0F 03 46 3D 
   956)     14959.0  Rx     00113D46  5  01 00 00 46 3D 
   957)     14963.8  Rx     00018E3A  7  01 00 00 0F 03 3A 8E 
   958)     14964.0  Rx     00118E3A  5  01 00 00 3A 8E 
   959)     14968.8  Rx     00019083  7  01 00 00 0F 03 83 90 
   960)     14969.0  Rx     00119083  5  01 00 00 83 90 
   961)     14973.9  Rx     0001FB4A  7  01 00 00 0F 03 4A FB 
   962)     14974.0  Rx     0011FB4A  5  01 00 00 4A FB 
   963)     14978.9  Rx     0001F731  7  01 00 00 0F 03 31 F7 
   964)     14979.0  Rx     0011F731  5  01 00 00 31 F7 
   965)     14983.9  Rx     0001BD63  7  01 00 00 0F 03 63 BD 
   966)     14984.0  Rx     0011BD63  5  01 00 00 63 BD 
   967)     14988.8  Rx     0001E972  7  01 00 00 0F 03 72 E9 
   968)     14989.0  Rx     0011E972  5  01 00 00 72 E9 
   969)     14993.8  Rx     00018467  7  01 00 00 0F 03 67 84 
   970)     14994.0  Rx     00118467  5  01 00 00 67 84 
   971)     14998.9  Rx     00019112  7  01 00 00 0F 03 12 91 
   972)     14999.0  Rx     00119112  5  01 00 00 12 91 
   973)     15003.9  Rx     00010008  7  01 00 00 0F 03 08 00 
   974)     15004.0  Rx     00110008  5  01 00 00 08 00 
   975)     15008.9  Rx     00010260  7  01 00 00 0F 03 60 02 
   976)     15009.0  Rx     00110260  5  01 00 00 60 02 
   977)     15013.8  Rx     000175F7  7  01 00 00 0F 03 F7 75 
   978)     15014.0  Rx     001175F7  5  01 00 00 F7 75 
   979)     15018.8  Rx     00017123  7  01 00 00 0F 03 23 71 
   980)     15019.0  Rx     00117123  5  01 00 00 23 71 
   981)     15023.8  Rx     00017988  7  01 00 00 0F 03 88 79 
   982)     15024.0  Rx     00117988  5  01 00 00 88 79 
   983)     15028.9  Rx     00019506  7  01 00 00 0F 03 06 95 
   984)     15029.0  Rx     00119506  5  01 00 00 06 95 
   985)     15033.9  Rx     0001A145  7  01 00 00 0F 03 45 A1 
   986)     15033.9  Rx     0011A145  5  01 00 00 45 A1 
   987)     15038.9  Rx     000131A3  7  01 00 00 0F 03 A3 31 
   988)     15039.0  Rx     001131A3  5  01 00 00 A3 31 
   989)     15043.8  Rx     00016EC9  7  01 00 00 0F 03 C9 6E 
   990)     15044.0  Rx     00116EC9  5  01 00 00 C9 6E 
   991)     15048.8  Rx     00010D1E  7  01 00 00 0F 03 1E 0D 
   992)     15049.0  Rx     00110D1E  5  01 00 00 1E 0D 
   993)     15053.8  Rx     000156E0  7  01 00 00 0F 03 E0 56 
   994)     15054.0  Rx     001156E0  5  01 00 00 E0 56 
   995)     15058.9  Rx     00015CF2  7  01 00 00 0F 03 F2 5C 
   996)     15058.9  Rx     00115CF2  5  01 00 00 F2 5C 
   997)     15063.9  Rx     000183AF  7  01 00 00 0F 03 AF 83 
   998)     15064.0  Rx     001183AF  5  01 00 00 AF 83 
   999)     15068.8  Rx     0001DB5B  7  01 00 00 0F 03 5B DB 
  1000)     15069.0  Rx     0011DB5B  5  01 00 00 5B DB 
  1001)     15073.8  Rx     0001C87B  7  01 00 00 0F 03 7B C8 
  1002)     15074.0  Rx     0011C87B  5  01 00 00 7B C8 
  1003)     15078.8  Rx     0001607B  7  01 00 00 0F 03 7B 60 
  1004)     15079.0  Rx     0011607B  5  01 00 00 7B 60 
  1005)     15083.8  Rx     0001AA4B  7  01 00 00 0F 03 4B AA 
  1006)     15083.9  Rx     0011AA4B  5  01 00 00 4B AA 
  1007)     15088.9  Rx     0001C135  7  01 00 00 0F 03 35 C1 
  1008)     15088.9  Rx     0011C135  5  01 00 00 35 C1 
  1009)     15093.8  Rx     0001B674  7  01 00 00 0F 03 74 B6 
  1010)     15094.0  Rx     0011B674  5  01 00 00 74 B6 
  1011)     15098.8  Rx     00013A54  7  01 00 00 0F 03 54 3A 
  1012)     15099.0  Rx     00113A54  5  01 00 00 54 3A 
  1013)     15103.8  Rx     000147D2  7  01 00 00 0F 03 D2 47 
  1014)     15104.0  Rx     001147D2  5  01 00 00 D2 47 
  1015)     15108.8  Rx     0001396D  7  01 00 00 0F 03 6D 39 
  1016)     15109.0  Rx     0011396D  5  01 00 00 6D 39 
  1017)     15113.9  Rx     0001E935  7  01 00 00 0F 03 35 E9 
  1018)     15113.9  Rx     0011E935  5  01 00 00 35 E9 
  1019)     15118.9  Rx     000159A6  7  01 00 00 0F 03 A6 59 
  1020)     15118.9  Rx     001159A6  5  01 00 00 A6 59 
  1021)     15123.8  Rx     00013B53  7  01 00 00 0F 03 53 3B 
  1022)     15124.0  Rx     00113B53  5  01 00 00 53 3B 
  1023)     15128.9  Rx     0001A54B  7  01 00 00 0F 03 4B A5 
  1024)     15129.0  Rx     0011A54B  5  01 00 00 4B A5 
  1025)     15133.9  Rx     0001D63E  7  01 00 00 0F 03 3E D6 
  1026)     15134.0  Rx     0011D63E  5  01 00 00 3E D6 
  1027)     15138.8  Rx     00016DCD  7  01 00 00 0F 03 CD 6D 
  1028)     15139.0  Rx     00116DCD  5  01 00 00 CD 6D 
  1029)     15143.9  Rx     0001EA27  7  01 00 00 0F 03 27 EA 
  1030)     15144.0  Rx     0011EA27  5  01 00 00 27 EA 
  1031)     15148.9  Rx     0001B6A8  7  01 00 00 0F 03 A8 B6 
  1032)     15149.0  Rx     0011B6A8  5  01 00 00 A8 B6 
  1033)     15153.9  Rx     00011CFD  7  01 00 00 0F 03 FD 1C 
  1034)     15154.0  Rx     00111CFD  5  01 00 00 FD 1C 
  1035)     15158.9  Rx     00013C3F  7  01 00 00 0F 03 3F 3C 
  1036)     15159.0  Rx     00113C3F  5  01 00 00 3F 3C 
  1037)     15163.9  Rx     00015A27  7  01 00 00 0F 03 27 5A 
  1038)     15164.0  Rx     00115A27  5  01 00 00 27 5A 
  1039)     15168.9  Rx     0001AAAF  7  01 00 00 0F 03 AF AA 
  1040)     15169.0  Rx     0011AAAF  5  01 00 00 AF AA 
  1041)     15173.9  Rx     00012B64  7  01 00 00 0F 03 64 2B 
  1042)     15174.0  Rx     00112B64  5  01 00 00 64 2B 
  1043)     15178.9  Rx     0001612C  7  01 00 00 0F 03 2C 61 
  1044)     15179.0  Rx     0011612C  5  01 00 00 2C 61 
  1045)     15183.9  Rx     0001399F  7  01 00 00 0F 03 9F 39 
  1046)     15184.0  Rx     0011399F  5  01 00 00 9F 39 
  1047)     15188.9  Rx     0001B161  7  01 00 00 0F 03 61 B1 
  1048)     15189.0  Rx     0011B161  5  01 00 00 61 B1 
  1049)     15193.8  Rx     0001B237  7  01 00 00 0F 03 37 B2 
  1050)     15194.0  Rx     0011B237  5  01 00 00 37 B2 
  1051)     15198.9  Rx     000126E9  7  01 00 00 0F 03 E9 26 
  1052)     15199.0  Rx     001126E9  5  01 00 00 E9 26 
  1053)     15203.9  Rx     0001F105  7  01 00 00 0F 03 05 F1 
  1054)     15204.0  Rx     0011F105  5  01 00 00 05 F1 
  1055)     15208.9  Rx     000131DD  7  01 00 00 0F 03 DD 31 
  1056)     15209.0  Rx     001131DD  5  01 00 00 DD 31 
  1057)     15213.9  Rx     00015528  7  01 00 00 0F 03 28 55 
  1058)     15214.0  Rx     00115528  5  01 00 00 28 55 
  1059)     15218.8  Rx     0001580D  7  01 00 00 0F 03 0D 58 
  1060)     15219.0  Rx     0011580D  5  01 00 00 0D 58 
  1061)     15223.9  Rx     0001B668  7  01 00 00 0F 03 68 B6 
  1062)     15224.0  Rx     0011B668  5  01 00 00 68 B6 
  1063)     15228.9  Rx     00010F5C  7  01 00 00 0F 03 5C 0F 
  1064)     15229.0  Rx     00110F5C  5  01 00 00 5C 0F 
  1065)     15233.9  Rx     000126A4  7  01 00 00 0F 03 A4 26 
  1066)     15234.0  Rx     001126A4  5  01 00 00 A4 26 
  1067)     15238.9  Rx     00011857  7  01 00 00 0F 03 57 18 
  1068)     15239.0  Rx     00111857  5  01 00 00 57 18 
  1069)     15243.8  Rx     00019AA9  7  01 00 00 0F 03 A9 9A 
  1070)     15244.0  Rx     00119AA9  5  01 00 00 A9 9A 
  1071)     15248.8  Rx     00010EFD  7  01 00 00 0F 03 FD 0E 
  1072)     15249.0  Rx     00110EFD  5  01 00 00 FD 0E 
  1073)     15253.9  Rx     0001336A  7  01 00 00 0F 03 6A 33 
  1074)     15254.0  Rx     0011336A  5  01 00 00 6A 33 
  1075)     15258.9  Rx     00019C55  7  01 00 00 0F 03 55 9C 
  1076)     15259.0  Rx     00119C55  5  01 00 00 55 9C 
  1077)     15263.9  Rx     0001906B  7  01 00 00 0F 03 6B 90 
  1078)     15264.0  Rx     0011906B  5  01 00 00 6B 90 
  1079)     15268.9  Rx     00011645  7  01 00 00 0F 03 45 16 
  1080)     15269.0  Rx     00111645  5  01 00 00 45 16 
  1081)     15273.8  Rx     000121E0  7  01 00 00 0F 03 E0 21 
  1082)     15274.0  Rx     001121E0  5  01 00 00 E0 21 
  1083)     15278.8  Rx     00010FC5  7  01 00 00 0F 03 C5 0F 
  1084)     15279.0  Rx     00110FC5  5  01 00 00 C5 0F 
  1085)     15283.9  Rx     000198CA  7  01 00 00 0F 03 CA 98 
  1086)     15284.0  Rx     001198CA  5  01 00 00 CA 98 
  1087)     15288.9  Rx     00018263  7  01 00 00 0F 03 63 82 
  1088)     15289.0  Rx     00118263  5  01 00 00 63 82 
  1089)     15293.9  Rx     0001BD24  7  01 00 00 0F 03 24 BD 
  1090)     15294.0  Rx     0011BD24  5  01 00 00 24 BD 
  1091)     15298.8  Rx     000156B8  7  01 00 00 0F 03 B8 56 
  1092)     15299.0  Rx     001156B8  5  01 00 00 B8 56 
  1093)     15303.8  Rx     0001ADCE  7  01 00 00 0F 03 CE AD 
  1094)     15304.0  Rx     0011ADCE  5  01 00 00 CE AD 
  1095)     15308.9  Rx     00017C36  7  01 00 00 0F 03 36 7C 
  1096)     15309.0  Rx     00117C36  5  01 00 00 36 7C 
  1097)     15313.9  Rx     000187E3  7  01 00 00 0F 03 E3 87 
  1098)     15313.9  Rx     001187E3  5  01 00 00 E3 87 
  1099)     15318.9  Rx     0001E97C  7  01 00 00 0F 03 7C E9 
  1100)     15319.0  Rx     0011E97C  5  01 00 00 7C E9 
  1101)     15323.8  Rx     0001EA9D  7  01 00 00 0F 03 9D EA 
  1102)     15324.0  Rx     0011EA9D  5  01 00 00 9D EA 
  1103)     15328.8  Rx     00014510  7  01 00 00 0F 03 10 45 
  1104)     15329.0  Rx     00114510  5  01 00 00 10 45 
  1105)     15333.8  Rx     000132EC  7  01 00 00 0F 03 EC 32 
  1106)     15334.0  Rx     001132EC  5  01 00 00 EC 32 
  1107)     15338.9  Rx     0001A736  7  01 00 00 0F 03 36 A7 
  1108)     15339.0  Rx     0011A736  5  01 00 00 36 A7 
  1109)     15343.9  Rx     00019973  7  01 00 00 0F 03 73 99 
  1110)     15343.9  Rx     00119973  5  01 00 00 73 99 
  1111)     15348.8  Rx     00017438  7  01 00 00 0F 03 38 74 
  1112)     15349.0  Rx     00117438  5  01 00 00 38 74 
  1113)     15353.8  Rx     00015B83  7  01 00 00 0F 03 83 5B 
  1114)     15354.0  Rx     00115B83  5  01 00 00 83 5B 
  1115)     15358.8  Rx     00018751  7  01 00 00 0F 03 51 87 
  1116)     15359.0  Rx     00118751  5  01 00 00 51 87 
  1117)     15363.8  Rx     00013751  7  01 00 00 0F 03 51 37 
  1118)     15364.0  Rx     00113751  5  01 00 00 51 37 
  1119)     15368.9  Rx     00017130  7  01 00 00 0F 03 30 71 
  1120)     15368.9  Rx     00117130  5  01 00 00 30 71 
  1121)     15373.9  Rx     0001F176  7  01 00 00 0F 03 76 F1 
  1122)     15374.0  Rx     0011F176  5  01 00 00 76 F1 
  1123)     15378.8  Rx     0001959A  7  01 00 00 0F 03 9A 95 
  1124)     15379.0  Rx     0011959A  5  01 00 00 9A 95 
  1125)     15383.8  Rx     00019177  7  01 00 00 0F 03 77 91 
  1126)     15384.0  Rx     00119177  5  01 00 00 77 91 
  1127)     15388.8  Rx     000196BA  7  01 00 00 0F 03 BA 96 
  1128)     15389.0  Rx     001196BA  5  01 00 00 BA 96 
  1129)     15393.9  Rx     0001E0F0  7  01 00 00 0F 03 F0 E0 
  1130)     15393.9  Rx     0011E0F0  5  01 00 00 F0 E0 
  1131)     15398.9  Rx     0001A526  7  01 00 00 0F 03 26 A5 
  1132)     15398.9  Rx     0011A526  5  01 00 00 26 A5 
  1133)     15403.8  Rx     0001D492  7  01 00 00 0F 03 92 D4 
  1134)     15404.0  Rx     0011D492  5  01 00 00 92 D4 
  1135)     15408.8  Rx     00019E9A  7  01 00 00 0F 03 9A 9E 
  1136)     15409.0  Rx     00119E9A  5  01 00 00 9A 9E 
  1137)     15413.8  Rx     0001900F  7  01 00 00 0F 03 0F 90 
  1138)     15414.0  Rx     0011900F  5  01 00 00 0F 90 
  1139)     15418.9  Rx     000129FA  7  01 00 00 0F 03 FA 29 
  1140)     15419.0  Rx     001129FA  5  01 00 00 FA 29 
  1141)     15423.9  Rx     00018DB4  7  01 00 00 0F 03 B4 8D 
  1142)     15423.9  Rx     00118DB4  5  01 00 00 B4 8D 
  1143)     15428.8  Rx     0001EA1B  7  01 00 00 0F 03 1B EA 
  1144)     15428.9  Rx     0011EA1B  5  01 00 00 1B EA 
  1145)     15433.8  Rx     00018437  7  01 00 00 0F 03 37 84 
  1146)     15434.0  Rx     00118437  5  01 00 00 37 84 
  1147)     15438.8  Rx     0001FD68  7  01 00 00 0F 03 68 FD 
  1148)     15439.0  Rx     0011FD68  5  01 00 00 68 FD 
  1149)     15443.8  Rx     0001CD07  7  01 00 00 0F 03 07 CD 
  1150)     15444.0  Rx     0011CD07  5  01 00 00 07 CD 
  1151)     15448.8  Rx     0001CF53  7  01 00 00 0F 03 53 CF 
  1152)     15448.9  Rx     0011CF53  5  01 00 00 53 CF 
  1153)     15453.9  Rx     0001D723  7  01 00 00 0F 03 23 D7 
  1154)     15453.9  Rx     0011D723  5  01 00 00 23 D7 
  1155)     15458.8  Rx     0001493A  7  01 00 00 0F 03 3A 49 
  1156)     15459.0  Rx     0011493A  5  01 00 00 3A 49 
  1157)     15463.8  Rx     00012A40  7  01 00 00 0F 03 40 2A 
  1158)     15464.0  Rx     00112A40  5  01 00 00 40 2A 
  1159)     15468.8  Rx     0001EB26  7  01 00 00 0F 03 26 EB 
  1160)     15469.0  Rx     0011EB26  5  01 00 00 26 EB 
  1161)     15473.8  Rx     0001DFC0  7  01 00 00 0F 03 C0 DF 
  1162)     15473.9  Rx     0011DFC0  5  01 00 00 C0 DF 
  1163)     15478.9  Rx     00013990  7  01 00 00 0F 03 90 39 
  1164)     15478.9  Rx     00113990  5  01 00 00 90 39 
  1165)     15483.8  Rx     0001DAD4  7  01 00 00 0F 03 D4 DA 
  1166)     15483.9  Rx     0011DAD4  5  01 00 00 D4 DA 
  1167)     15488.8  Rx     0001700C  7  01 00 00 0F 03 0C 70 
  1168)     15489.0  Rx     0011700C  5  01 00 00 0C 70 
  1169)     15493.8  Rx     0001B6B9  7  01 00 00 0F 03 B9 B6 
  1170)     15494.0  Rx     0011B6B9  5  01 00 00 B9 B6 
  1171)     15498.8  Rx     0001DD89  7  01 00 00 0F 03 89 DD 
  1172)     15498.9  Rx     0011DD89  5  01 00 00 89 DD 
  1173)     15503.8  Rx     0001B9EB  7  01 00 00 0F 03 EB B9 
  1174)     15503.9  Rx     0011B9EB  5  01 00 00 EB B9 
  1175)     15508.8  Rx     00018191  7  01 00 00 0F 03 91 81 
  1176)     15508.9  Rx     00118191  5  01 00 00 91 81 
  1177)     15513.8  Rx     0001C2D0  7  01 00 00 0F 03 D0 C2 
  1178)     15514.0  Rx     0011C2D0  5  01 00 00 D0 C2 
  1179)     15518.8  Rx     0001EEA3  7  01 00 00 0F 03 A3 EE 
  1180)     15519.0  Rx     0011EEA3  5  01 00 00 A3 EE 
  1181)     15523.8  Rx     00016218  7  01 00 00 0F 03 18 62 
  1182)     15524.0  Rx     00116218  5  01 00 00 18 62 
  1183)     15528.8  Rx     00016C9F  7  01 00 00 0F 03 9F 6C 
  1184)     15528.9  Rx     00116C9F  5  01 00 00 9F 6C 
  1185)     15533.8  Rx     00014CF1  7  01 00 00 0F 03 F1 4C 
  1186)     15533.9  Rx     00114CF1  5  01 00 00 F1 4C 
  1187)     15538.8  Rx     0001AEE2  7  01 00 00 0F 03 E2 AE 
  1188)     15538.9  Rx     0011AEE2  5  01 00 00 E2 AE 
  1189)     15543.8  Rx     000138C5  7  01 00 00 0F 03 C5 38 
  1190)     15544.0  Rx     001138C5  5  01 00 00 C5 38 
  1191)     15548.8  Rx     00010C7D  7  01 00 00 0F 03 7D 0C 
  1192)     15549.0  Rx     00110C7D  5  01 00 00 7D 0C 
  1193)     15553.8  Rx     00012007  7  01 00 00 0F 03 07 20 
  1194)     15553.9  Rx     00112007  5  01 00 00 07 20 
  1195)     15558.8  Rx     0001A1B2  7  01 00 00 0F 03 B2 A1 
  1196)     15558.9  Rx     0011A1B2  5  01 00 00 B2 A1 
  1197)     15563.8  Rx     00017F6F  7  01 00 00 0F 03 6F 7F 
  1198)     15563.9  Rx     00117F6F  5  01 00 00 6F 7F 
  1199)     15568.8  Rx     00011096  7  01 00 00 0F 03 96 10 
  1200)     15568.9  Rx     00111096  5  01 00 00 96 10 
  1201)     15573.8  Rx     0001F88D  7  01 00 00 0F 03 8D F8 
  1202)     15574.0  Rx     0011F88D  5  01 00 00 8D F8 
  1203)     15578.8  Rx     00017B8C  7  01 00 00 0F 03 8C 7B 
  1204)     15578.9  Rx     00117B8C  5  01 00 00 8C 7B 
  1205)     15583.8  Rx     00015E96  7  01 00 00 0F 03 96 5E 
  1206)     15583.9  Rx     00115E96  5  01 00 00 96 5E 
  1207)     15588.8  Rx     000156F9  7  01 00 00 0F 03 F9 56 
  1208)     15588.9  Rx     001156F9  5  01 00 00 F9 56 
  1209)     15593.8  Rx     000133E3  7  01 00 00 0F 03 E3 33 
  1210)     15593.9  Rx     001133E3  5  01 00 00 E3 33 
  1211)     15598.8  Rx     0001C85A  7  01 00 00 0F 03 5A C8 
  1212)     15599.0  Rx     0011C85A  5  01 00 00 5A C8 
  1213)     15603.8  Rx     0001FA71  7  01 00 00 0F 03 71 FA 
  1214)     15603.9  Rx     0011FA71  5  01 00 00 71 FA 
  1215)     15608.8  Rx     000127A4  7  01 00 00 0F 03 A4 27 
  1216)     15608.9  Rx     001127A4  5  01 00 00 A4 27 
  1217)     15613.8  Rx     00013F65  7  01 00 00 0F 03 65 3F 
  1218)     15613.9  Rx     00113F65  5  01 00 00 65 3F 
  1219)     15618.8  Rx     0001EC9A  7  01 00 00 0F 03 9A EC 
  1220)     15618.9  Rx     0011EC9A  5  01 00 00 9A EC 
  1221)     15623.8  Rx     00018164  7  01 00 00 0F 03 64 81 
  1222)     15624.0  Rx     00118164  5  01 00 00 64 81 
  1223)     15628.8  Rx     0001947F  7  01 00 00 0F 03 7F 94 
  1224)     15629.0  Rx     0011947F  5  01 00 00 7F 94 
  1225)     15633.8  Rx     00014F3B  7  01 00 00 0F 03 3B 4F 
  1226)     15633.9  Rx     00114F3B  5  01 00 00 3B 4F 
  1227)     15638.8  Rx     0001CD44  7  01 00 00 0F 03 44 CD 
  1228)     15638.9  Rx     0011CD44  5  01 00 00 44 CD 
  1229)     15643.8  Rx     00014431  7  01 00 00 0F 03 31 44 
  1230)     15643.9  Rx     00114431  5  01 00 00 31 44 
  1231)     15648.8  Rx     0001D629  7  01 00 00 0F 03 29 D6 
  1232)     15648.9  Rx     0011D629  5  01 00 00 29 D6 
  1233)     15653.8  Rx     0001CCF1  7  01 00 00 0F 03 F1 CC 
  1234)     15653.9  Rx     0011CCF1  5  01 00 00 F1 CC 
  1235)     15658.8  Rx     0001AE6C  7  01 00 00 0F 03 6C AE 
  1236)     15658.9  Rx     0011AE6C  5  01 00 00 6C AE 
  1237)     15663.8  Rx     0001BBF0  7  01 00 00 0F 03 F0 BB 
  1238)     15663.9  Rx     0011BBF0  5  01 00 00 F0 BB 
  1239)     15668.8  Rx     00017575  7  01 00 00 0F 03 75 75 
  1240)     15668.9  Rx     00117575  5  01 00 00 75 75 
  1241)     15673.8  Rx     0001FDC5  7  01 00 00 0F 03 C5 FD 
  1242)     15673.9  Rx     0011FDC5  5  01 00 00 C5 FD 
  1243)     15678.8  Rx     000100A6  7  01 00 00 0F 03 A6 00 
  1244)     15679.0  Rx     001100A6  5  01 00 00 A6 00 
  1245)     15683.8  Rx     000191BF  7  01 00 00 0F 03 BF 91 
  1246)     15683.9  Rx     001191BF  5  01 00 00 BF 91 
  1247)     15688.8  Rx     0001C5B2  7  01 00 00 0F 03 B2 C5 
  1248)     15688.9  Rx     0011C5B2  5  01 00 00 B2 C5 
  1249)     15693.8  Rx     000188C3  7  01 00 00 0F 03 C3 88 
  1250)     15693.9  Rx     001188C3  5  01 00 00 C3 88 
  1251)     15698.8  Rx     0001412C  7  01 00 00 0F 03 2C 41 
  1252)     15698.9  Rx     0011412C  5  01 00 00 2C 41 
  1253)     15703.8  Rx     0001C839  7  01 00 00 0F 03 39 C8 
  1254)     15703.9  Rx     0011C839  5  01 00 00 39 C8 
  1255)     15708.8  Rx     000113AE  7  01 00 00 0F 03 AE 13 
  1256)     15708.9  Rx     001113AE  5  01 00 00 AE 13 
  1257)     15713.8  Rx     00010491  7  01 00 00 0F 03 91 04 
  1258)     15713.9  Rx     00110491  5  01 00 00 91 04 
  1259)     15718.8  Rx     0001B0C1  7  01 00 00 0F 03 C1 B0 
  1260)     15718.9  Rx     0011B0C1  5  01 00 00 C1 B0 
  1261)     15723.8  Rx     0001B6A7  7  01 00 00 0F 03 A7 B6 
  1262)     15723.9  Rx     0011B6A7  5  01 00 00 A7 B6 
  1263)     15728.8  Rx     00010977  7  01 00 00 0F 03 77 09 
  1264)     15728.9  Rx     00110977  5  01 00 00 77 09 
  1265)     15733.8  Rx     0001890A  7  01 00 00 0F 03 0A 89 
  1266)     15733.9  Rx     0011890A  5  01 00 00 0A 89 
  1267)     15738.8  Rx     00012D52  7  01 00 00 0F 03 52 2D 
  1268)     15738.9  Rx     00112D52  5  01 00 00 52 2D 
  1269)     15743.8  Rx     000119F8  7  01 00 00 0F 03 F8 19 
  1270)     15743.9  Rx     001119F8  5  01 00 00 F8 19 
  1271)     15748.8  Rx     0001FAE6  7  01 00 00 0F 03 E6 FA 
  1272)     15748.9  Rx     0011FAE6  5  01 00 00 E6 FA 
  1273)     15753.8  Rx     0001488C  7  01 00 00 0F 03 8C 48 
  1274)     15753.9  Rx     0011488C  5  01 00 00 8C 48 
  1275)     15758.8  Rx     00010E61  7  01 00 00 0F 03 61 0E 
  1276)     15758.9  Rx     00110E61  5  01 00 00 61 0E 
  1277)     15763.8  Rx     00013770  7  01 00 00 0F 03 70 37 
  1278)     15763.9  Rx     00113770  5  01 00 00 70 37 
  1279)     15768.8  Rx     000126DC  7  01 00 00 0F 03 DC 26 
  1280)     15768.9  Rx     001126DC  5  01 00 00 DC 26 
  1281)     15773.8  Rx     00011510  7  01 00 00 0F 03 10 15 
  1282)     15773.9  Rx     00111510  5  01 00 00 10 15 
  1283)     15778.8  Rx     0001DC21  7  01 00 00 0F 03 21 DC 
  1284)     15778.9  Rx     0011DC21  5  01 00 00 21 DC 
  1285)     15783.8  Rx     0001D122  7  01 00 00 0F 03 22 D1 
  1286)     15783.9  Rx     0011D122  5  01 00 00 22 D1 
  1287)     15788.8  Rx     00011D49  7  01 00 00 0F 03 49 1D 
  1288)     15788.9  Rx     00111D49  5  01 00 00 49 1D 
  1289)     15793.8  Rx     0001ECFE  7  01 00 00 0F 03 FE EC 
  1290)     15793.9  Rx     0011ECFE  5  01 00 00 FE EC 
  1291)     15798.8  Rx     00014160  7  01 00 00 0F 03 60 41 
  1292)     15798.9  Rx     00114160  5  01 00 00 60 41 
  1293)     15803.8  Rx     00014C1E  7  01 00 00 0F 03 1E 4C 
  1294)     15803.9  Rx     00114C1E  5  01 00 00 1E 4C 
  1295)     15808.8  Rx     000109F1  7  01 00 00 0F 03 F1 09 
  1296)     15808.9  Rx     001109F1  5  01 00 00 F1 09 
  1297)     15813.8  Rx     00019FBD  7  01 00 00 0F 03 BD 9F 
  1298)     15813.9  Rx     00119FBD  5  01 00 00 BD 9F 
  1299)     15818.8  Rx     0001B028  7  01 00 00 0F 03 28 B0 
  1300)     15818.9  Rx     0011B028  5  01 00 00 28 B0 
  1301)     15823.8  Rx     0001BC69  7  01 00 00 0F 03 69 BC 
  1302)     15823.9  Rx     0011BC69  5  01 00 00 69 BC 
  1303)     15828.8  Rx     0001F3ED  7  01 00 00 0F 03 ED F3 
  1304)     15828.9  Rx     0011F3ED  5  01 00 00 ED F3 
  1305)     15833.8  Rx     00013A0C  7  01 00 00 0F 03 0C 3A 
  1306)     15833.9  Rx     00113A0C  5  01 00 00 0C 3A 
  1307)     15838.8  Rx     00015D23  7  01 00 00 0F 03 23 5D 
  1308)     15838.9  Rx     00115D23  5  01 00 00 23 5D 
  1309)     15843.8  Rx     0001E6B0  7  01 00 00 0F 03 B0 E6 
  1310)     15843.9  Rx     0011E6B0  5  01 00 00 B0 E6 
  1311)     15848.8  Rx     000119F2  7  01 00 00 0F 03 F2 19 
  1312)     15848.9  Rx     001119F2  5  01 00 00 F2 19 
  1313)     15853.8  Rx     0001C612  7  01 00 00 0F 03 12 C6 
  1314)     15853.9  Rx     0011C612  5  01 00 00 12 C6 
  1315)     15858.8  Rx     0001F5C2  7  01 00 00 0F 03 C2 F5 
  1316)     15858.9  Rx     0011F5C2  5  01 00 00 C2 F5 
  1317)     15863.8  Rx     000163BC  7  01 00 00 0F 03 BC 63 
  1318)     15863.9  Rx     001163BC  5  01 00 00 BC 63 
  1319)     15868.8  Rx     00014B53  7  01 00 00 0F 03 53 4B 
  1320)     15868.9  Rx     00114B53  5  01 00 00 53 4B 
  1321)     15873.8  Rx     0001AB36  7  01 00 00 0F 03 36 AB 
  1322)     15873.9  Rx     0011AB36  5  01 00 00 36 AB 
  1323)     15878.8  Rx     0001711C  7  01 00 00 0F 03 1C 71 
  1324)     15878.9  Rx     0011711C  5  01 00 00 1C 71 
  1325)     15883.8  Rx     000199A3  7  01 00 00 0F 03 A3 99 
  1326)     15883.9  Rx     001199A3  5  01 00 00 A3 99 
  1327)     15888.8  Rx     000125C7  7  01 00 00 0F 03 C7 25 
  1328)     15888.9  Rx     001125C7  5  01 00 00 C7 25 
  1329)     15893.8  Rx     000161AF  7  01 00 00 0F 03 AF 61 
  1330)     15893.9  Rx     001161AF  5  01 00 00 AF 61 
  1331)     15898.8  Rx     0001EB96  7  01 00 00 0F 03 96 EB 
  1332)     15898.9  Rx     0011EB96  5  01 00 00 96 EB 
  1333)     15903.8  Rx     0001EAC2  7  01 00 00 0F 03 C2 EA 
  1334)     15903.9  Rx     0011EAC2  5  01 00 00 C2 EA 
  1335)     15908.8  Rx     000177EB  7  01 00 00 0F 03 EB 77 
  1336)     15908.9  Rx     001177EB  5  01 00 00 EB 77 
  1337)     15913.8  Rx     0001EDDA  7  01 00 00 0F 03 DA ED 
  1338)     15913.9  Rx     0011EDDA  5  01 00 00 DA ED 
  1339)     15918.8  Rx     00016946  7  01 00 00 0F 03 46 69 
  1340)     15918.9  Rx     00116946  5  01 00 00 46 69 
  1341)     15923.8  Rx     0001AA6D  7  01 00 00 0F 03 6D AA 
  1342)     15923.9  Rx     0011AA6D  5  01 00 00 6D AA 
  1343)     15928.8  Rx     00017085  7  01 00 00 0F 03 85 70 
  1344)     15928.9  Rx     00117085  5  01 00 00 85 70 
  1345)     15933.8  Rx     00017B4E  7  01 00 00 0F 03 4E 7B 
  1346)     15933.9  Rx     00117B4E  5  01 00 00 4E 7B 
  1347)     15938.8  Rx     0001BF17  7  01 00 00 0F 03 17 BF 
  1348)     15938.9  Rx     0011BF17  5  01 00 00 17 BF 
  1349)     15943.8  Rx     00013B63  7  01 00 00 0F 03 63 3B 
  1350)     15943.9  Rx     00113B63  5  01 00 00 63 3B 
  1351)     15948.8  Rx     00012A8D  7  01 00 00 0F 03 8D 2A 
  1352)     15948.9  Rx     00112A8D  5  01 00 00 8D 2A 
  1353)     15953.8  Rx     0001E3B0  7  01 00 00 0F 03 B0 E3 
  1354)     15953.9  Rx     0011E3B0  5  01 00 00 B0 E3 
  1355)     15958.8  Rx     000136AC  7  01 00 00 0F 03 AC 36 
  1356)     15958.9  Rx     001136AC  5  01 00 00 AC 36 
  1357)     15963.8  Rx     00011402  7  01 00 00 0F 03 02 14 
  1358)     15963.9  Rx     00111402  5  01 00 00 02 14 
  1359)     15968.8  Rx     0001B1EB  7  01 00 00 0F 03 EB B1 
  1360)     15968.9  Rx     0011B1EB  5  01 00 00 EB B1 
  1361)     15973.8  Rx     00014145  7  01 00 00 0F 03 45 41 
  1362)     15973.9  Rx     00114145  5  01 00 00 45 41 
  1363)     15978.8  Rx     00018905  7  01 00 00 0F 03 05 89 
  1364)     15978.9  Rx     00118905  5  01 00 00 05 89 
  1365)     15983.8  Rx     0001E03F  7  01 00 00 0F 03 3F E0 
  1366)     15983.9  Rx     0011E03F  5  01 00 00 3F E0 
  1367)     15988.8  Rx     00019500  7  01 00 00 0F 03 00 95 
  1368)     15988.9  Rx     00119500  5  01 00 00 00 95 
  1369)     15993.8  Rx     00018D4B  7  01 00 00 0F 03 4B 8D 
  1370)     15993.9  Rx     00118D4B  5  01 00 00 4B 8D 
  1371)     15998.8  Rx     0001A7E2  7  01 00 00 0F 03 E2 A7 
  1372)     15998.9  Rx     0011A7E2  5  01 00 00 E2 A7 
  1373)     16003.8  Rx     00018153  7  01 00 00 0F 03 53 81 
  1374)     16003.9  Rx     00118153  5  01 00 00 53 81 
  1375)     16008.8  Rx     00010AE6  7  01 00 00 0F 03 E6 0A 
  1376)     16008.9  Rx     00110AE6  5  01 00 00 E6 0A 
  1377)     16013.8  Rx     00011E08  7  01 00 00 0F 03 08 1E 
  1378)     16013.9  Rx     00111E08  5  01 00 00 08 1E 
  1379)     16018.8  Rx     000165EA  7  01 00 00 0F 03 EA 65 
  1380)     16018.9  Rx     001165EA  5  01 00 00 EA 65 
  1381)     16023.8  Rx     00012335  7  01 00 00 0F 03 35 23 
  1382)     16023.9  Rx     00112335  5  01 00 00 35 23 
  1383)     16028.8  Rx     00015276  7  01 00 00 0F 03 76 52 
  1384)     16028.9  Rx     00115276  5  01 00 00 76 52 
  1385)     16033.8  Rx     0001309E  7  01 00 00 0F 03 9E 30 
  1386)     16033.9  Rx     0011309E  5  01 00 00 9E 30 
  1387)     16038.8  Rx     0001818A  7  01 00 00 0F 03 8A 81 
  1388)     16038.9  Rx     0011818A  5  01 00 00 8A 81 
  1389)     16043.8  Rx     00014BCA  7  01 00 00 0F 03 CA 4B 
  1390)     16043.9  Rx     00114BCA  5  01 00 00 CA 4B 
  1391)     16048.8  Rx     0001060D  7  01 00 00 0F 03 0D 06 
  1392)     16048.9  Rx     0011060D  5  01 00 00 0D 06 
  1393)     16053.8  Rx     00019EA4  7  01 00 00 0F 03 A4 9E 
  1394)     16053.9  Rx     00119EA4  5  01 00 00 A4 9E 
  1395)     16058.8  Rx     00014A9E  7  01 00 00 0F 03 9E 4A 
  1396)     16058.9  Rx     00114A9E  5  01 00 00 9E 4A 
  1397)     16063.8  Rx     0001EBDD  7  01 00 00 0F 03 DD EB 
  1398)     16063.9  Rx     0011EBDD  5  01 00 00 DD EB 
  1399)     16068.8  Rx     0001640E  7  01 00 00 0F 03 0E 64 
  1400)     16068.9  Rx     0011640E  5  01 00 00 0E 64 
  1401)     16073.8  Rx     00013F75  7  01 00 00 0F 03 75 3F 
  1402)     16073.9  Rx     00113F75  5  01 00 00 75 3F 
  1403)     16078.8  Rx     000182D1  7  01 00 00 0F 03 D1 82 
  1404)     16078.9  Rx     001182D1  5  01 00 00 D1 82 
  1405)     16083.8  Rx     000171CF  7  01 00 00 0F 03 CF 71 
  1406)     16083.9  Rx     001171CF  5  01 00 00 CF 71 
  1407)     16088.8  Rx     0001AC26  7  01 00 00 0F 03 26 AC 
  1408)     16088.9  Rx     0011AC26  5  01 00 00 26 AC 
  1409)     16093.8  Rx     00018D45  7  01 00 00 0F 03 45 8D 
  1410)     16093.9  Rx     00118D45  5  01 00 00 45 8D 
  1411)     16098.8  Rx     000128C3  7  01 00 00 0F 03 C3 28 
  1412)     16098.9  Rx     001128C3  5  01 00 00 C3 28 
  1413)     16103.8  Rx     0001DA0E  7  01 00 00 0F 03 0E DA 
  1414)     16103.9  Rx     0011DA0E  5  01 00 00 0E DA 
  1415)     16108.8  Rx     00015151  7  01 00 00 0F 03 51 51 
  1416)     16108.9  Rx     00115151  5  01 00 00 51 51 
  1417)     16113.8  Rx     000145F8  7  01 00 00 0F 03 F8 45 
  1418)     16113.9  Rx     001145F8  5  01 00 00 F8 45 
  1419)     16118.8  Rx     000149EF  7  01 00 00 0F 03 EF 49 
  1420)     16118.9  Rx     001149EF  5  01 00 00 EF 49 
  1421)     16123.7  Rx     0001B546  7  01 00 00 0F 03 46 B5 
  1422)     16123.9  Rx     0011B546  5  01 00 00 46 B5 
  1423)     16128.8  Rx     0001709F  7  01 00 00 0F 03 9F 70 
  1424)     16128.9  Rx     0011709F  5  01 00 00 9F 70 
  1425)     16133.8  Rx     0001DFB1  7  01 00 00 0F 03 B1 DF 
  1426)     16133.9  Rx     0011DFB1  5  01 00 00 B1 DF 
  1427)     16138.8  Rx     0001DB4A  7  01 00 00 0F 03 4A DB 
  1428)     16138.9  Rx     0011DB4A  5  01 00 00 4A DB 
  1429)     16143.8  Rx     00014459  7  01 00 00 0F 03 59 44 
  1430)     16143.9  Rx     00114459  5  01 00 00 59 44 
  1431)     16148.8  Rx     0001FCB6  7  01 00 00 0F 03 B6 FC 
  1432)     16148.9  Rx     0011FCB6  5  01 00 00 B6 FC 
  1433)     16153.8  Rx     00011D2C  7  01 00 00 0F 03 2C 1D 
  1434)     16153.9  Rx     00111D2C  5  01 00 00 2C 1D 
  1435)     16158.8  Rx     000174AA  7  01 00 00 0F 03 AA 74 
  1436)     16158.9  Rx     001174AA  5  01 00 00 AA 74 
  1437)     16163.8  Rx     0001820F  7  01 00 00 0F 03 0F 82 
  1438)     16163.9  Rx     0011820F  5  01 00 00 0F 82 
  1439)     16168.8  Rx     00013216  7  01 00 00 0F 03 16 32 
  1440)     16168.9  Rx     00113216  5  01 00 00 16 32 
  1441)     16173.7  Rx     0001B1CB  7  01 00 00 0F 03 CB B1 
  1442)     16173.8  Rx     0011B1CB  5  01 00 00 CB B1 
  1443)     16178.7  Rx     000136EC  7  01 00 00 0F 03 EC 36 
  1444)     16178.8  Rx     001136EC  5  01 00 00 EC 36 
  1445)     16183.7  Rx     00012A8C  7  01 00 00 0F 03 8C 2A 
  1446)     16183.8  Rx     00112A8C  5  01 00 00 8C 2A 
  1447)     16188.7  Rx     0001C41E  7  01 00 00 0F 03 1E C4 
  1448)     16188.8  Rx     0011C41E  5  01 00 00 1E C4 
  1449)     16193.7  Rx     0001BD71  7  01 00 00 0F 03 71 BD 
  1450)     16193.8  Rx     0011BD71  5  01 00 00 71 BD 
  1451)     16198.7  Rx     000184D4  7  01 00 00 0F 03 D4 84 
  1452)     16198.8  Rx     001184D4  5  01 00 00 D4 84 
  1453)     16203.7  Rx     0001E484  7  01 00 00 0F 03 84 E4 
  1454)     16203.8  Rx     0011E484  5  01 00 00 84 E4 
  1455)     16208.7  Rx     00014AD2  7  01 00 00 0F 03 D2 4A 
  1456)     16208.8  Rx     00114AD2  5  01 00 00 D2 4A 
  1457)     16213.7  Rx     00016011  7  01 00 00 0F 03 11 60 
  1458)     16213.8  Rx     00116011  5  01 00 00 11 60 
  1459)     16218.7  Rx     0001F2B2  7  01 00 00 0F 03 B2 F2 
  1460)     16218.8  Rx     0011F2B2  5  01 00 00 B2 F2 
  1461)     16223.7  Rx     00013830  7  01 00 00 0F 03 30 38 
  1462)     16223.8  Rx     00113830  5  01 00 00 30 38 
  1463)     16228.7  Rx     00017159  7  01 00 00 0F 03 59 71 
  1464)     16228.8  Rx     00117159  5  01 00 00 59 71 
  1465)     16233.7  Rx     00015505  7  01 00 00 0F 03 05 55 
  1466)     16233.8  Rx     00115505  5  01 00 00 05 55 
  1467)     16238.7  Rx     0001F0C9  7  01 00 00 0F 03 C9 F0 
  1468)     16238.8  Rx     0011F0C9  5  01 00 00 C9 F0 
  1469)     16243.7  Rx     0001AFFF  7  01 00 00 0F 03 FF AF 
  1470)     16243.8  Rx     0011AFFF  5  01 00 00 FF AF 
  1471)     16248.7  Rx     00017147  7  01 00 00 0F 03 47 71 
  1472)     16248.8  Rx     00117147  5  01 00 00 47 71 
  1473)     16253.7  Rx     0001721F  7  01 00 00 0F 03 1F 72 
  1474)     16253.8  Rx     0011721F  5  01 00 00 1F 72 
  1475)     16258.7  Rx     0001C06E  7  01 00 00 0F 03 6E C0 
  1476)     16258.8  Rx     0011C06E  5  01 00 00 6E C0 
  1477)     16263.7  Rx     0001D70C  7  01 00 00 0F 03 0C D7 
  1478)     16263.8  Rx     0011D70C  5  01 00 00 0C D7 
  1479)     16268.7  Rx     00013E9F  7  01 00 00 0F 03 9F 3E 
  1480)     16268.8  Rx     00113E9F  5  01 00 00 9F 3E 
  1481)     16273.7  Rx     00013E7F  7  01 00 00 0F 03 7F 3E 
  1482)     16273.8  Rx     00113E7F  5  01 00 00 7F 3E 
  1483)     16278.7  Rx     000127F2  7  01 00 00 0F 03 F2 27 
  1484)     16278.8  Rx     001127F2  5  01 00 00 F2 27 
  1485)     16283.7  Rx     00015552  7  01 00 00 0F 03 52 55 
  1486)     16283.8  Rx     00115552  5  01 00 00 52 55 
  1487)     16288.7  Rx     0001E096  7  01 00 00 0F 03 96 E0 
  1488)     16288.8  Rx     0011E096  5  01 00 00 96 E0 
  1489)     16293.7  Rx     00019129  7  01 00 00 0F 03 29 91 
  1490)     16293.8  Rx     00119129  5  01 00 00 29 91 
  1491)     16298.7  Rx     00014140  7  01 00 00 0F 03 40 41 
  1492)     16298.8  Rx     00114140  5  01 00 00 40 41 
  1493)     16303.7  Rx     000109A0  7  01 00 00 0F 03 A0 09 
  1494)     16303.8  Rx     001109A0  5  01 00 00 A0 09 
  1495)     16308.7  Rx     0001D317  7  01 00 00 0F 03 17 D3 
  1496)     16308.8  Rx     0011D317  5  01 00 00 17 D3 
  1497)     16313.7  Rx     00010B55  7  01 00 00 0F 03 55 0B 
  1498)     16313.8  Rx     00110B55  5  01 00 00 55 0B 
  1499)     16318.7  Rx     00016F45  7  01 00 00 0F 03 45 6F 
  1500)     16318.8  Rx     00116F45  5  01 00 00 45 6F 
  1501)     16323.7  Rx     0001014C  7  01 00 00 0F 03 4C 01 
  1502)     16323.8  Rx     0011014C  5  01 00 00 4C 01 
  1503)     16328.7  Rx     0001390A  7  01 00 00 0F 03 0A 39 
  1504)     16328.8  Rx     0011390A  5  01 00 00 0A 39 
  1505)     16333.7  Rx     0001AA85  7  01 00 00 0F 03 85 AA 
  1506)     16333.8  Rx     0011AA85  5  01 00 00 85 AA 
  1507)     16338.7  Rx     00010212  7  01 00 00 0F 03 12 02 
  1508)     16338.8  Rx     00110212  5  01 00 00 12 02 
  1509)     16343.7  Rx     00019DAA  7  01 00 00 0F 03 AA 9D 
  1510)     16343.8  Rx     00119DAA  5  01 00 00 AA 9D 
  1511)     16348.7  Rx     00014B54  7  01 00 00 0F 03 54 4B 
  1512)     16348.8  Rx     00114B54  5  01 00 00 54 4B 
  1513)     16353.7  Rx     00016E57  7  01 00 00 0F 03 57 6E 
  1514)     16353.8  Rx     00116E57  5  01 00 00 57 6E 
  1515)     16358.7  Rx     000119C2  7  01 00 00 0F 03 C2 19 
  1516)     16358.8  Rx     001119C2  5  01 00 00 C2 19 
  1517)     16363.7  Rx     00018F3A  7  01 00 00 0F 03 3A 8F 
  1518)     16363.8  Rx     00118F3A  5  01 00 00 3A 8F 
  1519)     16368.7  Rx     00018C9C  7  01 00 00 0F 03 9C 8C 
  1520)     16368.8  Rx     00118C9C  5  01 00 00 9C 8C 
  1521)     16373.7  Rx     0001CE1F  7  01 00 00 0F 03 1F CE 
  1522)     16373.8  Rx     0011CE1F  5  01 00 00 1F CE 
  1523)     16378.7  Rx     00017C1C  7  01 00 00 0F 03 1C 7C 
  1524)     16378.8  Rx     00117C1C  5  01 00 00 1C 7C 
  1525)     16383.7  Rx     0001FAA4  7  01 00 00 0F 03 A4 FA 
  1526)     16383.8  Rx     0011FAA4  5  01 00 00 A4 FA 
  1527)     16388.7  Rx     000135D3  7  01 00 00 0F 03 D3 35 
  1528)     16388.8  Rx     001135D3  5  01 00 00 D3 35 
  1529)     16393.7  Rx     00015A32  7  01 00 00 0F 03 32 5A 
  1530)     16393.8  Rx     00115A32  5  01 00 00 32 5A 
  1531)     16398.7  Rx     00015CF7  7  01 00 00 0F 03 F7 5C 
  1532)     16398.8  Rx     00115CF7  5  01 00 00 F7 5C 
  1533)     16403.7  Rx     00018364  7  01 00 00 0F 03 64 83 
  1534)     16403.8  Rx     00118364  5  01 00 00 64 83 
  1535)     16408.7  Rx     00016370  7  01 00 00 0F 03 70 63 
  1536)     16408.8  Rx     00116370  5  01 00 00 70 63 
  1537)     16413.7  Rx     00014102  7  01 00 00 0F 03 02 41 
  1538)     16413.8  Rx     00114102  5  01 00 00 02 41 
  1539)     16418.7  Rx     00012960  7  01 00 00 0F 03 60 29 
  1540)     16418.8  Rx     00112960  5  01 00 00 60 29 
  1541)     16423.7  Rx     00014444  7  01 00 00 0F 03 44 44 
  1542)     16423.8  Rx     00114444  5  01 00 00 44 44 
  1543)     16428.7  Rx     0001877E  7  01 00 00 0F 03 7E 87 
  1544)     16428.8  Rx     0011877E  5  01 00 00 7E 87 
  1545)     16433.7  Rx     0001EBEE  7  01 00 00 0F 03 EE EB 
  1546)     16433.8  Rx     0011EBEE  5  01 00 00 EE EB 
  1547)     16438.7  Rx     00015D7D  7  01 00 00 0F 03 7D 5D 
  1548)     16438.8  Rx     00115D7D  5  01 00 00 7D 5D 
  1549)     16443.7  Rx     0001118C  7  01 00 00 0F 03 8C 11 
  1550)     16443.8  Rx     0011118C  5  01 00 00 8C 11 
  1551)     16448.7  Rx     0001A456  7  01 00 00 0F 03 56 A4 
  1552)     16448.8  Rx     0011A456  5  01 00 00 56 A4 
  1553)     16453.7  Rx     00017BD5  7  01 00 00 0F 03 D5 7B 
  1554)     16453.8  Rx     00117BD5  5  01 00 00 D5 7B 
  1555)     16458.7  Rx     00015D2E  7  01 00 00 0F 03 2E 5D 
  1556)     16458.8  Rx     00115D2E  5  01 00 00 2E 5D 
  1557)     16463.7  Rx     000150FB  7  01 00 00 0F 03 FB 50 
  1558)     16463.8  Rx     001150FB  5  01 00 00 FB 50 
  1559)     16468.7  Rx     0001AC2C  7  01 00 00 0F 03 2C AC 
  1560)     16468.8  Rx     0011AC2C  5  01 00 00 2C AC 
  1561)     16473.7  Rx     00016D70  7  01 00 00 0F 03 70 6D 
  1562)     16473.8  Rx     00116D70  5  01 00 00 70 6D 
  1563)     16478.7  Rx     00013378  7  01 00 00 0F 03 78 33 
  1564)     16478.8  Rx     00113378  5  01 00 00 78 33 
  1565)     16483.7  Rx     00012B73  7  01 00 00 0F 03 73 2B 
  1566)     16483.8  Rx     00112B73  5  01 00 00 73 2B 
  1567)     16488.6  Rx     0001BD4B  7  01 00 00 0F 03 4B BD 
  1568)     16488.8  Rx     0011BD4B  5  01 00 00 4B BD 
  1569)     16493.7  Rx     00011D5C  7  01 00 00 0F 03 5C 1D 
  1570)     16493.8  Rx     00111D5C  5  01 00 00 5C 1D 
  1571)     16498.7  Rx     000168A2  7  01 00 00 0F 03 A2 68 
  1572)     16498.8  Rx     001168A2  5  01 00 00 A2 68 
  1573)     16503.7  Rx     00019476  7  01 00 00 0F 03 76 94 
  1574)     16503.8  Rx     00119476  5  01 00 00 76 94 
  1575)     16508.7  Rx     0001831E  7  01 00 00 0F 03 1E 83 
  1576)     16508.8  Rx     0011831E  5  01 00 00 1E 83 
  1577)     16513.6  Rx     00015FF8  7  01 00 00 0F 03 F8 5F 
  1578)     16513.8  Rx     00115FF8  5  01 00 00 F8 5F 
  1579)     16518.7  Rx     0001E31B  7  01 00 00 0F 03 1B E3 
  1580)     16518.8  Rx     0011E31B  5  01 00 00 1B E3 
  1581)     16523.7  Rx     00016754  7  01 00 00 0F 03 54 67 
  1582)     16523.8  Rx     00116754  5  01 00 00 54 67 
  1583)     16528.7  Rx     00017BF5  7  01 00 00 0F 03 F5 7B 
  1584)     16528.8  Rx     00117BF5  5  01 00 00 F5 7B 
  1585)     16533.7  Rx     0001FCF3  7  01 00 00 0F 03 F3 FC 
  1586)     16533.8  Rx     0011FCF3  5  01 00 00 F3 FC 
  1587)     16538.6  Rx     00019322  7  01 00 00 0F 03 22 93 
  1588)     16538.8  Rx     00119322  5  01 00 00 22 93 
  1589)     16543.6  Rx     00014E20  7  01 00 00 0F 03 20 4E 
  1590)     16543.8  Rx     00114E20  5  01 00 00 20 4E 
  1591)     16548.7  Rx     00014F84  7  01 00 00 0F 03 84 4F 
  1592)     16548.8  Rx     00114F84  5  01 00 00 84 4F 
  1593)     16553.7  Rx     00016AA4  7  01 00 00 0F 03 A4 6A 
  1594)     16553.8  Rx     00116AA4  5  01 00 00 A4 6A 
  1595)     16558.7  Rx     00016122  7  01 00 00 0F 03 22 61 
  1596)     16558.8  Rx     00116122  5  01 00 00 22 61 
  1597)     16563.7  Rx     00010666  7  01 00 00 0F 03 66 06 
  1598)     16563.8  Rx     00110666  5  01 00 00 66 06 
  1599)     16568.6  Rx     00011E2A  7  01 00 00 0F 03 2A 1E 
  1600)     16568.8  Rx     00111E2A  5  01 00 00 2A 1E 
  1601)     16573.6  Rx     00012117  7  01 00 00 0F 03 17 21 
  1602)     16573.8  Rx     00112117  5  01 00 00 17 21 
  1603)     16578.7  Rx     0001FEE0  7  01 00 00 0F 03 E0 FE 
  1604)     16578.8  Rx     0011FEE0  5  01 00 00 E0 FE 
  1605)     16583.7  Rx     0001539E  7  01 00 00 0F 03 9E 53 
  1606)     16583.8  Rx     0011539E  5  01 00 00 9E 53 
  1607)     16588.7  Rx     0001CCF6  7  01 00 00 0F 03 F6 CC 
  1608)     16588.8  Rx     0011CCF6  5  01 00 00 F6 CC 
  1609)     16593.6  Rx     000168EB  7  01 00 00 0F 03 EB 68 
  1610)     16593.8  Rx     001168EB  5  01 00 00 EB 68 
  1611)     16598.6  Rx     00019B57  7  01 00 00 0F 03 57 9B 
  1612)     16598.8  Rx     00119B57  5  01 00 00 57 9B 
  1613)     16603.7  Rx     00010B5E  7  01 00 00 0F 03 5E 0B 
  1614)     16603.8  Rx     00110B5E  5  01 00 00 5E 0B 
  1615)     16608.7  Rx     00015E69  7  01 00 00 0F 03 69 5E 
  1616)     16608.7  Rx     00115E69  5  01 00 00 69 5E 
  1617)     16613.7  Rx     0001BDDD  7  01 00 00 0F 03 DD BD 
  1618)     16613.8  Rx     0011BDDD  5  01 00 00 DD BD 
  1619)     16618.6  Rx     0001CD5E  7  01 00 00 0F 03 5E CD 
  1620)     16618.8  Rx     0011CD5E  5  01 00 00 5E CD 
  1621)     16623.6  Rx     00013752  7  01 00 00 0F 03 52 37 
  1622)     16623.8  Rx     00113752  5  01 00 00 52 37 
  1623)     16628.6  Rx     00012FFB  7  01 00 00 0F 03 FB 2F 
  1624)     16628.8  Rx     00112FFB  5  01 00 00 FB 2F 
  1625)     16633.7  Rx     00016D23  7  01 00 00 0F 03 23 6D 
  1626)     16633.8  Rx     00116D23  5  01 00 00 23 6D 
  1627)     16638.7  Rx     0001610E  7  01 00 00 0F 03 0E 61 
  1628)     16638.8  Rx     0011610E  5  01 00 00 0E 61 
  1629)     16643.7  Rx     000114EB  7  01 00 00 0F 03 EB 14 
  1630)     16643.8  Rx     001114EB  5  01 00 00 EB 14 
  1631)     16648.6  Rx     0001585F  7  01 00 00 0F 03 5F 58 
